
SetupTitle, Output
PrimitiveTest, I/V Sweep
TestParameter, Context.MainFrame, B1500A
TestParameter, Channel.UnitType, SMU, SMU, SMU
TestParameter, Channel.Unit, SMU1:MP, SMU2:MC, GNDU:GND
TestParameter, Channel.IName, Id, Ig, Is
TestParameter, Channel.VName, Vd, Vg, Vs
TestParameter, Channel.Mode, V, V, COMMON
TestParameter, Channel.Func, VAR1, CONST, CONST
TestParameter, Channel.Index, 
TestParameter, Channel.Time, 
TestParameter, Measurement.Port.Unit, SMU1:MP, SMU2:MC, GNDU:GND
TestParameter, Measurement.Port.SeriesResistor, NONE, NONE, NONE
TestParameter, Measurement.Port.Filter, ON, ON, ON
TestParameter, Measurement.Port.OutputVoltageComparison, 0, 0, 0
TestParameter, Measurement.Primary.Locus, Single
TestParameter, Measurement.Primary.Scale, LINEAR
TestParameter, Measurement.Primary.Start, 0
TestParameter, Measurement.Primary.Stop, 10
TestParameter, Measurement.Primary.Step, 0.05
TestParameter, Measurement.Primary.Compliance, 0.1
TestParameter, Measurement.Primary.PowerCompliance, 0
TestParameter, Measurement.Aborting.Condition, CONTINUE AT ANY
TestParameter, Measurement.PostOutput.Value, START
TestParameter, Measurement.PostOutput.Retention, OFF
TestParameter, Measurement.Bias.Source, 0, 7.0000000000000009, 0
TestParameter, Measurement.Bias.Compliance, 0.1, 0.0001, 2
TestParameter, Measurement.Monitor.Unit, SMU1:MP, SMU2:MC, GNDU:GND
TestParameter, Measurement.Monitor.Adc, HR ADC, HS ADC, HR ADC
TestParameter, Measurement.Monitor.Measurement, Compliance Side, Force and Compliance Sides, Compliance Side
TestParameter, Measurement.Monitor.RangingMode, LIMITED, LIMITED, LIMITED
TestParameter, Measurement.Monitor.RangeBoundary, 1nA, 10uA, 1nA
TestParameter, Measurement.Monitor.RangeRating, BY FULL RANGE, BY FULL RANGE, BY FULL RANGE
TestParameter, Measurement.Monitor.RangeRatingCoeff, 50, 50, 50
TestParameter, Measurement.Timing.Hold, 0
TestParameter, Measurement.Timing.Delay, 0
TestParameter, Measurement.Adc.HighSpeed.Mode, AUTO
TestParameter, Measurement.Adc.HighSpeed.Coeff, 1
TestParameter, Measurement.Adc.HighResolution.AutoZero, OFF
TestParameter, Measurement.Adc.HighResolution.Mode, PLC
TestParameter, Measurement.Adc.HighResolution.Coeff, 1
TestParameter, Measurement.WaitTime.Source.Coeff, 1
TestParameter, Measurement.WaitTime.Source.Offset, 0
TestParameter, Measurement.WaitTime.Monitor.Coeff, 1
TestParameter, Measurement.WaitTime.Monitor.Offset, 0
TestParameter, Function.User.Name, Id_dens, Ig_dens, Ron
TestParameter, Function.User.Unit, A/mm, A/mm, Ohm/mm
TestParameter, Function.User.Definition, Id/0.06, abs(Ig)/0.06, diff(Vd,Id_dens)
TestParameter, Output.Graph.Enabled, true
TestParameter, Output.Graph.AutoScaling, false
TestParameter, Output.Graph.XAxis.Data, Vd
TestParameter, Output.Graph.XAxis.Scale, Linear
TestParameter, Output.Graph.XAxis.Left, 0
TestParameter, Output.Graph.XAxis.Right, 6
TestParameter, Output.Graph.XAxis.RunTimeAutoScale, false
TestParameter, Output.Graph.YAxis.Data, Id_dens, Ron
TestParameter, Output.Graph.YAxis.Scale, Linear, Linear
TestParameter, Output.Graph.YAxis.Bottom, 0, 0
TestParameter, Output.Graph.YAxis.Top, 0.30000000000000004, 1
TestParameter, Output.Graph.YAxis.Group, , 
TestParameter, Output.Graph.YAxis.RunTimeAutoScale, false, false
TestParameter, Output.List.Data, Vd, Id_dens, Ig_dens, Vg, Ron
TestParameter, AutoAnalysis.Interpolation, false
TestParameter, AutoAnalysis.Line1.Enabled, false
TestParameter, AutoAnalysis.Line1.Type, 1
TestParameter, AutoAnalysis.Line1.Fix, True
TestParameter, AutoAnalysis.Line1.YAxis, 0
TestParameter, AutoAnalysis.Line1.Point1.Type, 0
TestParameter, AutoAnalysis.Line1.Point1.XY.X, 
TestParameter, AutoAnalysis.Line1.Point1.XY.Y, 
TestParameter, AutoAnalysis.Line1.Point1.Data.Var, 
TestParameter, AutoAnalysis.Line1.Point1.Data.Condition, 
TestParameter, AutoAnalysis.Line1.Point1.Data.Start, false
TestParameter, AutoAnalysis.Line1.Point1.Data.StartVar, 
TestParameter, AutoAnalysis.Line1.Point1.Data.StartCondition, 
TestParameter, AutoAnalysis.Line1.Point2.Type, 0
TestParameter, AutoAnalysis.Line1.Point2.XY.X, 
TestParameter, AutoAnalysis.Line1.Point2.XY.Y, 
TestParameter, AutoAnalysis.Line1.Point2.Data.Var, 
TestParameter, AutoAnalysis.Line1.Point2.Data.Condition, 
TestParameter, AutoAnalysis.Line1.Point2.Data.Start, false
TestParameter, AutoAnalysis.Line1.Point2.Data.StartVar, 
TestParameter, AutoAnalysis.Line1.Point2.Data.StartCondition, 
TestParameter, AutoAnalysis.Line1.GradientExpr, 0
TestParameter, AutoAnalysis.Line2.Enabled, false
TestParameter, AutoAnalysis.Line2.Type, 1
TestParameter, AutoAnalysis.Line2.Fix, True
TestParameter, AutoAnalysis.Line2.YAxis, 0
TestParameter, AutoAnalysis.Line2.Point1.Type, 0
TestParameter, AutoAnalysis.Line2.Point1.XY.X, 
TestParameter, AutoAnalysis.Line2.Point1.XY.Y, 
TestParameter, AutoAnalysis.Line2.Point1.Data.Var, 
TestParameter, AutoAnalysis.Line2.Point1.Data.Condition, 
TestParameter, AutoAnalysis.Line2.Point1.Data.Start, false
TestParameter, AutoAnalysis.Line2.Point1.Data.StartVar, 
TestParameter, AutoAnalysis.Line2.Point1.Data.StartCondition, 
TestParameter, AutoAnalysis.Line2.Point2.Type, 0
TestParameter, AutoAnalysis.Line2.Point2.XY.X, 
TestParameter, AutoAnalysis.Line2.Point2.XY.Y, 
TestParameter, AutoAnalysis.Line2.Point2.Data.Var, 
TestParameter, AutoAnalysis.Line2.Point2.Data.Condition, 
TestParameter, AutoAnalysis.Line2.Point2.Data.Start, false
TestParameter, AutoAnalysis.Line2.Point2.Data.StartVar, 
TestParameter, AutoAnalysis.Line2.Point2.Data.StartCondition, 
TestParameter, AutoAnalysis.Line2.GradientExpr, 0
TestParameter, AutoAnalysis.Marker.Enabled, false
TestParameter, AutoAnalysis.Marker.Data.Var, 
TestParameter, AutoAnalysis.Marker.Data.Condition, 
TestParameter, AutoAnalysis.Marker.Data.Start, false
TestParameter, AutoAnalysis.Marker.Data.StartVar, 
TestParameter, AutoAnalysis.Marker.Data.StartCondition, 
MetaData, TestRecord.EntryPoint, true
MetaData, TestRecord.RecordTime, 08/16/2019 15:13:31
MetaData, TestRecord.TestTarget, 
MetaData, TestRecord.IterationIndex, 1
MetaData, TestRecord.Preservation, true
MetaData, TestRecord.Flag, #
MetaData, TestRecord.Remarks, #172_LPCVD_trigate_die1_r4c3_Planar_lgd10
MetaData, TestRecord.LinkKey, 34077035-5d7d-45c7-8ec7-79d6804400a0
Dimension1, 201, 201, 201, 201, 201, 201, 201
Dimension2, 1, 1, 1, 1, 1, 1, 1
DataName, Vd, Id, Ig, Vg, Id_dens, Ig_dens, Ron
DataValue, 0, -5.70401E-07, 1.1410000000000001E-08, 7.0000000000000009, -9.5066833333333333E-06, 1.901666666666667E-07, 22.874152338240453
DataValue, 0.05, 0.00013058200000000002, 9.44E-09, 7.0000000000000009, 0.0021763666666666671, 1.5733333333333334E-07, 22.863030544768744
DataValue, 0.1, 0.000261862, 8.9900000000000014E-09, 7.0000000000000009, 0.0043643666666666669, 1.4983333333333336E-07, 22.8173320454217
DataValue, 0.15, 0.00039354, 8.6700000000000009E-09, 7.0000000000000009, 0.0065590000000000006, 1.4450000000000003E-07, 22.738728222930487
DataValue, 0.2, 0.00052572900000000006, 8.4400000000000015E-09, 7.0000000000000009, 0.0087621500000000015, 1.4066666666666671E-07, 22.646893412396146
DataValue, 0.25, 0.00065847700000000009, 7.9600000000000015E-09, 7.0000000000000009, 0.010974616666666669, 1.3266666666666669E-07, 22.526496791851415
DataValue, 0.3, 0.000792082, 7.68E-09, 7.0000000000000009, 0.013201366666666667, 1.28E-07, 22.556475776224744
DataValue, 0.35000000000000003, 0.000924476, 8.0300000000000014E-09, 7.0000000000000009, 0.015407933333333334, 1.3383333333333337E-07, 22.403273865087478
DataValue, 0.4, 0.0010599000000000001, 7.3100000000000006E-09, 7.0000000000000009, 0.017665000000000004, 1.2183333333333335E-07, 22.119489482182733
DataValue, 0.45, 0.00119573, 6.84E-09, 7.0000000000000009, 0.019928833333333337, 1.1400000000000002E-07, 21.974802226779964
DataValue, 0.5, 0.0013329400000000001, 6.4200000000000006E-09, 7.0000000000000009, 0.022215666666666668, 1.0700000000000002E-07, 21.808665309683054
DataValue, 0.55, 0.0014708500000000001, 6.6200000000000007E-09, 7.0000000000000009, 0.02451416666666667, 1.1033333333333336E-07, 21.6990343929695
DataValue, 0.6, 0.0016094500000000001, 6.4200000000000006E-09, 7.0000000000000009, 0.02682416666666667, 1.0700000000000002E-07, 21.586616297895311
DataValue, 0.65, 0.0017488, 6.0400000000000006E-09, 7.0000000000000009, 0.029146666666666668, 1.0066666666666668E-07, 21.439291074108503
DataValue, 0.70000000000000007, 0.00188931, 5.8700000000000006E-09, 7.0000000000000009, 0.0314885, 9.7833333333333342E-08, 21.351553325504426
DataValue, 0.75, 0.00202981, 5.7900000000000009E-09, 7.0000000000000009, 0.033830166666666668, 9.6500000000000024E-08, 21.245706596791891
DataValue, 0.8, 0.0021717200000000002, 5.6300000000000006E-09, 7.0000000000000009, 0.036195333333333336, 9.3833333333333346E-08, 21.149101163200555
DataValue, 0.85, 0.00231351, 5.5000000000000004E-09, 7.0000000000000009, 0.0385585, 9.166666666666668E-08, 21.101498206372646
DataValue, 0.9, 0.00245606, 5.4200000000000007E-09, 7.0000000000000009, 0.040934333333333336, 9.0333333333333348E-08, 21.025335529312844
DataValue, 0.95000000000000007, 0.00259888, 5.0800000000000007E-09, 7.0000000000000009, 0.043314666666666668, 8.4666666666666684E-08, 20.977554017201587
DataValue, 1, 0.00274208, 5.6600000000000007E-09, 7.0000000000000009, 0.045701333333333337, 9.4333333333333344E-08, 21.074075374942911
DataValue, 1.05, 0.00288359, 4.6600000000000009E-09, 7.00002, 0.048059833333333336, 7.7666666666666687E-08, 20.988561234127427
DataValue, 1.1, 0.00302795, 4.9800000000000006E-09, 7.0000000000000009, 0.050465833333333335, 8.3000000000000015E-08, 20.7900207900208
DataValue, 1.1500000000000001, 0.00317219, 5.1E-09, 7.0000000000000009, 0.052869833333333338, 8.5000000000000007E-08, 20.74688796680493
DataValue, 1.2, 0.00331715, 4.4900000000000008E-09, 7.0000000000000009, 0.05528583333333334, 7.4833333333333348E-08, 20.739716557207014
DataValue, 1.25, 0.0034614900000000002, 4.7000000000000007E-09, 7.0000000000000009, 0.057691500000000007, 7.8333333333333347E-08, 20.726104528653885
DataValue, 1.3, 0.00360664, 4.7400000000000006E-09, 7.0000000000000009, 0.060110666666666666, 7.9000000000000019E-08, 20.682523267838729
DataValue, 1.35, 0.00375159, 3.86E-09, 7.0000000000000009, 0.0625265, 6.433333333333334E-08, 20.688941760628914
DataValue, 1.4000000000000001, 0.00389665, 4.2E-09, 7.0000000000000009, 0.064944166666666678, 7E-08, 20.679671882539367
DataValue, 1.45, 0.00404173, 4.34E-09, 7.0000000000000009, 0.067362166666666681, 7.2333333333333346E-08, 20.629899601155266
DataValue, 1.5, 0.00418749, 3.86E-09, 7.0000000000000009, 0.0697915, 6.433333333333334E-08, 20.557097337855939
DataValue, 1.55, 0.0043336, 4.04E-09, 7.0000000000000009, 0.072226666666666675, 6.7333333333333341E-08, 20.598029455182186
DataValue, 1.6, 0.00447878, 4.11E-09, 7.0000000000000009, 0.074646333333333328, 6.85E-08, 20.677533859461704
DataValue, 1.6500000000000001, 0.00462377, 3.77E-09, 7.0000000000000009, 0.077062833333333344, 6.2833333333333333E-08, 20.658311527337776
DataValue, 1.7, 0.00476922, 3.6500000000000004E-09, 7.0000000000000009, 0.079487, 6.0833333333333342E-08, 20.836227253785207
DataValue, 1.75, 0.0049117300000000004, 3.6000000000000004E-09, 7.0000000000000009, 0.08186216666666668, 6.0000000000000008E-08, 20.889910173386276
DataValue, 1.8, 0.00505644, 3.7200000000000004E-09, 7.0000000000000009, 0.084274, 6.2000000000000013E-08, 20.764119601328979
DataValue, 1.85, 0.00520069, 3.77E-09, 7.0000000000000009, 0.086678166666666667, 6.2833333333333333E-08, 20.782099684804834
DataValue, 1.9000000000000001, 0.00534515, 3.1700000000000004E-09, 7.0000000000000009, 0.089085833333333336, 5.2833333333333343E-08, 20.784259387557064
DataValue, 1.95, 0.00548937, 3.1700000000000004E-09, 7.0000000000000009, 0.091489500000000015, 5.2833333333333343E-08, 20.854332487574251
DataValue, 2, 0.00563286, 3.7400000000000007E-09, 7.0000000000000009, 0.093881, 6.2333333333333349E-08, 20.893547376118672
DataValue, 2.05, 0.00577654, 3.0300000000000005E-09, 7.0000000000000009, 0.096275666666666676, 5.0500000000000009E-08, 20.893547376118718
DataValue, 2.1, 0.00592003, 3.0700000000000004E-09, 7.0000000000000009, 0.098667166666666667, 5.1166666666666675E-08, 20.943870427255053
DataValue, 2.15, 0.00606302, 3.4300000000000004E-09, 7.0000000000000009, 0.10105033333333333, 5.7166666666666676E-08, 21.042295012976052
DataValue, 2.2, 0.00620517, 2.79E-09, 7.0000000000000009, 0.10341950000000001, 4.6500000000000006E-08, 21.076296192215743
DataValue, 2.25, 0.0063477, 3.1400000000000003E-09, 7.0000000000000009, 0.10579500000000001, 5.2333333333333339E-08, 21.081479919890405
DataValue, 2.3000000000000003, 0.0064897800000000005, 3.06E-09, 7.0000000000000009, 0.10816300000000001, 5.1000000000000007E-08, 21.214907007991009
DataValue, 2.35, 0.00663052, 2.5600000000000003E-09, 7.0000000000000009, 0.11050866666666667, 4.2666666666666672E-08, 21.262270101704413
DataValue, 2.4, 0.00677197, 2.8100000000000004E-09, 7.0000000000000009, 0.11286616666666668, 4.6833333333333342E-08, 21.459994992667845
DataValue, 2.45, 0.0069101100000000006, 2.89E-09, 7.0000000000000009, 0.11516850000000001, 4.8166666666666668E-08, 21.581957483543846
DataValue, 2.5, 0.00704998, 2.55E-09, 7.0000000000000009, 0.11749966666666667, 4.2500000000000003E-08, 21.504605569692878
DataValue, 2.5500000000000003, 0.00718912, 2.5700000000000004E-09, 7.0000000000000009, 0.11981866666666667, 4.283333333333334E-08, 21.528525296017261
DataValue, 2.6, 0.00732868, 2.7300000000000003E-09, 7.00002, 0.12214466666666667, 4.5500000000000004E-08, 21.539345203905711
DataValue, 2.65, 0.00746768, 2.5900000000000004E-09, 7.0000000000000009, 0.12446133333333334, 4.3166666666666676E-08, 21.653614349128365
DataValue, 2.7, 0.00760577, 2.53E-09, 7.0000000000000009, 0.12676283333333335, 4.2166666666666674E-08, 21.76041780002177
DataValue, 2.75, 0.00774341, 2.3900000000000002E-09, 7.0000000000000009, 0.12905683333333334, 3.9833333333333339E-08, 21.849167910855538
DataValue, 2.8000000000000003, 0.00788038, 2.43E-09, 7.0000000000000009, 0.13133966666666666, 4.0500000000000005E-08, 21.937842778793449
DataValue, 2.85, 0.00801691, 2.6100000000000003E-09, 7.0000000000000009, 0.13361516666666667, 4.3500000000000006E-08, 22.005428005574576
DataValue, 2.9, 0.00815304, 2.0100000000000003E-09, 7.0000000000000009, 0.135884, 3.3500000000000009E-08, 22.12797344643193
DataValue, 2.95, 0.00828806, 2.24E-09, 7.0000000000000009, 0.13813433333333333, 3.7333333333333337E-08, 22.21235006663704
DataValue, 3, 0.00842316, 2.5100000000000002E-09, 7.0000000000000009, 0.140386, 4.1833333333333337E-08, 22.295715506670231
DataValue, 3.0500000000000003, 0.00855717, 1.8400000000000003E-09, 7.0000000000000009, 0.14261949999999998, 3.066666666666667E-08, 22.423200538156831
DataValue, 3.1, 0.00869074, 2.26E-09, 7.0000000000000009, 0.14484566666666668, 3.7666666666666666E-08, 22.751403003184965
DataValue, 3.15, 0.00882089, 2.4700000000000004E-09, 7.0000000000000009, 0.14701483333333335, 4.1166666666666671E-08, 22.811086187887316
DataValue, 3.2, 0.00895377, 1.92E-09, 7.00002, 0.14922950000000002, 3.2E-08, 22.692031315003241
DataValue, 3.25, 0.009085300000000001, 2.21E-09, 7.0000000000000009, 0.15142166666666668, 3.6833333333333332E-08, 22.950694258501365
DataValue, 3.3000000000000003, 0.0092152, 2.2800000000000004E-09, 7.00002, 0.15358666666666668, 3.8000000000000009E-08, 22.920009168003656
DataValue, 3.35, 0.00934708, 1.6300000000000002E-09, 7.0000000000000009, 0.15578466666666668, 2.7166666666666672E-08, 22.892899385707086
DataValue, 3.4, 0.0094772900000000011, 1.8500000000000002E-09, 7.0000000000000009, 0.15795483333333335, 3.0833333333333338E-08, 23.045014595175928
DataValue, 3.45, 0.00960744, 1.9400000000000003E-09, 7.0000000000000009, 0.16012400000000002, 3.2333333333333338E-08, 23.1160425335183
DataValue, 3.5, 0.00973685, 1.9600000000000003E-09, 7.0000000000000009, 0.16228083333333335, 3.2666666666666675E-08, 23.243201363601216
DataValue, 3.5500000000000003, 0.00986558, 1.8600000000000002E-09, 7.0000000000000009, 0.16442633333333334, 3.1000000000000006E-08, 23.617398149970438
DataValue, 3.6, 0.0099909, 1.5700000000000002E-09, 7.0000000000000009, 0.16651500000000002, 2.6166666666666669E-08, 23.918676499900126
DataValue, 3.65, 0.010116430000000001, 1.6800000000000002E-09, 7.0000000000000009, 0.1686071666666667, 2.8000000000000006E-08, 24.0876791521137
DataValue, 3.7, 0.010239990000000001, 1.7500000000000002E-09, 7.0000000000000009, 0.17066650000000003, 2.916666666666667E-08, 24.132244700961373
DataValue, 3.75, 0.01036506, 1.4400000000000002E-09, 7.0000000000000009, 0.17275100000000002, 2.4000000000000003E-08, 23.8824981093023
DataValue, 3.8000000000000003, 0.01049122, 1.6200000000000002E-09, 7.0000000000000009, 0.17485366666666669, 2.7000000000000004E-08, 24.012486492976439
DataValue, 3.85, 0.01061493, 2.19E-09, 7.0000000000000009, 0.1769155, 3.65E-08, 24.057738572574074
DataValue, 3.9, 0.010740620000000001, 1.3E-09, 7.0000000000000009, 0.17901033333333336, 2.1666666666666669E-08, 24.131274131274264
DataValue, 3.95, 0.01086357, 1.5500000000000002E-09, 7.0000000000000009, 0.18105949999999998, 2.583333333333334E-08, 24.629530807438119
DataValue, 4, 0.010984230000000001, 1.8400000000000003E-09, 7.0000000000000009, 0.18307050000000003, 3.066666666666667E-08, 24.553936814535664
DataValue, 4.05, 0.01110793, 1.2100000000000002E-09, 7.0000000000000009, 0.18513216666666668, 2.0166666666666669E-08, 24.563989191844723
DataValue, 4.1, 0.01122849, 1.3400000000000001E-09, 7.0000000000000009, 0.18714150000000002, 2.2333333333333335E-08, 24.775983813023995
DataValue, 4.15, 0.0113501, 1.5200000000000001E-09, 7.0000000000000009, 0.18916833333333336, 2.5333333333333335E-08, 24.838549428713485
DataValue, 4.2, 0.01147005, 1.3200000000000002E-09, 7.0000000000000009, 0.19116750000000002, 2.2000000000000005E-08, 24.086712163789571
DataValue, 4.25, 0.0115992, 1.3300000000000002E-09, 7.0000000000000009, 0.19332000000000002, 2.216666666666667E-08, 24.13030363965402
DataValue, 4.3, 0.0117187, 1.8400000000000003E-09, 7.0000000000000009, 0.19531166666666669, 3.066666666666667E-08, 25.252525252525267
DataValue, 4.3500000000000005, 0.011836800000000002, 8.5000000000000006E-10, 7.0000000000000009, 0.19728000000000004, 1.4166666666666668E-08, 25.295109612141946
DataValue, 4.4, 0.0119559, 1.1500000000000002E-09, 7.0000000000000009, 0.199265, 1.916666666666667E-08, 25.220680958385987
DataValue, 4.45, 0.0120747, 1.5200000000000001E-09, 7.0000000000000009, 0.201245, 2.5333333333333335E-08, 25.542784163473534
DataValue, 4.5, 0.012190800000000002, 9.9E-10, 7.0000000000000009, 0.20318000000000003, 1.6500000000000002E-08, 25.951557093425418
DataValue, 4.55, 0.012305900000000002, 1.23E-09, 7.0000000000000009, 0.20509833333333336, 2.05E-08, 26.338893766461922
DataValue, 4.6000000000000005, 0.012418600000000002, 1.65E-09, 7.0000000000000009, 0.2069766666666667, 2.75E-08, 26.408450704225341
DataValue, 4.65, 0.012533100000000002, 9.000000000000001E-10, 7.0000000000000009, 0.20888500000000004, 1.5000000000000002E-08, 26.235242675994531
DataValue, 4.7, 0.012647300000000002, 1.3400000000000001E-09, 7.0000000000000009, 0.21078833333333338, 2.2333333333333335E-08, 26.431718061673916
DataValue, 4.75, 0.012760100000000002, 1.35E-09, 7.0000000000000009, 0.21266833333333338, 2.2500000000000003E-08, 27.002700270027088
DataValue, 4.8, 0.0128695, 8.9000000000000013E-10, 7.0000000000000009, 0.21449166666666669, 1.4833333333333336E-08, 27.198549410698281
DataValue, 4.8500000000000005, 0.012980700000000001, 1.25E-09, 7.0000000000000009, 0.21634500000000004, 2.0833333333333335E-08, 26.857654431513158
DataValue, 4.9, 0.013092900000000001, 9.300000000000001E-10, 7.0000000000000009, 0.21821500000000002, 1.5500000000000003E-08, 26.990553306342786
DataValue, 4.95, 0.013203000000000001, 1.0300000000000002E-09, 7.0000000000000009, 0.22005000000000002, 1.7166666666666671E-08, 27.409776153494622
DataValue, 5, 0.0133118, 1.0200000000000002E-09, 7.0000000000000009, 0.22186333333333336, 1.7000000000000003E-08, 27.247956403269608
