
SetupTitle, Output
PrimitiveTest, I/V Sweep
TestParameter, Context.MainFrame, B1500A
TestParameter, Channel.UnitType, SMU, SMU, SMU
TestParameter, Channel.Unit, SMU1:MP, SMU2:MC, GNDU:GND
TestParameter, Channel.IName, Id, Ig, Is
TestParameter, Channel.VName, Vd, Vg, Vs
TestParameter, Channel.Mode, V, V, COMMON
TestParameter, Channel.Func, VAR1, CONST, CONST
TestParameter, Channel.Index, 
TestParameter, Channel.Time, 
TestParameter, Measurement.Port.Unit, SMU1:MP, SMU2:MC, GNDU:GND
TestParameter, Measurement.Port.SeriesResistor, NONE, NONE, NONE
TestParameter, Measurement.Port.Filter, ON, ON, ON
TestParameter, Measurement.Port.OutputVoltageComparison, 0, 0, 0
TestParameter, Measurement.Primary.Locus, Single
TestParameter, Measurement.Primary.Scale, LINEAR
TestParameter, Measurement.Primary.Start, 0
TestParameter, Measurement.Primary.Stop, 10
TestParameter, Measurement.Primary.Step, 0.05
TestParameter, Measurement.Primary.Compliance, 0.1
TestParameter, Measurement.Primary.PowerCompliance, 0
TestParameter, Measurement.Aborting.Condition, CONTINUE AT ANY
TestParameter, Measurement.PostOutput.Value, START
TestParameter, Measurement.PostOutput.Retention, OFF
TestParameter, Measurement.Bias.Source, 0, 7.0000000000000009, 0
TestParameter, Measurement.Bias.Compliance, 0.1, 0.0001, 2
TestParameter, Measurement.Monitor.Unit, SMU1:MP, SMU2:MC, GNDU:GND
TestParameter, Measurement.Monitor.Adc, HR ADC, HS ADC, HR ADC
TestParameter, Measurement.Monitor.Measurement, Compliance Side, Force and Compliance Sides, Compliance Side
TestParameter, Measurement.Monitor.RangingMode, LIMITED, LIMITED, LIMITED
TestParameter, Measurement.Monitor.RangeBoundary, 1nA, 10uA, 1nA
TestParameter, Measurement.Monitor.RangeRating, BY FULL RANGE, BY FULL RANGE, BY FULL RANGE
TestParameter, Measurement.Monitor.RangeRatingCoeff, 50, 50, 50
TestParameter, Measurement.Timing.Hold, 0
TestParameter, Measurement.Timing.Delay, 0
TestParameter, Measurement.Adc.HighSpeed.Mode, AUTO
TestParameter, Measurement.Adc.HighSpeed.Coeff, 1
TestParameter, Measurement.Adc.HighResolution.AutoZero, OFF
TestParameter, Measurement.Adc.HighResolution.Mode, PLC
TestParameter, Measurement.Adc.HighResolution.Coeff, 1
TestParameter, Measurement.WaitTime.Source.Coeff, 1
TestParameter, Measurement.WaitTime.Source.Offset, 0
TestParameter, Measurement.WaitTime.Monitor.Coeff, 1
TestParameter, Measurement.WaitTime.Monitor.Offset, 0
TestParameter, Function.User.Name, Id_dens, Ig_dens, Ron
TestParameter, Function.User.Unit, A/mm, A/mm, Ohm/mm
TestParameter, Function.User.Definition, Id/0.06, abs(Ig)/0.06, diff(Vd,Id_dens)
TestParameter, Output.Graph.Enabled, true
TestParameter, Output.Graph.AutoScaling, false
TestParameter, Output.Graph.XAxis.Data, Vd
TestParameter, Output.Graph.XAxis.Scale, Linear
TestParameter, Output.Graph.XAxis.Left, 0
TestParameter, Output.Graph.XAxis.Right, 6
TestParameter, Output.Graph.XAxis.RunTimeAutoScale, false
TestParameter, Output.Graph.YAxis.Data, Id_dens, Ron
TestParameter, Output.Graph.YAxis.Scale, Linear, Linear
TestParameter, Output.Graph.YAxis.Bottom, 0, 0
TestParameter, Output.Graph.YAxis.Top, 0.30000000000000004, 1
TestParameter, Output.Graph.YAxis.Group, , 
TestParameter, Output.Graph.YAxis.RunTimeAutoScale, false, false
TestParameter, Output.List.Data, Vd, Id_dens, Ig_dens, Vg, Ron
TestParameter, AutoAnalysis.Interpolation, false
TestParameter, AutoAnalysis.Line1.Enabled, false
TestParameter, AutoAnalysis.Line1.Type, 1
TestParameter, AutoAnalysis.Line1.Fix, True
TestParameter, AutoAnalysis.Line1.YAxis, 0
TestParameter, AutoAnalysis.Line1.Point1.Type, 0
TestParameter, AutoAnalysis.Line1.Point1.XY.X, 
TestParameter, AutoAnalysis.Line1.Point1.XY.Y, 
TestParameter, AutoAnalysis.Line1.Point1.Data.Var, 
TestParameter, AutoAnalysis.Line1.Point1.Data.Condition, 
TestParameter, AutoAnalysis.Line1.Point1.Data.Start, false
TestParameter, AutoAnalysis.Line1.Point1.Data.StartVar, 
TestParameter, AutoAnalysis.Line1.Point1.Data.StartCondition, 
TestParameter, AutoAnalysis.Line1.Point2.Type, 0
TestParameter, AutoAnalysis.Line1.Point2.XY.X, 
TestParameter, AutoAnalysis.Line1.Point2.XY.Y, 
TestParameter, AutoAnalysis.Line1.Point2.Data.Var, 
TestParameter, AutoAnalysis.Line1.Point2.Data.Condition, 
TestParameter, AutoAnalysis.Line1.Point2.Data.Start, false
TestParameter, AutoAnalysis.Line1.Point2.Data.StartVar, 
TestParameter, AutoAnalysis.Line1.Point2.Data.StartCondition, 
TestParameter, AutoAnalysis.Line1.GradientExpr, 0
TestParameter, AutoAnalysis.Line2.Enabled, false
TestParameter, AutoAnalysis.Line2.Type, 1
TestParameter, AutoAnalysis.Line2.Fix, True
TestParameter, AutoAnalysis.Line2.YAxis, 0
TestParameter, AutoAnalysis.Line2.Point1.Type, 0
TestParameter, AutoAnalysis.Line2.Point1.XY.X, 
TestParameter, AutoAnalysis.Line2.Point1.XY.Y, 
TestParameter, AutoAnalysis.Line2.Point1.Data.Var, 
TestParameter, AutoAnalysis.Line2.Point1.Data.Condition, 
TestParameter, AutoAnalysis.Line2.Point1.Data.Start, false
TestParameter, AutoAnalysis.Line2.Point1.Data.StartVar, 
TestParameter, AutoAnalysis.Line2.Point1.Data.StartCondition, 
TestParameter, AutoAnalysis.Line2.Point2.Type, 0
TestParameter, AutoAnalysis.Line2.Point2.XY.X, 
TestParameter, AutoAnalysis.Line2.Point2.XY.Y, 
TestParameter, AutoAnalysis.Line2.Point2.Data.Var, 
TestParameter, AutoAnalysis.Line2.Point2.Data.Condition, 
TestParameter, AutoAnalysis.Line2.Point2.Data.Start, false
TestParameter, AutoAnalysis.Line2.Point2.Data.StartVar, 
TestParameter, AutoAnalysis.Line2.Point2.Data.StartCondition, 
TestParameter, AutoAnalysis.Line2.GradientExpr, 0
TestParameter, AutoAnalysis.Marker.Enabled, false
TestParameter, AutoAnalysis.Marker.Data.Var, 
TestParameter, AutoAnalysis.Marker.Data.Condition, 
TestParameter, AutoAnalysis.Marker.Data.Start, false
TestParameter, AutoAnalysis.Marker.Data.StartVar, 
TestParameter, AutoAnalysis.Marker.Data.StartCondition, 
MetaData, TestRecord.EntryPoint, true
MetaData, TestRecord.RecordTime, 08/14/2019 12:16:09
MetaData, TestRecord.TestTarget, 
MetaData, TestRecord.IterationIndex, 1
MetaData, TestRecord.Preservation, true
MetaData, TestRecord.Flag, #
MetaData, TestRecord.Remarks, #188_F_implant_5nm_cap_die2_r4c2_F50
MetaData, TestRecord.LinkKey, 28367eb4-beb1-4254-8768-fd4887560d9e
Dimension1, 201, 201, 201, 201, 201, 201, 201
Dimension2, 1, 1, 1, 1, 1, 1, 1
DataName, Vd, Id, Ig, Vg, Id_dens, Ig_dens, Ron
DataValue, 0, -2.2271200000000004E-06, 1.3000000000000002E-10, 7.0000000000000009, -3.7118666666666674E-05, 2.166666666666667E-09, 7.4454967302852921
DataValue, 0.05, 0.00040070100000000005, -4.8E-10, 7.0000000000000009, 0.0066783500000000013, 8E-09, 7.3960930286498012
DataValue, 0.1, 0.000809012, -3E-11, 7.0000000000000009, 0.013483533333333334, 5E-10, 7.2623487161983054
DataValue, 0.15, 0.00122688, 1.0000000000000001E-11, 7.0000000000000009, 0.020448, 1.6666666666666669E-10, 7.1985775610739315
DataValue, 0.2, 0.00164251, -1.3000000000000002E-10, 7.0000000000000009, 0.027375166666666669, 2.166666666666667E-09, 7.2071206351875654
DataValue, 0.25, 0.00205939, -1.1000000000000001E-10, 7.0000000000000009, 0.034323166666666668, 1.8333333333333336E-09, 7.1806409918858725
DataValue, 0.3, 0.00247809, -9.0000000000000012E-11, 7.0000000000000009, 0.041301500000000005, 1.5000000000000002E-09, 7.1538434023679223
DataValue, 0.35000000000000003, 0.0028981000000000002, -1.7E-10, 7.0000000000000009, 0.048301666666666673, 2.8333333333333335E-09, 7.139202551075047
DataValue, 0.4, 0.00331852, 5.3E-10, 7.0000000000000009, 0.055308666666666673, 8.8333333333333347E-09, 7.191399086692317
DataValue, 0.45, 0.00373243, -3.4E-10, 7.0000000000000009, 0.062207166666666668, 5.666666666666667E-09, 7.1851984911083226
DataValue, 0.5, 0.00415357, -1.4E-10, 7.0000000000000009, 0.069226166666666658, 2.3333333333333335E-09, 7.1261446369823167
DataValue, 0.55, 0.0045744, 2.3000000000000003E-10, 7.0000000000000009, 0.07624, 3.8333333333333337E-09, 7.1250445315283173
DataValue, 0.6, 0.00499567, -3.6000000000000005E-10, 7.0000000000000009, 0.083261166666666664, 6.0000000000000008E-09, 7.1272450822008935
DataValue, 0.65, 0.00541624, -1.6000000000000002E-10, 7.0000000000000009, 0.090270666666666666, 2.666666666666667E-09, 7.12953170859227
DataValue, 0.70000000000000007, 0.0058372400000000005, 2.6000000000000003E-10, 7.0000000000000009, 0.097287333333333351, 4.3333333333333341E-09, 7.1336004470389538
DataValue, 0.75, 0.00625733, -3.2000000000000003E-10, 7.0000000000000009, 0.10428883333333334, 5.3333333333333339E-09, 7.1416668650463047
DataValue, 0.8, 0.00667738, 0, 7.0000000000000009, 0.11128966666666668, 0, 7.15853774935573
DataValue, 0.85, 0.00709549, 1.1000000000000001E-10, 7.0000000000000009, 0.11825816666666668, 1.8333333333333336E-09, 7.1799535696335788
DataValue, 0.9, 0.00751304, 6E-11, 7.0000000000000009, 0.12521733333333335, 1E-09, 7.19605656100458
DataValue, 0.95000000000000007, 0.00792928, -6E-11, 7.0000000000000009, 0.13215466666666667, 1E-09, 7.211625139725248
DataValue, 1, 0.00834503, -6E-11, 7.0000000000000009, 0.13908383333333332, 1E-09, 7.2323139788575288
DataValue, 1.05, 0.00875889, 6E-11, 7.0000000000000009, 0.14598150000000001, 1E-09, 7.2587377055130045
DataValue, 1.1, 0.00917162, 3.5000000000000003E-10, 7.0000000000000009, 0.15286033333333335, 5.8333333333333343E-09, 7.3355013815194354
DataValue, 1.1500000000000001, 0.00957683, -2.8E-10, 7.0000000000000009, 0.15961383333333334, 4.6666666666666671E-09, 7.3655781978885315
DataValue, 1.2, 0.00998622, 1.2E-10, 7.0000000000000009, 0.166437, 2E-09, 7.3438513604484577
DataValue, 1.25, 0.01039384, 4.7E-10, 7.0000000000000009, 0.17323066666666667, 7.833333333333334E-09, 7.3723659150949175
DataValue, 1.3, 0.01080007, -1.7E-10, 7.0000000000000009, 0.18000116666666668, 2.8333333333333335E-09, 7.4010114715677844
DataValue, 1.35, 0.01120454, 1.3000000000000002E-10, 7.0000000000000009, 0.18674233333333334, 2.166666666666667E-09, 7.283055970285135
DataValue, 1.4000000000000001, 0.011623900000000001, 1.9000000000000002E-10, 7.0000000000000009, 0.19373166666666669, 3.1666666666666669E-09, 7.3299452697419625
DataValue, 1.45, 0.012023100000000002, 2.3000000000000003E-10, 7.0000000000000009, 0.20038500000000004, 3.8333333333333337E-09, 7.51879699248119
DataValue, 1.5, 0.012421900000000001, 2.2000000000000002E-10, 7.0000000000000009, 0.2070316666666667, 3.6666666666666672E-09, 7.5595313090588405
DataValue, 1.55, 0.012816800000000002, 2.4E-10, 7.0000000000000009, 0.21361333333333338, 4E-09, 7.6248570339306116
DataValue, 1.6, 0.013208800000000001, 5.0000000000000008E-11, 7.0000000000000009, 0.22014666666666671, 8.3333333333333345E-10, 7.6726342710997626
DataValue, 1.6500000000000001, 0.013598800000000001, -2.5E-10, 7.0000000000000009, 0.22664666666666669, 4.1666666666666668E-09, 7.7110911193933847
DataValue, 1.7, 0.013986900000000002, 9.0000000000000012E-11, 7.0000000000000009, 0.23311500000000004, 1.5000000000000002E-09, 7.7639751552794909
DataValue, 1.75, 0.014371600000000002, -2.8E-10, 7.0000000000000009, 0.23952666666666669, 4.6666666666666671E-09, 7.8760829614072039
DataValue, 1.8, 0.014748700000000002, -4.0000000000000004E-11, 7.00002, 0.24581166666666671, 6.6666666666666674E-10, 7.9239302694136411
DataValue, 1.85, 0.015128800000000001, 5.0000000000000008E-11, 7.0000000000000009, 0.25214666666666669, 8.3333333333333345E-10, 7.9145231499802158
DataValue, 1.9000000000000001, 0.015506800000000001, -3.0000000000000005E-10, 7.0000000000000009, 0.25844666666666671, 5.0000000000000009E-09, 7.9670694462886527
DataValue, 1.95, 0.0158819, -1.5000000000000003E-10, 7.0000000000000009, 0.26469833333333337, 2.5000000000000005E-09, 8.0353555644837282
DataValue, 2, 0.0162535, 4.7E-10, 7.0000000000000009, 0.2708916666666667, 7.833333333333334E-09, 8.1092039464792318
DataValue, 2.05, 0.016621800000000003, -3.3000000000000005E-10, 7.0000000000000009, 0.27703000000000005, 5.5000000000000013E-09, 8.1743869209809059
DataValue, 2.1, 0.016987500000000003, -9.0000000000000012E-11, 7.0000000000000009, 0.28312500000000007, 1.5000000000000002E-09, 8.2361015785861458
DataValue, 2.15, 0.017350300000000003, 3.8000000000000003E-10, 7.0000000000000009, 0.28917166666666672, 6.3333333333333338E-09, 8.3044982698962357
DataValue, 2.2, 0.01771, -4.6000000000000007E-10, 7.0000000000000009, 0.29516666666666669, 7.6666666666666675E-09, 8.3763786123132871
DataValue, 2.25, 0.018066600000000002, 3.2000000000000003E-10, 7.0000000000000009, 0.30111000000000004, 5.3333333333333339E-09, 8.43525938422607
DataValue, 2.3000000000000003, 0.0184213, 2.2000000000000002E-10, 7.0000000000000009, 0.30702166666666669, 3.6666666666666672E-09, 8.51063829787232
DataValue, 2.35, 0.018771600000000003, -1.6000000000000002E-10, 7.0000000000000009, 0.31286000000000008, 2.666666666666667E-09, 8.58000858000853
DataValue, 2.4, 0.0191206, 1.5000000000000003E-10, 7.0000000000000009, 0.31867666666666672, 2.5000000000000005E-09, 8.6567594863656421
DataValue, 2.45, 0.0194647, 3.7E-10, 7.0000000000000009, 0.32441166666666671, 6.1666666666666673E-09, 8.8092791073264056
DataValue, 2.5, 0.019801700000000002, -2.6000000000000003E-10, 7.00002, 0.33002833333333337, 4.3333333333333341E-09, 8.87836638058597
DataValue, 2.5500000000000003, 0.020140500000000002, 8.0000000000000008E-11, 7.0000000000000009, 0.33567500000000006, 1.3333333333333335E-09, 8.9100089100088944
DataValue, 2.6, 0.020475100000000003, 1.3000000000000002E-10, 7.0000000000000009, 0.34125166666666673, 2.166666666666667E-09, 9.0157776108189012
DataValue, 2.65, 0.020806, -1.6000000000000002E-10, 7.0000000000000009, 0.34676666666666672, 2.666666666666667E-09, 9.092286710107647
DataValue, 2.7, 0.021135, 1.5000000000000003E-10, 7.0000000000000009, 0.35225, 2.5000000000000005E-09, 9.1659028414298636
DataValue, 2.75, 0.021460600000000003, -7E-11, 7.0000000000000009, 0.35767666666666675, 1.1666666666666668E-09, 9.26497838171708
DataValue, 2.8000000000000003, 0.021782600000000003, -1.0000000000000002E-10, 7.0000000000000009, 0.36304333333333338, 1.6666666666666669E-09, 9.3750000000000657
DataValue, 2.85, 0.0221006, 2.4E-10, 7.0000000000000009, 0.36834333333333336, 4E-09, 9.4667087409276718
DataValue, 2.9, 0.022416400000000003, -1.7E-10, 7.0000000000000009, 0.37360666666666675, 2.8333333333333335E-09, 9.55566172957478
DataValue, 2.95, 0.022728500000000002, -1.3000000000000002E-10, 7.0000000000000009, 0.37880833333333336, 2.166666666666667E-09, 9.6789804807227426
DataValue, 3, 0.023036300000000003, -2.0000000000000002E-11, 7.0000000000000009, 0.38393833333333338, 3.3333333333333337E-10, 9.78314038806456
DataValue, 3.0500000000000003, 0.023341800000000003, -3.4E-10, 7.0000000000000009, 0.38903000000000004, 5.666666666666667E-09, 9.8619329388560413
DataValue, 3.1, 0.0236447, 3E-11, 7.0000000000000009, 0.39407833333333336, 5E-10, 9.9601593625497724
DataValue, 3.15, 0.023944200000000002, 5.700000000000001E-10, 7.0000000000000009, 0.39907000000000004, 9.5000000000000024E-09, 10.166045408336116
DataValue, 3.2, 0.024234900000000004, -3.3000000000000005E-10, 7.0000000000000009, 0.40391500000000008, 5.5000000000000013E-09, 10.298661174047387
DataValue, 3.25, 0.0245268, -5.0000000000000008E-11, 7.0000000000000009, 0.40878000000000003, 8.3333333333333345E-10, 10.341261633919334
DataValue, 3.3000000000000003, 0.024815100000000003, 4.8E-10, 7.00002, 0.41358500000000009, 8E-09, 10.463899546564312
DataValue, 3.35, 0.025100200000000003, -5.6E-10, 7.0000000000000009, 0.41833666666666675, 9.3333333333333342E-09, 10.576414595452114
DataValue, 3.4, 0.025382400000000003, -5.0000000000000008E-11, 7.0000000000000009, 0.42304000000000008, 8.3333333333333345E-10, 10.695187165775446
DataValue, 3.45, 0.025661200000000002, 2.1000000000000002E-10, 7.0000000000000009, 0.42768666666666671, 3.5000000000000007E-09, 10.814708002883981
DataValue, 3.5, 0.0259372, -1.6000000000000002E-10, 7.0000000000000009, 0.43228666666666671, 2.666666666666667E-09, 10.960906101571093
DataValue, 3.5500000000000003, 0.026208600000000002, 8.0000000000000008E-11, 7.0000000000000009, 0.43681000000000003, 1.3333333333333335E-09, 11.137924633376617
DataValue, 3.6, 0.026475900000000004, 6E-11, 7.0000000000000009, 0.44126500000000007, 1E-09, 11.297307475051694
DataValue, 3.65, 0.0267397, 1.5000000000000003E-10, 7.0000000000000009, 0.44566166666666673, 2.5000000000000005E-09, 11.419870574800203
DataValue, 3.7, 0.027001300000000002, 1.0000000000000002E-10, 7.0000000000000009, 0.45002166666666671, 1.6666666666666669E-09, 11.641443538998864
DataValue, 3.75, 0.0272551, 1.0000000000000002E-10, 7.0000000000000009, 0.45425166666666672, 1.6666666666666669E-09, 11.834319526627212
DataValue, 3.8000000000000003, 0.027508300000000003, -1.6000000000000002E-10, 7.0000000000000009, 0.45847166666666672, 2.666666666666667E-09, 11.892963330029717
DataValue, 3.85, 0.027759600000000002, 9.0000000000000012E-11, 7.0000000000000009, 0.46266000000000007, 1.5000000000000002E-09, 12.045773940975687
DataValue, 3.9, 0.0280064, -1.5000000000000003E-10, 7.0000000000000009, 0.46677333333333337, 2.5000000000000005E-09, 12.259910093992687
DataValue, 3.95, 0.028249000000000003, -5.0000000000000008E-11, 7.0000000000000009, 0.47081666666666672, 8.3333333333333345E-10, 12.481797378822604
DataValue, 4, 0.0284871, 1.3000000000000002E-10, 7.0000000000000009, 0.474785, 2.166666666666667E-09, 12.628920227320476
DataValue, 4.05, 0.028724100000000002, -3.1E-10, 7.0000000000000009, 0.47873500000000008, 5.1666666666666674E-09, 12.798634812286544
DataValue, 4.1, 0.028955900000000003, -7E-11, 7.0000000000000009, 0.48259833333333341, 1.1666666666666668E-09, 13.046314416177538
DataValue, 4.15, 0.029184, 6.5E-10, 7.0000000000000009, 0.48640000000000005, 1.0833333333333334E-08, 13.277273733126883
DataValue, 4.2, 0.0294078, -1.1000000000000001E-10, 7.0000000000000009, 0.49013000000000007, 1.8333333333333336E-09, 13.458950201884219
DataValue, 4.25, 0.0296298, -1.1000000000000001E-10, 7.00002, 0.49383000000000005, 1.8333333333333336E-09, 13.767783386874749
DataValue, 4.3, 0.0298436, 3.7E-10, 7.0000000000000009, 0.49739333333333335, 6.1666666666666673E-09, 14.03837154890044
DataValue, 4.3500000000000005, 0.030057200000000003, -2.6000000000000003E-10, 7.0000000000000009, 0.50095333333333336, 4.3333333333333341E-09, 14.231499051233332
DataValue, 4.4, 0.030265200000000003, 1.6000000000000002E-10, 7.0000000000000009, 0.50442000000000009, 2.666666666666667E-09, 14.475271411338762
DataValue, 4.45, 0.030471700000000004, 5E-10, 7.00002, 0.50786166666666677, 8.3333333333333335E-09, 14.687882496940032
DataValue, 4.5, 0.0306737, -2.7000000000000005E-10, 7.0000000000000009, 0.5112283333333334, 4.5000000000000006E-09, 15.026296018031578
DataValue, 4.55, 0.030871000000000003, 1.2E-10, 7.0000000000000009, 0.51451666666666673, 2E-09, 15.357051446122364
DataValue, 4.6000000000000005, 0.031064400000000002, 4.0000000000000007E-10, 7.00002, 0.51774000000000009, 6.6666666666666676E-09, 15.678076822576413
DataValue, 4.65, 0.0312537, -1.0000000000000002E-10, 7.0000000000000009, 0.52089500000000011, 1.6666666666666669E-09, 15.961691939345602
DataValue, 4.7, 0.031440300000000004, 2.3000000000000003E-10, 7.00002, 0.524005, 3.8333333333333337E-09, 16.29106706489263
DataValue, 4.75, 0.031622000000000004, 2.6000000000000003E-10, 7.0000000000000009, 0.52703333333333346, 4.3333333333333341E-09, 16.629711751662654
DataValue, 4.8, 0.031801100000000006, 1.2E-10, 7.0000000000000009, 0.53001833333333348, 2E-09, 17.10863986313133
DataValue, 4.8500000000000005, 0.0319727, 3.4E-10, 7.0000000000000009, 0.53287833333333334, 5.666666666666667E-09, 17.543859649123124
DataValue, 4.9, 0.0321431, 1.7E-10, 7.0000000000000009, 0.53571833333333341, 2.8333333333333335E-09, 17.793594306049538
DataValue, 4.95, 0.0323099, 7E-11, 7.0000000000000009, 0.53849833333333341, 1.1666666666666668E-09, 18.192844147968273
DataValue, 5, 0.032472900000000006, 2.4E-10, 7.00002, 0.54121500000000011, 4E-09, 18.541409147095017
DataValue, 5.05, 0.0326335, 0, 7.0000000000000009, 0.54389166666666677, 0, 18.86792452830209
