
SetupTitle, Output
PrimitiveTest, I/V Sweep
TestParameter, Context.MainFrame, B1500A
TestParameter, Channel.UnitType, SMU, SMU, SMU
TestParameter, Channel.Unit, SMU1:MP, SMU2:MC, GNDU:GND
TestParameter, Channel.IName, Id, Ig, Is
TestParameter, Channel.VName, Vd, Vg, Vs
TestParameter, Channel.Mode, V, V, COMMON
TestParameter, Channel.Func, VAR1, CONST, CONST
TestParameter, Channel.Index, 
TestParameter, Channel.Time, 
TestParameter, Measurement.Port.Unit, SMU1:MP, SMU2:MC, GNDU:GND
TestParameter, Measurement.Port.SeriesResistor, NONE, NONE, NONE
TestParameter, Measurement.Port.Filter, ON, ON, ON
TestParameter, Measurement.Port.OutputVoltageComparison, 0, 0, 0
TestParameter, Measurement.Primary.Locus, Single
TestParameter, Measurement.Primary.Scale, LINEAR
TestParameter, Measurement.Primary.Start, 0
TestParameter, Measurement.Primary.Stop, 10
TestParameter, Measurement.Primary.Step, 0.05
TestParameter, Measurement.Primary.Compliance, 0.1
TestParameter, Measurement.Primary.PowerCompliance, 0
TestParameter, Measurement.Aborting.Condition, CONTINUE AT ANY
TestParameter, Measurement.PostOutput.Value, START
TestParameter, Measurement.PostOutput.Retention, OFF
TestParameter, Measurement.Bias.Source, 0, 7.0000000000000009, 0
TestParameter, Measurement.Bias.Compliance, 0.1, 0.0001, 2
TestParameter, Measurement.Monitor.Unit, SMU1:MP, SMU2:MC, GNDU:GND
TestParameter, Measurement.Monitor.Adc, HR ADC, HS ADC, HR ADC
TestParameter, Measurement.Monitor.Measurement, Compliance Side, Force and Compliance Sides, Compliance Side
TestParameter, Measurement.Monitor.RangingMode, LIMITED, LIMITED, LIMITED
TestParameter, Measurement.Monitor.RangeBoundary, 1nA, 10uA, 1nA
TestParameter, Measurement.Monitor.RangeRating, BY FULL RANGE, BY FULL RANGE, BY FULL RANGE
TestParameter, Measurement.Monitor.RangeRatingCoeff, 50, 50, 50
TestParameter, Measurement.Timing.Hold, 0
TestParameter, Measurement.Timing.Delay, 0
TestParameter, Measurement.Adc.HighSpeed.Mode, AUTO
TestParameter, Measurement.Adc.HighSpeed.Coeff, 1
TestParameter, Measurement.Adc.HighResolution.AutoZero, OFF
TestParameter, Measurement.Adc.HighResolution.Mode, PLC
TestParameter, Measurement.Adc.HighResolution.Coeff, 1
TestParameter, Measurement.WaitTime.Source.Coeff, 1
TestParameter, Measurement.WaitTime.Source.Offset, 0
TestParameter, Measurement.WaitTime.Monitor.Coeff, 1
TestParameter, Measurement.WaitTime.Monitor.Offset, 0
TestParameter, Function.User.Name, Id_dens, Ig_dens, Ron
TestParameter, Function.User.Unit, A/mm, A/mm, Ohm/mm
TestParameter, Function.User.Definition, Id/0.06, abs(Ig)/0.06, diff(Vd,Id_dens)
TestParameter, Output.Graph.Enabled, true
TestParameter, Output.Graph.AutoScaling, false
TestParameter, Output.Graph.XAxis.Data, Vd
TestParameter, Output.Graph.XAxis.Scale, Linear
TestParameter, Output.Graph.XAxis.Left, 0
TestParameter, Output.Graph.XAxis.Right, 6
TestParameter, Output.Graph.XAxis.RunTimeAutoScale, false
TestParameter, Output.Graph.YAxis.Data, Id_dens, Ron
TestParameter, Output.Graph.YAxis.Scale, Linear, Linear
TestParameter, Output.Graph.YAxis.Bottom, 0, 0
TestParameter, Output.Graph.YAxis.Top, 0.30000000000000004, 1
TestParameter, Output.Graph.YAxis.Group, , 
TestParameter, Output.Graph.YAxis.RunTimeAutoScale, false, false
TestParameter, Output.List.Data, Vd, Id_dens, Ig_dens, Vg, Ron
TestParameter, AutoAnalysis.Interpolation, false
TestParameter, AutoAnalysis.Line1.Enabled, false
TestParameter, AutoAnalysis.Line1.Type, 1
TestParameter, AutoAnalysis.Line1.Fix, True
TestParameter, AutoAnalysis.Line1.YAxis, 0
TestParameter, AutoAnalysis.Line1.Point1.Type, 0
TestParameter, AutoAnalysis.Line1.Point1.XY.X, 
TestParameter, AutoAnalysis.Line1.Point1.XY.Y, 
TestParameter, AutoAnalysis.Line1.Point1.Data.Var, 
TestParameter, AutoAnalysis.Line1.Point1.Data.Condition, 
TestParameter, AutoAnalysis.Line1.Point1.Data.Start, false
TestParameter, AutoAnalysis.Line1.Point1.Data.StartVar, 
TestParameter, AutoAnalysis.Line1.Point1.Data.StartCondition, 
TestParameter, AutoAnalysis.Line1.Point2.Type, 0
TestParameter, AutoAnalysis.Line1.Point2.XY.X, 
TestParameter, AutoAnalysis.Line1.Point2.XY.Y, 
TestParameter, AutoAnalysis.Line1.Point2.Data.Var, 
TestParameter, AutoAnalysis.Line1.Point2.Data.Condition, 
TestParameter, AutoAnalysis.Line1.Point2.Data.Start, false
TestParameter, AutoAnalysis.Line1.Point2.Data.StartVar, 
TestParameter, AutoAnalysis.Line1.Point2.Data.StartCondition, 
TestParameter, AutoAnalysis.Line1.GradientExpr, 0
TestParameter, AutoAnalysis.Line2.Enabled, false
TestParameter, AutoAnalysis.Line2.Type, 1
TestParameter, AutoAnalysis.Line2.Fix, True
TestParameter, AutoAnalysis.Line2.YAxis, 0
TestParameter, AutoAnalysis.Line2.Point1.Type, 0
TestParameter, AutoAnalysis.Line2.Point1.XY.X, 
TestParameter, AutoAnalysis.Line2.Point1.XY.Y, 
TestParameter, AutoAnalysis.Line2.Point1.Data.Var, 
TestParameter, AutoAnalysis.Line2.Point1.Data.Condition, 
TestParameter, AutoAnalysis.Line2.Point1.Data.Start, false
TestParameter, AutoAnalysis.Line2.Point1.Data.StartVar, 
TestParameter, AutoAnalysis.Line2.Point1.Data.StartCondition, 
TestParameter, AutoAnalysis.Line2.Point2.Type, 0
TestParameter, AutoAnalysis.Line2.Point2.XY.X, 
TestParameter, AutoAnalysis.Line2.Point2.XY.Y, 
TestParameter, AutoAnalysis.Line2.Point2.Data.Var, 
TestParameter, AutoAnalysis.Line2.Point2.Data.Condition, 
TestParameter, AutoAnalysis.Line2.Point2.Data.Start, false
TestParameter, AutoAnalysis.Line2.Point2.Data.StartVar, 
TestParameter, AutoAnalysis.Line2.Point2.Data.StartCondition, 
TestParameter, AutoAnalysis.Line2.GradientExpr, 0
TestParameter, AutoAnalysis.Marker.Enabled, false
TestParameter, AutoAnalysis.Marker.Data.Var, 
TestParameter, AutoAnalysis.Marker.Data.Condition, 
TestParameter, AutoAnalysis.Marker.Data.Start, false
TestParameter, AutoAnalysis.Marker.Data.StartVar, 
TestParameter, AutoAnalysis.Marker.Data.StartCondition, 
MetaData, TestRecord.EntryPoint, true
MetaData, TestRecord.RecordTime, 08/16/2019 16:01:28
MetaData, TestRecord.TestTarget, 
MetaData, TestRecord.IterationIndex, 1
MetaData, TestRecord.Preservation, true
MetaData, TestRecord.Flag, #
MetaData, TestRecord.Remarks, #172_LPCVD_trigate_die1_r2c4_Pl_lgd10
MetaData, TestRecord.LinkKey, f23b5fbe-a735-43f8-af0a-97fc785f8aab
Dimension1, 201, 201, 201, 201, 201, 201, 201
Dimension2, 1, 1, 1, 1, 1, 1, 1
DataName, Vd, Id, Ig, Vg, Id_dens, Ig_dens, Ron
DataValue, 0, -9.9865000000000017E-07, 8.29E-09, 7.0000000000000009, -1.6644166666666669E-05, 1.3816666666666668E-07, 17.011754839064547
DataValue, 0.05, 0.00017535, 6.950000000000001E-09, 7.0000000000000009, 0.0029225, 1.1583333333333336E-07, 17.00503618317428
DataValue, 0.1, 0.00035183800000000004, 6.5900000000000006E-09, 7.0000000000000009, 0.005863966666666668, 1.0983333333333334E-07, 16.975671034129586
DataValue, 0.15, 0.000528797, 6.9300000000000007E-09, 7.0000000000000009, 0.008813283333333333, 1.1550000000000002E-07, 16.931408044111961
DataValue, 0.2, 0.00070620900000000007, 6.6800000000000009E-09, 7.0000000000000009, 0.011770150000000002, 1.1133333333333335E-07, 16.9014560604396
DataValue, 0.25, 0.00088379600000000006, 6.1100000000000006E-09, 7.0000000000000009, 0.014729933333333336, 1.0183333333333335E-07, 16.867483427697536
DataValue, 0.3, 0.001061923, 6.2100000000000007E-09, 7.0000000000000009, 0.017698716666666666, 1.0350000000000002E-07, 16.941782388452488
DataValue, 0.35000000000000003, 0.00123795, 6.16E-09, 7.0000000000000009, 0.0206325, 1.0266666666666667E-07, 16.899647079036832
DataValue, 0.4, 0.00141696, 5.88E-09, 7.0000000000000009, 0.023616, 9.8E-08, 16.753224995811685
DataValue, 0.45, 0.00159609, 5.5300000000000005E-09, 7.0000000000000009, 0.026601500000000004, 9.2166666666666678E-08, 16.719146208933594
DataValue, 0.5, 0.00177583, 5.54E-09, 7.0000000000000009, 0.029597166666666667, 9.233333333333334E-08, 16.687526074259495
DataValue, 0.55, 0.0019556400000000002, 5.9300000000000008E-09, 7.0000000000000009, 0.032594000000000005, 9.8833333333333351E-08, 16.6583374979177
DataValue, 0.6, 0.0021360100000000003, 5.1900000000000005E-09, 7.0000000000000009, 0.035600166666666669, 8.6500000000000014E-08, 16.637089618456081
DataValue, 0.65, 0.00231628, 5.0200000000000004E-09, 7.0000000000000009, 0.038604666666666669, 8.3666666666666675E-08, 16.604400166044016
DataValue, 0.70000000000000007, 0.00249736, 5.51E-09, 7.0000000000000009, 0.041622666666666669, 9.1833333333333342E-08, 16.56589083077942
DataValue, 0.75, 0.00267847, 4.59E-09, 7.0000000000000009, 0.044641166666666669, 7.65E-08, 16.54350942980038
DataValue, 0.8, 0.00286004, 4.9000000000000009E-09, 7.0000000000000009, 0.047667333333333332, 8.1666666666666683E-08, 16.534391534391538
DataValue, 0.85, 0.00304135, 4.93E-09, 7.0000000000000009, 0.050689166666666667, 8.2166666666666668E-08, 16.513458468651944
DataValue, 0.9, 0.00322338, 4.58E-09, 7.0000000000000009, 0.053723, 7.6333333333333342E-08, 16.496659426466149
DataValue, 0.95000000000000007, 0.00340506, 4.68E-09, 7.0000000000000009, 0.056751, 7.800000000000001E-08, 16.482610845557925
DataValue, 1, 0.0035874, 4.62E-09, 7.0000000000000009, 0.05979, 7.7E-08, 16.59062629614268
DataValue, 1.05, 0.00376671, 4.17E-09, 7.0000000000000009, 0.0627785, 6.9500000000000007E-08, 16.584206307526465
DataValue, 1.1, 0.00394919, 4.52E-09, 7.0000000000000009, 0.065819833333333341, 7.5333333333333333E-08, 16.437905810799705
DataValue, 1.1500000000000001, 0.00413172, 4.1200000000000007E-09, 7.0000000000000009, 0.068862, 6.8666666666666686E-08, 16.4271047227926
DataValue, 1.2, 0.00431444, 4.0500000000000007E-09, 7.0000000000000009, 0.071907333333333337, 6.7500000000000015E-08, 16.4235075137547
DataValue, 1.25, 0.00449705, 4.17E-09, 7.0000000000000009, 0.074950833333333328, 6.9500000000000007E-08, 16.425305921322785
DataValue, 1.3, 0.00467973, 4.04E-09, 7.0000000000000009, 0.077995500000000009, 6.7333333333333341E-08, 16.419013217305658
DataValue, 1.35, 0.00486248, 3.9100000000000008E-09, 7.0000000000000009, 0.081041333333333326, 6.5166666666666688E-08, 16.432053458947298
DataValue, 1.4000000000000001, 0.00504487, 4.2500000000000008E-09, 7.0000000000000009, 0.084081166666666665, 7.0833333333333352E-08, 16.439256945586024
DataValue, 1.45, 0.00522746, 3.66E-09, 7.0000000000000009, 0.087124333333333331, 6.1E-08, 16.427554484722354
DataValue, 1.5, 0.00541011, 3.79E-09, 7.0000000000000009, 0.0901685, 6.316666666666667E-08, 16.451427161306217
DataValue, 1.55, 0.0055921700000000005, 4.2200000000000007E-09, 7.0000000000000009, 0.093202833333333346, 7.0333333333333354E-08, 16.488046166529241
DataValue, 1.6, 0.00577401, 3.4800000000000004E-09, 7.0000000000000009, 0.096233500000000013, 5.800000000000001E-08, 16.496659426466188
DataValue, 1.6500000000000001, 0.00595588, 3.77E-09, 7.0000000000000009, 0.099264666666666668, 6.2833333333333333E-08, 16.507552205133869
DataValue, 1.7, 0.00613748, 3.9100000000000008E-09, 7.0000000000000009, 0.10229133333333333, 6.5166666666666688E-08, 16.661112962345843
DataValue, 1.75, 0.006316, 3.49E-09, 7.0000000000000009, 0.10526666666666668, 5.8166666666666671E-08, 16.665277893508872
DataValue, 1.8, 0.00649751, 3.6000000000000004E-09, 7.0000000000000009, 0.10829183333333334, 6.0000000000000008E-08, 16.530291759649575
DataValue, 1.85, 0.00667897, 3.6300000000000005E-09, 7.0000000000000009, 0.11131616666666667, 6.05E-08, 16.554920950252466
DataValue, 1.9000000000000001, 0.00685994, 3.25E-09, 7.0000000000000009, 0.11433233333333334, 5.4166666666666669E-08, 16.604859688935594
DataValue, 1.95, 0.00704031, 3.4100000000000004E-09, 7.0000000000000009, 0.11733850000000001, 5.6833333333333339E-08, 16.624643262863291
DataValue, 2, 0.00722085, 3.5200000000000003E-09, 7.0000000000000009, 0.12034750000000001, 5.8666666666666676E-08, 16.62648599218555
DataValue, 2.05, 0.00740118, 3.3500000000000002E-09, 7.0000000000000009, 0.123353, 5.5833333333333337E-08, 16.648630650129007
DataValue, 2.1, 0.00758124, 3.2900000000000004E-09, 7.0000000000000009, 0.12635400000000002, 5.4833333333333341E-08, 16.697743021734876
DataValue, 2.15, 0.00776051, 2.9800000000000005E-09, 7.0000000000000009, 0.12934183333333335, 4.9666666666666675E-08, 16.747146007201287
DataValue, 2.2, 0.00793951, 2.9500000000000004E-09, 7.0000000000000009, 0.13232516666666669, 4.9166666666666677E-08, 16.783216783216847
DataValue, 2.25, 0.00811801, 3.4000000000000003E-09, 7.0000000000000009, 0.13530016666666667, 5.6666666666666671E-08, 16.83123877917426
DataValue, 2.3000000000000003, 0.00829599, 2.84E-09, 7.0000000000000009, 0.1382665, 4.733333333333334E-08, 16.860563142809006
DataValue, 2.35, 0.00847387, 2.8700000000000002E-09, 7.0000000000000009, 0.14123116666666666, 4.7833333333333338E-08, 16.877162386430676
DataValue, 2.4, 0.0086515, 3.6400000000000003E-09, 7.0000000000000009, 0.14419166666666666, 6.0666666666666667E-08, 17.091095539224014
DataValue, 2.45, 0.00882493, 2.7300000000000003E-09, 7.0000000000000009, 0.14708216666666668, 4.5500000000000004E-08, 17.115472387037826
DataValue, 2.5, 0.009002060000000001, 3.0200000000000003E-09, 7.0000000000000009, 0.15003433333333335, 5.0333333333333341E-08, 17.003910899506909
DataValue, 2.5500000000000003, 0.00917779, 3.3300000000000003E-09, 7.0000000000000009, 0.15296316666666668, 5.5500000000000007E-08, 17.078933135976804
DataValue, 2.6, 0.00935337, 2.7E-09, 7.0000000000000009, 0.15588950000000001, 4.5000000000000006E-08, 17.121821761835402
DataValue, 2.65, 0.00952822, 2.9200000000000003E-09, 7.0000000000000009, 0.15880366666666668, 4.8666666666666672E-08, 17.200848575196407
DataValue, 2.7, 0.00970219, 2.8800000000000004E-09, 7.0000000000000009, 0.16170316666666668, 4.8000000000000006E-08, 17.266187050359726
DataValue, 2.75, 0.009875720000000001, 2.5600000000000003E-09, 7.0000000000000009, 0.16459533333333334, 4.2666666666666672E-08, 17.277125086385677
DataValue, 2.8000000000000003, 0.01004947, 2.9000000000000003E-09, 7.0000000000000009, 0.16749116666666666, 4.8333333333333343E-08, 17.340038148083959
DataValue, 2.85, 0.01022174, 2.8800000000000004E-09, 7.0000000000000009, 0.17036233333333334, 4.8000000000000006E-08, 17.418568193694345
DataValue, 2.9, 0.010393930000000001, 2.55E-09, 7.0000000000000009, 0.17323216666666669, 4.2500000000000003E-08, 17.507513641271064
DataValue, 2.95, 0.01056445, 2.77E-09, 7.0000000000000009, 0.17607416666666667, 4.616666666666667E-08, 17.658484901995422
DataValue, 3, 0.01073371, 2.46E-09, 7.0000000000000009, 0.17889516666666669, 4.1E-08, 17.706427433158268
DataValue, 3.0500000000000003, 0.01090331, 2.67E-09, 7.0000000000000009, 0.18172183333333333, 4.45E-08, 17.725258493353078
DataValue, 3.1, 0.01107221, 3.0000000000000004E-09, 7.0000000000000009, 0.18453683333333334, 5.0000000000000011E-08, 17.902431746978863
DataValue, 3.15, 0.01123846, 2.1600000000000004E-09, 7.0000000000000009, 0.18730766666666668, 3.6000000000000005E-08, 17.99532121648371
DataValue, 3.2, 0.01140563, 2.5200000000000004E-09, 7.0000000000000009, 0.19009383333333335, 4.2000000000000006E-08, 17.299042786299122
DataValue, 3.25, 0.011585300000000002, 2.5100000000000002E-09, 7.0000000000000009, 0.19308833333333336, 4.1833333333333337E-08, 17.377704405248011
DataValue, 3.3000000000000003, 0.011750900000000002, 2.6900000000000004E-09, 7.0000000000000009, 0.19584833333333337, 4.4833333333333344E-08, 18.148820326678734
DataValue, 3.35, 0.011915900000000002, 2.17E-09, 7.0000000000000009, 0.19859833333333338, 3.6166666666666673E-08, 18.264840182648403
DataValue, 3.4, 0.0120794, 2.34E-09, 7.0000000000000009, 0.20132333333333335, 3.9000000000000005E-08, 18.303843807199573
DataValue, 3.45, 0.012243700000000002, 2.5E-09, 7.0000000000000009, 0.2040616666666667, 4.1666666666666669E-08, 18.371096142069845
DataValue, 3.5, 0.012406, 2.1E-09, 7.0000000000000009, 0.20676666666666668, 3.5E-08, 18.484288354898361
DataValue, 3.5500000000000003, 0.012568300000000001, 2.4400000000000003E-09, 7.0000000000000009, 0.2094716666666667, 4.0666666666666673E-08, 18.552875695732741
DataValue, 3.6, 0.012729400000000002, 2.46E-09, 7.0000000000000009, 0.21215666666666672, 4.1E-08, 18.674136321195082
DataValue, 3.65, 0.012889600000000001, 2.3300000000000004E-09, 7.0000000000000009, 0.21482666666666669, 3.8833333333333344E-08, 18.94537417113991
DataValue, 3.7, 0.013046100000000001, 2.31E-09, 7.0000000000000009, 0.21743500000000005, 3.85E-08, 19.005384859043421
DataValue, 3.75, 0.013205300000000001, 1.9900000000000004E-09, 7.0000000000000009, 0.22008833333333336, 3.3166666666666672E-08, 18.975332068311324
DataValue, 3.8000000000000003, 0.0133623, 2.0400000000000004E-09, 7.0000000000000009, 0.22270500000000001, 3.4000000000000007E-08, 19.120458891013357
DataValue, 3.85, 0.013519100000000001, 2.5700000000000004E-09, 7.0000000000000009, 0.22531833333333337, 4.283333333333334E-08, 19.212295869356264
DataValue, 3.9, 0.013674600000000002, 1.92E-09, 7.0000000000000009, 0.22791000000000003, 3.2E-08, 19.274012206874456
DataValue, 3.95, 0.013830400000000001, 2.19E-09, 7.0000000000000009, 0.23050666666666669, 3.65E-08, 19.373587342589587
DataValue, 4, 0.013984300000000002, 2.5700000000000004E-09, 7.0000000000000009, 0.23307166666666671, 4.283333333333334E-08, 19.524894240156144
DataValue, 4.05, 0.014137700000000001, 2.1500000000000002E-09, 7.0000000000000009, 0.23562833333333336, 3.5833333333333337E-08, 19.614253023864006
DataValue, 4.1, 0.014290200000000001, 2.19E-09, 7.0000000000000009, 0.23817000000000002, 3.65E-08, 19.828155981493783
DataValue, 4.15, 0.014440300000000001, 2.4000000000000004E-09, 7.0000000000000009, 0.2406716666666667, 4.0000000000000007E-08, 20.181634712411753
DataValue, 4.2, 0.014587500000000002, 1.88E-09, 7.0000000000000009, 0.24312500000000004, 3.1333333333333336E-08, 20.703933747411931
DataValue, 4.25, 0.014730100000000001, 2.05E-09, 7.0000000000000009, 0.2455016666666667, 3.4166666666666668E-08, 30.4414003044138
DataValue, 4.3, 0.014784600000000002, 2.4500000000000004E-09, 7.00002, 0.24641000000000005, 4.0833333333333342E-08, 28.999516674722262
DataValue, 4.3500000000000005, 0.014937, 1.95E-09, 7.0000000000000009, 0.24895000000000003, 3.25E-08, 20.195220464490205
DataValue, 4.4, 0.015081700000000002, 2.17E-09, 7.0000000000000009, 0.25136166666666671, 3.6166666666666673E-08, 20.732550103662742
DataValue, 4.45, 0.015226400000000001, 1.9600000000000003E-09, 7.0000000000000009, 0.25377333333333335, 3.2666666666666675E-08, 21.344717182497281
DataValue, 4.5, 0.015362800000000001, 1.95E-09, 7.0000000000000009, 0.2560466666666667, 3.25E-08, 21.897810218978041
DataValue, 4.55, 0.015500400000000001, 2.2000000000000003E-09, 7.0000000000000009, 0.25834, 3.6666666666666671E-08, 22.438294689603723
DataValue, 4.6000000000000005, 0.0156302, 2.1600000000000004E-09, 7.0000000000000009, 0.26050333333333336, 3.6000000000000005E-08, 22.338049143708147
DataValue, 4.65, 0.015769000000000002, 1.8100000000000002E-09, 7.0000000000000009, 0.2628166666666667, 3.0166666666666672E-08, 21.104467112205292
DataValue, 4.7, 0.0159145, 2.2300000000000004E-09, 7.0000000000000009, 0.26524166666666671, 3.7166666666666675E-08, 21.082220660576226
DataValue, 4.75, 0.0160536, 1.8700000000000004E-09, 7.0000000000000009, 0.26756, 3.1166666666666674E-08, 21.953896816684733
DataValue, 4.8, 0.016187800000000002, 1.8600000000000002E-09, 7.0000000000000009, 0.26979666666666674, 3.1000000000000006E-08, 22.329735764793426
DataValue, 4.8500000000000005, 0.0163223, 2.2800000000000004E-09, 7.0000000000000009, 0.27203833333333338, 3.8000000000000009E-08, 23.492560689115436
DataValue, 4.9, 0.0164432, 1.4300000000000002E-09, 6.9999800000000008, 0.27405333333333337, 2.3833333333333338E-08, 23.501762632197284
DataValue, 4.95, 0.0165776, 1.7200000000000003E-09, 7.0000000000000009, 0.27629333333333339, 2.8666666666666672E-08, 22.181146025877911
DataValue, 5, 0.0167137, 2.0300000000000002E-09, 7.0000000000000009, 0.27856166666666671, 3.3833333333333339E-08, 21.731256791017653
DataValue, 5.05, 0.016853700000000003, 1.7000000000000001E-09, 7.0000000000000009, 0.28089500000000006, 2.8333333333333336E-08, 21.834061135371424
