
SetupTitle, Output
PrimitiveTest, I/V Sweep
TestParameter, Context.MainFrame, B1500A
TestParameter, Channel.UnitType, SMU, SMU, SMU
TestParameter, Channel.Unit, SMU1:MP, SMU2:MC, GNDU:GND
TestParameter, Channel.IName, Id, Ig, Is
TestParameter, Channel.VName, Vd, Vg, Vs
TestParameter, Channel.Mode, V, V, COMMON
TestParameter, Channel.Func, VAR1, CONST, CONST
TestParameter, Channel.Index, 
TestParameter, Channel.Time, 
TestParameter, Measurement.Port.Unit, SMU1:MP, SMU2:MC, GNDU:GND
TestParameter, Measurement.Port.SeriesResistor, NONE, NONE, NONE
TestParameter, Measurement.Port.Filter, ON, ON, ON
TestParameter, Measurement.Port.OutputVoltageComparison, 0, 0, 0
TestParameter, Measurement.Primary.Locus, Single
TestParameter, Measurement.Primary.Scale, LINEAR
TestParameter, Measurement.Primary.Start, 0
TestParameter, Measurement.Primary.Stop, 10
TestParameter, Measurement.Primary.Step, 0.05
TestParameter, Measurement.Primary.Compliance, 0.1
TestParameter, Measurement.Primary.PowerCompliance, 0
TestParameter, Measurement.Aborting.Condition, CONTINUE AT ANY
TestParameter, Measurement.PostOutput.Value, START
TestParameter, Measurement.PostOutput.Retention, OFF
TestParameter, Measurement.Bias.Source, 0, 7.0000000000000009, 0
TestParameter, Measurement.Bias.Compliance, 0.1, 0.0001, 2
TestParameter, Measurement.Monitor.Unit, SMU1:MP, SMU2:MC, GNDU:GND
TestParameter, Measurement.Monitor.Adc, HR ADC, HS ADC, HR ADC
TestParameter, Measurement.Monitor.Measurement, Compliance Side, Force and Compliance Sides, Compliance Side
TestParameter, Measurement.Monitor.RangingMode, LIMITED, LIMITED, LIMITED
TestParameter, Measurement.Monitor.RangeBoundary, 1nA, 10uA, 1nA
TestParameter, Measurement.Monitor.RangeRating, BY FULL RANGE, BY FULL RANGE, BY FULL RANGE
TestParameter, Measurement.Monitor.RangeRatingCoeff, 50, 50, 50
TestParameter, Measurement.Timing.Hold, 0
TestParameter, Measurement.Timing.Delay, 0
TestParameter, Measurement.Adc.HighSpeed.Mode, AUTO
TestParameter, Measurement.Adc.HighSpeed.Coeff, 1
TestParameter, Measurement.Adc.HighResolution.AutoZero, OFF
TestParameter, Measurement.Adc.HighResolution.Mode, PLC
TestParameter, Measurement.Adc.HighResolution.Coeff, 1
TestParameter, Measurement.WaitTime.Source.Coeff, 1
TestParameter, Measurement.WaitTime.Source.Offset, 0
TestParameter, Measurement.WaitTime.Monitor.Coeff, 1
TestParameter, Measurement.WaitTime.Monitor.Offset, 0
TestParameter, Function.User.Name, Id_dens, Ig_dens, Ron
TestParameter, Function.User.Unit, A/mm, A/mm, Ohm/mm
TestParameter, Function.User.Definition, Id/0.06, abs(Ig)/0.06, diff(Vd,Id_dens)
TestParameter, Output.Graph.Enabled, true
TestParameter, Output.Graph.AutoScaling, false
TestParameter, Output.Graph.XAxis.Data, Vd
TestParameter, Output.Graph.XAxis.Scale, Linear
TestParameter, Output.Graph.XAxis.Left, 0
TestParameter, Output.Graph.XAxis.Right, 6
TestParameter, Output.Graph.XAxis.RunTimeAutoScale, false
TestParameter, Output.Graph.YAxis.Data, Id_dens, Ron
TestParameter, Output.Graph.YAxis.Scale, Linear, Linear
TestParameter, Output.Graph.YAxis.Bottom, 0, 0
TestParameter, Output.Graph.YAxis.Top, 0.30000000000000004, 1
TestParameter, Output.Graph.YAxis.Group, , 
TestParameter, Output.Graph.YAxis.RunTimeAutoScale, false, false
TestParameter, Output.List.Data, Vd, Id_dens, Ig_dens, Vg, Ron
TestParameter, AutoAnalysis.Interpolation, false
TestParameter, AutoAnalysis.Line1.Enabled, false
TestParameter, AutoAnalysis.Line1.Type, 1
TestParameter, AutoAnalysis.Line1.Fix, True
TestParameter, AutoAnalysis.Line1.YAxis, 0
TestParameter, AutoAnalysis.Line1.Point1.Type, 0
TestParameter, AutoAnalysis.Line1.Point1.XY.X, 
TestParameter, AutoAnalysis.Line1.Point1.XY.Y, 
TestParameter, AutoAnalysis.Line1.Point1.Data.Var, 
TestParameter, AutoAnalysis.Line1.Point1.Data.Condition, 
TestParameter, AutoAnalysis.Line1.Point1.Data.Start, false
TestParameter, AutoAnalysis.Line1.Point1.Data.StartVar, 
TestParameter, AutoAnalysis.Line1.Point1.Data.StartCondition, 
TestParameter, AutoAnalysis.Line1.Point2.Type, 0
TestParameter, AutoAnalysis.Line1.Point2.XY.X, 
TestParameter, AutoAnalysis.Line1.Point2.XY.Y, 
TestParameter, AutoAnalysis.Line1.Point2.Data.Var, 
TestParameter, AutoAnalysis.Line1.Point2.Data.Condition, 
TestParameter, AutoAnalysis.Line1.Point2.Data.Start, false
TestParameter, AutoAnalysis.Line1.Point2.Data.StartVar, 
TestParameter, AutoAnalysis.Line1.Point2.Data.StartCondition, 
TestParameter, AutoAnalysis.Line1.GradientExpr, 0
TestParameter, AutoAnalysis.Line2.Enabled, false
TestParameter, AutoAnalysis.Line2.Type, 1
TestParameter, AutoAnalysis.Line2.Fix, True
TestParameter, AutoAnalysis.Line2.YAxis, 0
TestParameter, AutoAnalysis.Line2.Point1.Type, 0
TestParameter, AutoAnalysis.Line2.Point1.XY.X, 
TestParameter, AutoAnalysis.Line2.Point1.XY.Y, 
TestParameter, AutoAnalysis.Line2.Point1.Data.Var, 
TestParameter, AutoAnalysis.Line2.Point1.Data.Condition, 
TestParameter, AutoAnalysis.Line2.Point1.Data.Start, false
TestParameter, AutoAnalysis.Line2.Point1.Data.StartVar, 
TestParameter, AutoAnalysis.Line2.Point1.Data.StartCondition, 
TestParameter, AutoAnalysis.Line2.Point2.Type, 0
TestParameter, AutoAnalysis.Line2.Point2.XY.X, 
TestParameter, AutoAnalysis.Line2.Point2.XY.Y, 
TestParameter, AutoAnalysis.Line2.Point2.Data.Var, 
TestParameter, AutoAnalysis.Line2.Point2.Data.Condition, 
TestParameter, AutoAnalysis.Line2.Point2.Data.Start, false
TestParameter, AutoAnalysis.Line2.Point2.Data.StartVar, 
TestParameter, AutoAnalysis.Line2.Point2.Data.StartCondition, 
TestParameter, AutoAnalysis.Line2.GradientExpr, 0
TestParameter, AutoAnalysis.Marker.Enabled, false
TestParameter, AutoAnalysis.Marker.Data.Var, 
TestParameter, AutoAnalysis.Marker.Data.Condition, 
TestParameter, AutoAnalysis.Marker.Data.Start, false
TestParameter, AutoAnalysis.Marker.Data.StartVar, 
TestParameter, AutoAnalysis.Marker.Data.StartCondition, 
MetaData, TestRecord.EntryPoint, true
MetaData, TestRecord.RecordTime, 08/16/2019 12:09:10
MetaData, TestRecord.TestTarget, 
MetaData, TestRecord.IterationIndex, 1
MetaData, TestRecord.Preservation, true
MetaData, TestRecord.Flag, #
MetaData, TestRecord.Remarks, #089_LPCVD_trigate_die4_r2c2_W150
MetaData, TestRecord.LinkKey, 9021181d-377b-4a6d-bbb4-b7b041134c57
Dimension1, 201, 201, 201, 201, 201, 201, 201
Dimension2, 1, 1, 1, 1, 1, 1, 1
DataName, Vd, Id, Ig, Vg, Id_dens, Ig_dens, Ron
DataValue, 0, -1.18674E-06, 6.1482800000000007E-05, 6.9999800000000008, -1.9779E-05, 0.0010247133333333334, 11.854439807777888
DataValue, 0.05, 0.000251883, 7.2300000000000009E-09, 7.0000000000000009, 0.00419805, 1.2050000000000003E-07, 11.854058989827912
DataValue, 0.1, 0.00050496900000000008, 6.57E-09, 7.0000000000000009, 0.0084161500000000024, 1.0950000000000001E-07, 11.846329414830812
DataValue, 0.15, 0.00075836900000000006, 6.470000000000001E-09, 7.0000000000000009, 0.012639483333333335, 1.0783333333333335E-07, 11.830166134966422
DataValue, 0.2, 0.0010121470000000001, 5.71E-09, 7.0000000000000009, 0.01686911666666667, 9.5166666666666678E-08, 11.817281198114751
DataValue, 0.25, 0.0012661, 5.650000000000001E-09, 7.0000000000000009, 0.021101666666666668, 9.4166666666666683E-08, 11.796556585132798
DataValue, 0.3, 0.00152077, 6.4200000000000006E-09, 7.0000000000000009, 0.02534616666666667, 1.0700000000000002E-07, 11.858879335902758
DataValue, 0.35000000000000003, 0.00177205, 5.41E-09, 7.0000000000000009, 0.02953416666666667, 9.0166666666666673E-08, 11.828953334779108
DataValue, 0.4, 0.002028, 6.1960000000000007E-08, 7.0000000000000009, 0.0338, 1.0326666666666669E-06, 11.718749999999996
DataValue, 0.45, 0.00228405, 7.500000000000001E-09, 7.0000000000000009, 0.038067500000000004, 1.2500000000000002E-07, 11.689526184538648
DataValue, 0.5, 0.00254128, 5.13E-09, 7.0000000000000009, 0.042354666666666665, 8.55E-08, 11.657729074376313
DataValue, 0.55, 0.00279873, 4.8800000000000005E-09, 7.0000000000000009, 0.046645500000000006, 8.1333333333333347E-08, 11.628357688282481
DataValue, 0.6, 0.00305726, 4.69E-09, 7.0000000000000009, 0.050954333333333338, 7.8166666666666672E-08, 11.59958241503306
DataValue, 0.65, 0.00331599, 4.6600000000000009E-09, 7.0000000000000009, 0.0552665, 7.7666666666666687E-08, 11.569833587226913
DataValue, 0.70000000000000007, 0.00357585, 5.1800000000000007E-09, 7.0000000000000009, 0.059597500000000005, 8.6333333333333352E-08, 11.536908493087458
DataValue, 0.75, 0.00383606, 4.24E-09, 7.0000000000000009, 0.063934333333333343, 7.0666666666666677E-08, 11.511453896627131
DataValue, 0.8, 0.00409707, 4.5700000000000006E-09, 7.0000000000000009, 0.068284500000000012, 7.616666666666668E-08, 11.497997432113914
DataValue, 0.85, 0.00435789, 3.7200000000000004E-09, 7.0000000000000009, 0.0726315, 6.2000000000000013E-08, 11.483912951939825
DataValue, 0.9, 0.00461954, 3.87E-09, 7.0000000000000009, 0.076992333333333343, 6.45E-08, 11.462412837902383
DataValue, 0.95000000000000007, 0.0048813400000000005, 4.52E-09, 7.0000000000000009, 0.081355666666666673, 7.5333333333333333E-08, 11.44426642252232
DataValue, 1, 0.00514382, 3.3E-09, 7.0000000000000009, 0.085730333333333339, 5.5E-08, 11.521401002361895
DataValue, 1.05, 0.00540211, 3.79E-09, 7.0000000000000009, 0.090035166666666666, 6.316666666666667E-08, 11.508362743593697
DataValue, 1.1, 0.00566518, 4.04E-09, 7.0000000000000009, 0.094419666666666666, 6.7333333333333341E-08, 11.405976731807474
DataValue, 1.1500000000000001, 0.00592815, 3.5500000000000004E-09, 7.0000000000000009, 0.0988025, 5.9166666666666674E-08, 11.396011396011375
DataValue, 1.2, 0.00619168, 2.5540000000000002E-08, 7.0000000000000009, 0.10319466666666667, 4.2566666666666671E-07, 11.395145667945439
DataValue, 1.25, 0.00645469, 8.5900000000000011E-09, 7.0000000000000009, 0.10757816666666667, 1.4316666666666669E-07, 11.404242378164677
DataValue, 1.3, 0.0067178, 5.9600000000000009E-09, 7.0000000000000009, 0.11196333333333335, 9.9333333333333349E-08, 11.404675917126028
DataValue, 1.35, 0.00698079, 3.5200000000000003E-09, 7.0000000000000009, 0.1163465, 5.8666666666666676E-08, 11.411617026132623
DataValue, 1.4000000000000001, 0.00724358, 3.5200000000000003E-09, 7.0000000000000009, 0.12072633333333334, 5.8666666666666676E-08, 11.415090749971453
DataValue, 1.45, 0.00750641, 3.3300000000000003E-09, 7.0000000000000009, 0.12510683333333333, 5.5500000000000007E-08, 11.411399988588581
DataValue, 1.5, 0.00776937, 3.4400000000000005E-09, 7.0000000000000009, 0.1294895, 5.7333333333333344E-08, 11.418783899514709
DataValue, 1.55, 0.00803186, 2.96E-09, 7.0000000000000009, 0.13386433333333334, 4.9333333333333338E-08, 11.458034947006599
DataValue, 1.6, 0.00829302, 3.4300000000000004E-09, 7.00002, 0.138217, 5.7166666666666676E-08, 11.481935088793623
DataValue, 1.6500000000000001, 0.00855442, 3.4600000000000005E-09, 7.0000000000000009, 0.14257366666666668, 5.7666666666666674E-08, 11.48215481772079
DataValue, 1.7, 0.00881557, 2.7100000000000004E-09, 7.0000000000000009, 0.14692616666666666, 4.5166666666666674E-08, 11.589723778249953
DataValue, 1.75, 0.00907212, 5.23E-09, 7.0000000000000009, 0.151202, 8.7166666666666673E-08, 11.619350091018223
DataValue, 1.8, 0.00933195, 5.2200000000000006E-09, 7.0000000000000009, 0.15553250000000002, 8.7000000000000011E-08, 11.551790527531768
DataValue, 1.85, 0.0095915200000000009, 9.8800000000000015E-09, 7.0000000000000009, 0.15985866666666668, 1.6466666666666669E-07, 11.575860472295132
DataValue, 1.9000000000000001, 0.00985027, 1.0370000000000001E-08, 7.0000000000000009, 0.16417116666666667, 1.7283333333333337E-07, 11.601825353855649
DataValue, 1.95, 0.01010868, 4.65E-09, 7.00002, 0.16847800000000002, 7.7500000000000012E-08, 11.634671320535153
DataValue, 2, 0.01036597, 2.5400000000000003E-09, 7.0000000000000009, 0.17276616666666669, 4.2333333333333342E-08, 11.675650431026089
DataValue, 2.05, 0.01062257, 1.1990000000000002E-08, 7.0000000000000009, 0.17704283333333334, 1.9983333333333338E-07, 11.704119850187281
DataValue, 2.1, 0.01087861, 2.5400000000000003E-09, 7.0000000000000009, 0.18131016666666669, 4.2333333333333342E-08, 11.747660257665345
DataValue, 2.15, 0.01113331, 2.3200000000000003E-09, 7.0000000000000009, 0.18555516666666669, 3.8666666666666675E-08, 11.802659532614708
DataValue, 2.2, 0.01138697, 2.36E-09, 7.0000000000000009, 0.18978283333333335, 3.9333333333333335E-08, 11.558689244639696
DataValue, 2.25, 0.0116524, 2.89E-09, 7.0000000000000009, 0.19420666666666667, 4.8166666666666668E-08, 11.589052208680208
DataValue, 2.3000000000000003, 0.0119047, 2.3300000000000004E-09, 7.0000000000000009, 0.19841166666666668, 3.8833333333333344E-08, 11.907124429450247
DataValue, 2.35, 0.012156300000000002, 2.7800000000000003E-09, 7.0000000000000009, 0.20260500000000004, 4.6333333333333338E-08, 11.964107676969057
DataValue, 2.4, 0.012406200000000001, 3.13E-09, 7.0000000000000009, 0.20677, 5.2166666666666671E-08, 12.123661345726426
DataValue, 2.45, 0.012651200000000001, 2.82E-09, 7.0000000000000009, 0.21085333333333337, 4.7000000000000004E-08, 12.182741116751263
DataValue, 2.5, 0.0128987, 3.2900000000000004E-09, 7.0000000000000009, 0.21497833333333336, 5.4833333333333341E-08, 12.145748987854288
DataValue, 2.5500000000000003, 0.013145200000000001, 3.2900000000000004E-09, 7.0000000000000009, 0.21908666666666668, 5.4833333333333341E-08, 12.202562538133007
DataValue, 2.6, 0.013390400000000002, 5.4E-09, 7.0000000000000009, 0.22317333333333336, 9.0000000000000012E-08, 12.269938650306678
DataValue, 2.65, 0.0136342, 2.48E-09, 7.0000000000000009, 0.2272366666666667, 4.1333333333333339E-08, 12.32792274501745
DataValue, 2.7, 0.013877100000000002, 2.4200000000000003E-09, 7.0000000000000009, 0.23128500000000005, 4.0333333333333337E-08, 12.399256044637349
DataValue, 2.75, 0.014118100000000002, 2.3000000000000003E-09, 7.0000000000000009, 0.23530166666666669, 3.8333333333333339E-08, 12.471419663271698
DataValue, 2.8000000000000003, 0.014358200000000002, 2.21E-09, 7.0000000000000009, 0.23930333333333337, 3.6833333333333332E-08, 12.539184952978053
DataValue, 2.85, 0.014596600000000001, 2.1300000000000003E-09, 7.0000000000000009, 0.2432766666666667, 3.5500000000000007E-08, 12.615643397813246
DataValue, 2.9, 0.014833800000000001, 1.9600000000000003E-09, 7.0000000000000009, 0.24723000000000003, 3.2666666666666675E-08, 12.679628064243483
DataValue, 2.95, 0.015069800000000001, 2.14E-09, 7.0000000000000009, 0.25116333333333335, 3.5666666666666668E-08, 12.755102040816361
DataValue, 3, 0.015304200000000002, 2.12E-09, 7.0000000000000009, 0.25507, 3.5333333333333339E-08, 12.823252831801648
DataValue, 3.0500000000000003, 0.015537700000000002, 1.98E-09, 7.0000000000000009, 0.2589616666666667, 3.3000000000000004E-08, 12.914334911751979
DataValue, 3.1, 0.015768800000000003, 2.1500000000000002E-09, 7.0000000000000009, 0.2628133333333334, 3.5833333333333337E-08, 13.100436681222675
DataValue, 3.15, 0.0159957, 2.1600000000000004E-09, 7.0000000000000009, 0.266595, 3.6000000000000005E-08, 13.163668275559513
DataValue, 3.2, 0.016224600000000002, 2.0800000000000003E-09, 7.0000000000000009, 0.27041000000000004, 3.4666666666666673E-08, 13.181019332161664
DataValue, 3.25, 0.0164509, 2.4700000000000004E-09, 7.0000000000000009, 0.27418166666666671, 4.1166666666666671E-08, 13.268465280849149
DataValue, 3.3000000000000003, 0.016676800000000002, 2.29E-09, 7.0000000000000009, 0.27794666666666673, 3.8166666666666671E-08, 13.333333333333432
DataValue, 3.35, 0.0169009, 1.92E-09, 7.0000000000000009, 0.28168166666666666, 3.2E-08, 13.443871835088473
DataValue, 3.4, 0.017123100000000002, 3.1000000000000005E-09, 7.0000000000000009, 0.28538500000000006, 5.1666666666666679E-08, 13.547076089410597
DataValue, 3.45, 0.017343800000000003, 1.65E-09, 7.0000000000000009, 0.28906333333333339, 2.75E-08, 14.977533699450843
DataValue, 3.5, 0.017523700000000003, 3.1900000000000004E-09, 7.0000000000000009, 0.29206166666666672, 5.3166666666666673E-08, 15.052684395383855
DataValue, 3.5500000000000003, 0.017742400000000002, 9.1595800000000008E-05, 6.9999800000000008, 0.29570666666666673, 0.0015265966666666668, 13.821700069108529
DataValue, 3.6, 0.017957800000000003, 9.367320000000001E-05, 6.9999800000000008, 0.29929666666666671, 0.0015612200000000003, 13.950244129272322
DataValue, 3.65, 0.0181725, 9.5365400000000007E-05, 7.0000000000000009, 0.302875, 0.0015894233333333336, 14.137606032045278
DataValue, 3.7, 0.0183822, 9.3663E-05, 6.9999800000000008, 0.30637000000000003, 0.00156105, 14.258555133079897
DataValue, 3.75, 0.0185933, 9.48142E-05, 7.00004, 0.30988833333333332, 0.0015802366666666668, 14.245014245014204
DataValue, 3.8000000000000003, 0.0188034, 9.37732E-05, 7.0000000000000009, 0.31339000000000006, 0.0015628866666666666, 14.357501794687625
DataValue, 3.85, 0.019011200000000002, 9.23584E-05, 6.9999800000000008, 0.31685333333333338, 0.0015393066666666668, 14.475271411338877
DataValue, 3.9, 0.019217900000000003, 9.25611E-05, 6.9999800000000008, 0.32029833333333341, 0.001542685, 14.566642388929344
DataValue, 3.95, 0.019423100000000002, 9.17875E-05, 6.9999600000000006, 0.32371833333333339, 0.0015297916666666667, 14.763779527559146
DataValue, 4, 0.0196243, 9.24562E-05, 7.00002, 0.3270716666666667, 0.0015409366666666667, 14.87726258368464
DataValue, 4.05, 0.0198264, 9.28763E-05, 7.0000000000000009, 0.33044, 0.0015479383333333334, 14.910536779324065
DataValue, 4.1, 0.0200267, 9.22718E-05, 6.9999800000000008, 0.33377833333333334, 0.0015378633333333334, 15.079165619502387
DataValue, 4.15, 0.0202243, 9.0495200000000007E-05, 7.0000000000000009, 0.33707166666666671, 0.0015082533333333336, 15.21683996956633
DataValue, 4.2, 0.020421, 9.1013E-05, 7.00002, 0.34035000000000004, 0.0015168833333333335, 15.45595054095814
DataValue, 4.25, 0.020612500000000002, 9.1148E-05, 6.9999800000000008, 0.34354166666666675, 0.0015191333333333334, 15.600624024961013
DataValue, 4.3, 0.0208056, 8.8588E-05, 7.0000000000000009, 0.34676, 0.0014764666666666668, 15.645371577575144
DataValue, 4.3500000000000005, 0.020996, 8.86742E-05, 7.0000000000000009, 0.34993333333333337, 0.0014779033333333334, 15.789473684210551
DataValue, 4.4, 0.021185600000000002, 9.00931E-05, 7.00006, 0.35309333333333337, 0.0015015516666666668, 15.898251192368878
DataValue, 4.45, 0.0213734, 8.90257E-05, 7.00004, 0.35622333333333334, 0.0014837616666666669, 16.051364365971015
DataValue, 4.5, 0.021559400000000003, 8.7800600000000008E-05, 7.0000000000000009, 0.35932333333333338, 0.0014633433333333336, 16.207455429497344
DataValue, 4.55, 0.021743600000000002, 8.83126E-05, 6.9999800000000008, 0.3623933333333334, 0.0014718766666666668, 16.299918500407582
DataValue, 4.6000000000000005, 0.021927500000000003, 8.71277E-05, 7.0000000000000009, 0.36545833333333338, 0.0014521283333333334, 16.433853738701945
DataValue, 4.65, 0.022108700000000002, 8.6172E-05, 7.0000000000000009, 0.36847833333333335, 0.0014362, 16.643550624133077
DataValue, 4.7, 0.022288000000000002, 8.6722700000000009E-05, 6.9999800000000008, 0.37146666666666672, 0.0014453783333333336, 16.863406408094242
DataValue, 4.75, 0.022464500000000002, 8.52287E-05, 7.0000000000000009, 0.3744083333333334, 0.0014204783333333334, 17.196904557179767
DataValue, 4.8, 0.0226369, 8.64002E-05, 7.0000000000000009, 0.37728166666666668, 0.0014400033333333334, 17.266187050359886
DataValue, 4.8500000000000005, 0.022812000000000002, 8.70264E-05, 7.00002, 0.38020000000000004, 0.00145044, 17.216642754662853
DataValue, 4.9, 0.022985400000000003, 8.57814E-05, 7.0000000000000009, 0.38309000000000004, 0.00142969, 17.421602787456482
DataValue, 4.95, 0.0231564, 8.52377E-05, 7.0000000000000009, 0.38594, 0.0014206283333333335, 17.584994138335205
DataValue, 5, 0.023326600000000003, 8.5075600000000009E-05, 6.9999800000000008, 0.38877666666666671, 0.0014179266666666669, 17.751479289940622
DataValue, 5.05, 0.023494400000000002, 8.45635E-05, 7.00002, 0.39157333333333338, 0.0014093916666666668, 18.05054151624562
DataValue, 5.1000000000000005, 0.023659000000000003, 8.3996E-05, 7.0000000000000009, 0.3943166666666667, 0.0013999333333333333, 18.203883495145856
