
SetupTitle, Output
PrimitiveTest, I/V Sweep
TestParameter, Context.MainFrame, B1500A
TestParameter, Channel.UnitType, SMU, SMU, SMU
TestParameter, Channel.Unit, SMU1:MP, SMU2:MC, GNDU:GND
TestParameter, Channel.IName, Id, Ig, Is
TestParameter, Channel.VName, Vd, Vg, Vs
TestParameter, Channel.Mode, V, V, COMMON
TestParameter, Channel.Func, VAR1, CONST, CONST
TestParameter, Channel.Index, 
TestParameter, Channel.Time, 
TestParameter, Measurement.Port.Unit, SMU1:MP, SMU2:MC, GNDU:GND
TestParameter, Measurement.Port.SeriesResistor, NONE, NONE, NONE
TestParameter, Measurement.Port.Filter, ON, ON, ON
TestParameter, Measurement.Port.OutputVoltageComparison, 0, 0, 0
TestParameter, Measurement.Primary.Locus, Single
TestParameter, Measurement.Primary.Scale, LINEAR
TestParameter, Measurement.Primary.Start, 0
TestParameter, Measurement.Primary.Stop, 10
TestParameter, Measurement.Primary.Step, 0.05
TestParameter, Measurement.Primary.Compliance, 0.1
TestParameter, Measurement.Primary.PowerCompliance, 0
TestParameter, Measurement.Aborting.Condition, CONTINUE AT ANY
TestParameter, Measurement.PostOutput.Value, START
TestParameter, Measurement.PostOutput.Retention, OFF
TestParameter, Measurement.Bias.Source, 0, 7.0000000000000009, 0
TestParameter, Measurement.Bias.Compliance, 0.1, 0.0001, 2
TestParameter, Measurement.Monitor.Unit, SMU1:MP, SMU2:MC, GNDU:GND
TestParameter, Measurement.Monitor.Adc, HR ADC, HS ADC, HR ADC
TestParameter, Measurement.Monitor.Measurement, Compliance Side, Force and Compliance Sides, Compliance Side
TestParameter, Measurement.Monitor.RangingMode, LIMITED, LIMITED, LIMITED
TestParameter, Measurement.Monitor.RangeBoundary, 1nA, 10uA, 1nA
TestParameter, Measurement.Monitor.RangeRating, BY FULL RANGE, BY FULL RANGE, BY FULL RANGE
TestParameter, Measurement.Monitor.RangeRatingCoeff, 50, 50, 50
TestParameter, Measurement.Timing.Hold, 0
TestParameter, Measurement.Timing.Delay, 0
TestParameter, Measurement.Adc.HighSpeed.Mode, AUTO
TestParameter, Measurement.Adc.HighSpeed.Coeff, 1
TestParameter, Measurement.Adc.HighResolution.AutoZero, OFF
TestParameter, Measurement.Adc.HighResolution.Mode, PLC
TestParameter, Measurement.Adc.HighResolution.Coeff, 1
TestParameter, Measurement.WaitTime.Source.Coeff, 1
TestParameter, Measurement.WaitTime.Source.Offset, 0
TestParameter, Measurement.WaitTime.Monitor.Coeff, 1
TestParameter, Measurement.WaitTime.Monitor.Offset, 0
TestParameter, Function.User.Name, Id_dens, Ig_dens, Ron
TestParameter, Function.User.Unit, A/mm, A/mm, Ohm/mm
TestParameter, Function.User.Definition, Id/0.06, abs(Ig)/0.06, diff(Vd,Id_dens)
TestParameter, Output.Graph.Enabled, true
TestParameter, Output.Graph.AutoScaling, false
TestParameter, Output.Graph.XAxis.Data, Vd
TestParameter, Output.Graph.XAxis.Scale, Linear
TestParameter, Output.Graph.XAxis.Left, 0
TestParameter, Output.Graph.XAxis.Right, 6
TestParameter, Output.Graph.XAxis.RunTimeAutoScale, false
TestParameter, Output.Graph.YAxis.Data, Id_dens, Ron
TestParameter, Output.Graph.YAxis.Scale, Linear, Linear
TestParameter, Output.Graph.YAxis.Bottom, 0, 0
TestParameter, Output.Graph.YAxis.Top, 0.30000000000000004, 1
TestParameter, Output.Graph.YAxis.Group, , 
TestParameter, Output.Graph.YAxis.RunTimeAutoScale, false, false
TestParameter, Output.List.Data, Vd, Id_dens, Ig_dens, Vg, Ron
TestParameter, AutoAnalysis.Interpolation, false
TestParameter, AutoAnalysis.Line1.Enabled, false
TestParameter, AutoAnalysis.Line1.Type, 1
TestParameter, AutoAnalysis.Line1.Fix, True
TestParameter, AutoAnalysis.Line1.YAxis, 0
TestParameter, AutoAnalysis.Line1.Point1.Type, 0
TestParameter, AutoAnalysis.Line1.Point1.XY.X, 
TestParameter, AutoAnalysis.Line1.Point1.XY.Y, 
TestParameter, AutoAnalysis.Line1.Point1.Data.Var, 
TestParameter, AutoAnalysis.Line1.Point1.Data.Condition, 
TestParameter, AutoAnalysis.Line1.Point1.Data.Start, false
TestParameter, AutoAnalysis.Line1.Point1.Data.StartVar, 
TestParameter, AutoAnalysis.Line1.Point1.Data.StartCondition, 
TestParameter, AutoAnalysis.Line1.Point2.Type, 0
TestParameter, AutoAnalysis.Line1.Point2.XY.X, 
TestParameter, AutoAnalysis.Line1.Point2.XY.Y, 
TestParameter, AutoAnalysis.Line1.Point2.Data.Var, 
TestParameter, AutoAnalysis.Line1.Point2.Data.Condition, 
TestParameter, AutoAnalysis.Line1.Point2.Data.Start, false
TestParameter, AutoAnalysis.Line1.Point2.Data.StartVar, 
TestParameter, AutoAnalysis.Line1.Point2.Data.StartCondition, 
TestParameter, AutoAnalysis.Line1.GradientExpr, 0
TestParameter, AutoAnalysis.Line2.Enabled, false
TestParameter, AutoAnalysis.Line2.Type, 1
TestParameter, AutoAnalysis.Line2.Fix, True
TestParameter, AutoAnalysis.Line2.YAxis, 0
TestParameter, AutoAnalysis.Line2.Point1.Type, 0
TestParameter, AutoAnalysis.Line2.Point1.XY.X, 
TestParameter, AutoAnalysis.Line2.Point1.XY.Y, 
TestParameter, AutoAnalysis.Line2.Point1.Data.Var, 
TestParameter, AutoAnalysis.Line2.Point1.Data.Condition, 
TestParameter, AutoAnalysis.Line2.Point1.Data.Start, false
TestParameter, AutoAnalysis.Line2.Point1.Data.StartVar, 
TestParameter, AutoAnalysis.Line2.Point1.Data.StartCondition, 
TestParameter, AutoAnalysis.Line2.Point2.Type, 0
TestParameter, AutoAnalysis.Line2.Point2.XY.X, 
TestParameter, AutoAnalysis.Line2.Point2.XY.Y, 
TestParameter, AutoAnalysis.Line2.Point2.Data.Var, 
TestParameter, AutoAnalysis.Line2.Point2.Data.Condition, 
TestParameter, AutoAnalysis.Line2.Point2.Data.Start, false
TestParameter, AutoAnalysis.Line2.Point2.Data.StartVar, 
TestParameter, AutoAnalysis.Line2.Point2.Data.StartCondition, 
TestParameter, AutoAnalysis.Line2.GradientExpr, 0
TestParameter, AutoAnalysis.Marker.Enabled, false
TestParameter, AutoAnalysis.Marker.Data.Var, 
TestParameter, AutoAnalysis.Marker.Data.Condition, 
TestParameter, AutoAnalysis.Marker.Data.Start, false
TestParameter, AutoAnalysis.Marker.Data.StartVar, 
TestParameter, AutoAnalysis.Marker.Data.StartCondition, 
MetaData, TestRecord.EntryPoint, true
MetaData, TestRecord.RecordTime, 08/14/2019 13:48:42
MetaData, TestRecord.TestTarget, 
MetaData, TestRecord.IterationIndex, 1
MetaData, TestRecord.Preservation, true
MetaData, TestRecord.Flag, #
MetaData, TestRecord.Remarks, #188_F_implant_5nm_cap_die2_r4c3_W200_S70
MetaData, TestRecord.LinkKey, 75af6dee-c1cd-432b-85a2-60726ba4c4dd
Dimension1, 201, 201, 201, 201, 201, 201, 201
Dimension2, 1, 1, 1, 1, 1, 1, 1
DataName, Vd, Id, Ig, Vg, Id_dens, Ig_dens, Ron
DataValue, 0, -2.12143E-06, 6.1000000000000006E-10, 7.0000000000000009, -3.5357166666666667E-05, 1.0166666666666668E-08, 7.7449649144053581
DataValue, 0.05, 0.00038522700000000003, 1.0000000000000001E-11, 7.0000000000000009, 0.0064204500000000012, 1.6666666666666669E-10, 7.7509623045770866
DataValue, 0.1, 0.00077197600000000006, 4.8E-10, 7.0000000000000009, 0.012866266666666668, 8E-09, 7.7598281456726674
DataValue, 0.15, 0.00115844, -3.6000000000000005E-10, 7.0000000000000009, 0.019307333333333333, 6.0000000000000008E-09, 7.7615245703996161
DataValue, 0.2, 0.00154502, 2.4E-10, 7.0000000000000009, 0.025750333333333333, 4E-09, 7.7660855046014046
DataValue, 0.25, 0.00193103, -2.7000000000000005E-10, 7.0000000000000009, 0.032183833333333335, 4.5000000000000006E-09, 7.7672919336673232
DataValue, 0.3, 0.00231749, 8.0000000000000008E-11, 7.0000000000000009, 0.038624833333333337, 1.3333333333333335E-09, 7.7637742294454055
DataValue, 0.35000000000000003, 0.0027038500000000003, 1.0000000000000001E-11, 7.0000000000000009, 0.045064166666666676, 1.6666666666666669E-10, 7.7596575404472183
DataValue, 0.4, 0.00309072, -1.5000000000000003E-10, 7.0000000000000009, 0.051512, 2.5000000000000005E-09, 7.8275844074518632
DataValue, 0.45, 0.00347037, 1.1000000000000001E-10, 7.0000000000000009, 0.0578395, 1.8333333333333336E-09, 7.8355577611199605
DataValue, 0.5, 0.00385646, -1.5000000000000003E-10, 7.0000000000000009, 0.064274333333333336, 2.5000000000000005E-09, 7.7818993022230289
DataValue, 0.55, 0.00424139, 2.0000000000000002E-11, 7.0000000000000009, 0.070689833333333341, 3.3333333333333337E-10, 7.7919042115242227
DataValue, 0.6, 0.0046264900000000005, -8.0000000000000008E-11, 7.0000000000000009, 0.077108166666666672, 1.3333333333333335E-09, 7.8050811078011773
DataValue, 0.65, 0.00501012, -2.1000000000000002E-10, 7.0000000000000009, 0.083502, 3.5000000000000007E-09, 7.8161638267938169
DataValue, 0.70000000000000007, 0.0053941300000000005, -4.0000000000000007E-10, 7.0000000000000009, 0.089902166666666672, 6.6666666666666676E-09, 7.8279929026197728
DataValue, 0.75, 0.0057766, 2.3000000000000003E-10, 7.0000000000000009, 0.096276666666666663, 3.8333333333333337E-09, 7.8493962506050607
DataValue, 0.8, 0.00615852, -4.4000000000000003E-10, 7.00002, 0.102642, 7.3333333333333345E-09, 7.8776340838967975
DataValue, 0.85, 0.00653825, -3E-11, 7.0000000000000009, 0.10897083333333334, 5E-10, 7.9077429983525374
DataValue, 0.9, 0.0069172700000000005, 3.5000000000000003E-10, 7.0000000000000009, 0.11528783333333335, 5.8333333333333343E-09, 7.9326255668522077
DataValue, 0.95000000000000007, 0.00729462, -5.6E-10, 7.0000000000000009, 0.121577, 9.3333333333333342E-09, 7.9677042388186523
DataValue, 1, 0.0076703100000000005, -6E-11, 7.0000000000000009, 0.12783850000000002, 1E-09, 8.0100392491923014
DataValue, 1.05, 0.008043680000000001, 2.0000000000000003E-10, 7.0000000000000009, 0.13406133333333337, 3.3333333333333338E-09, 8.0493694660585113
DataValue, 1.1, 0.00841571, -3.5000000000000003E-10, 7.0000000000000009, 0.14026183333333334, 5.8333333333333343E-09, 8.1439856665852446
DataValue, 1.1500000000000001, 0.00878042, -1.0000000000000002E-10, 7.0000000000000009, 0.14634033333333335, 1.6666666666666669E-09, 8.1763920307432354
DataValue, 1.2, 0.00914953, 9.0000000000000012E-11, 7.0000000000000009, 0.15249216666666665, 1.5000000000000002E-09, 8.1663763066202
DataValue, 1.25, 0.00951514, -1.5000000000000003E-10, 7.0000000000000009, 0.15858566666666668, 2.5000000000000005E-09, 8.2223318533135838
DataValue, 1.3, 0.0098792500000000009, -1.9000000000000002E-10, 7.0000000000000009, 0.16465416666666669, 3.1666666666666669E-09, 8.2772320935879122
DataValue, 1.35, 0.01024002, -1.4E-10, 7.0000000000000009, 0.170667, 2.3333333333333335E-09, 8.345387782352292
DataValue, 1.4000000000000001, 0.01059821, -2.8E-10, 6.9999800000000008, 0.17663683333333335, 4.6666666666666671E-09, 8.4117259459686657
DataValue, 1.45, 0.01095331, 2.0000000000000002E-11, 7.00002, 0.18255516666666669, 3.3333333333333337E-10, 8.4674005080440278
DataValue, 1.5, 0.01130681, -1.1000000000000001E-10, 7.0000000000000009, 0.18844683333333334, 1.8333333333333336E-09, 8.3776651447241619
DataValue, 1.55, 0.011669500000000001, -4.1000000000000003E-10, 7.0000000000000009, 0.1944916666666667, 6.8333333333333341E-09, 8.4663251915505935
DataValue, 1.6, 0.012015500000000002, -2.0000000000000003E-10, 7.0000000000000009, 0.20025833333333337, 3.3333333333333338E-09, 8.69313242538395
DataValue, 1.6500000000000001, 0.012359700000000001, 3.2000000000000003E-10, 7.0000000000000009, 0.20599500000000004, 5.3333333333333339E-09, 8.7463556851311921
DataValue, 1.7, 0.012701500000000001, -4.3000000000000007E-10, 7.0000000000000009, 0.2116916666666667, 7.166666666666668E-09, 8.8209350191120173
DataValue, 1.75, 0.013039900000000002, -6E-11, 7.0000000000000009, 0.2173316666666667, 1E-09, 8.9806915132465459
DataValue, 1.8, 0.0133696, 1.6000000000000002E-10, 7.0000000000000009, 0.22282666666666667, 2.666666666666667E-09, 9.0634441087613329
DataValue, 1.85, 0.013701900000000001, -4.2000000000000005E-10, 7.0000000000000009, 0.22836500000000004, 7.0000000000000015E-09, 9.060706735125347
DataValue, 1.9000000000000001, 0.0140318, -5.0000000000000008E-11, 7.0000000000000009, 0.23386333333333334, 8.3333333333333345E-10, 9.1407678244972637
DataValue, 1.95, 0.014358300000000001, 3E-11, 7.0000000000000009, 0.23930500000000002, 5E-10, 9.2378752886835649
DataValue, 2, 0.014681300000000001, -7E-11, 7.0000000000000009, 0.24468833333333337, 1.1666666666666668E-09, 9.3196644920782816
DataValue, 2.05, 0.0150021, -1.2E-10, 7.0000000000000009, 0.250035, 2E-09, 9.4014415543716883
DataValue, 2.1, 0.015319500000000002, -1.0000000000000002E-10, 7.0000000000000009, 0.255325, 1.6666666666666669E-09, 9.516256938937353
DataValue, 2.15, 0.0156326, 1.0000000000000001E-11, 7.0000000000000009, 0.26054333333333335, 1.6666666666666669E-10, 9.6138439352667646
DataValue, 2.2, 0.015943600000000002, -9.0000000000000012E-11, 7.00002, 0.26572666666666672, 1.5000000000000002E-09, 9.6961861667743516
DataValue, 2.25, 0.016251400000000003, -2.5E-10, 7.0000000000000009, 0.27085666666666675, 4.1666666666666668E-09, 9.8151480451497228
DataValue, 2.3000000000000003, 0.0165549, -1.0000000000000001E-11, 7.0000000000000009, 0.275915, 1.6666666666666669E-10, 9.9026241954118053
DataValue, 2.35, 0.016857300000000002, 1.3000000000000002E-10, 7.0000000000000009, 0.28095500000000007, 2.166666666666667E-09, 9.9933377748167569
DataValue, 2.4, 0.017155300000000002, -4.0000000000000007E-10, 7.0000000000000009, 0.28592166666666669, 6.6666666666666676E-09, 10.124873439082043
DataValue, 2.45, 0.0174499, 2.0000000000000002E-11, 7.0000000000000009, 0.29083166666666671, 3.3333333333333337E-10, 10.307507301151016
DataValue, 2.5, 0.0177374, 4.3000000000000007E-10, 7.00002, 0.29562333333333335, 7.166666666666668E-09, 10.443864229765023
DataValue, 2.5500000000000003, 0.018024400000000003, -5.8000000000000007E-10, 7.0000000000000009, 0.30040666666666671, 9.6666666666666689E-09, 10.463899546564312
DataValue, 2.6, 0.018310800000000002, -5.0000000000000008E-11, 7.0000000000000009, 0.30518000000000006, 8.3333333333333345E-10, 10.539258738802014
DataValue, 2.65, 0.0185937, 4.0000000000000007E-10, 7.0000000000000009, 0.30989500000000003, 6.6666666666666676E-09, 10.664770707429826
DataValue, 2.7, 0.018873400000000002, -2.6000000000000003E-10, 7.0000000000000009, 0.31455666666666671, 4.3333333333333341E-09, 10.7894263621651
DataValue, 2.75, 0.0191498, -3E-11, 7.0000000000000009, 0.31916333333333335, 5E-10, 10.958904109589058
DataValue, 2.8000000000000003, 0.0194209, 1.3000000000000002E-10, 7.0000000000000009, 0.3236816666666667, 2.166666666666667E-09, 11.05786951713969
DataValue, 2.85, 0.019692400000000002, -5.3E-10, 7.0000000000000009, 0.3282066666666667, 8.8333333333333347E-09, 11.119347664936926
DataValue, 2.9, 0.019960500000000003, -1.6000000000000002E-10, 7.0000000000000009, 0.33267500000000005, 2.666666666666667E-09, 11.267605633802869
DataValue, 2.95, 0.0202249, -3E-11, 7.0000000000000009, 0.33708166666666667, 5E-10, 11.448196908986855
DataValue, 3, 0.020484600000000002, -1.5000000000000003E-10, 7.0000000000000009, 0.34141000000000005, 2.5000000000000005E-09, 11.583011583011528
DataValue, 3.0500000000000003, 0.0207429, 0, 7.0000000000000009, 0.34571500000000005, 0, 11.62565394303437
DataValue, 3.1, 0.0210007, -1.9000000000000002E-10, 7.0000000000000009, 0.35001166666666667, 3.1666666666666669E-09, 11.750881316098718
DataValue, 3.15, 0.0212535, -2.7000000000000005E-10, 7.0000000000000009, 0.354225, 4.5000000000000006E-09, 11.980830670926446
DataValue, 3.2, 0.021501500000000003, -5.0000000000000008E-11, 7.0000000000000009, 0.35835833333333339, 8.3333333333333345E-10, 12.126111560226345
DataValue, 3.25, 0.0217483, -3.1E-10, 7.0000000000000009, 0.36247166666666669, 5.1666666666666674E-09, 12.229922543823985
DataValue, 3.3000000000000003, 0.0219921, -3.0000000000000005E-10, 7.0000000000000009, 0.366535, 5.0000000000000009E-09, 12.322858903265509
DataValue, 3.35, 0.022235200000000004, 1.7E-10, 7.0000000000000009, 0.37058666666666673, 2.8333333333333335E-09, 12.432656444260193
DataValue, 3.4, 0.0224747, -4.1000000000000003E-10, 7.0000000000000009, 0.37457833333333335, 6.8333333333333341E-09, 12.599748005039942
DataValue, 3.45, 0.022711400000000003, -1.5000000000000003E-10, 7.0000000000000009, 0.37852333333333338, 2.5000000000000005E-09, 12.790449797484584
DataValue, 3.5, 0.0229438, 4.2000000000000005E-10, 7.0000000000000009, 0.38239666666666666, 7.0000000000000015E-09, 12.942191544434881
DataValue, 3.5500000000000003, 0.023175, -3.7E-10, 7.0000000000000009, 0.38625000000000004, 6.1666666666666673E-09, 13.012361743656395
DataValue, 3.6, 0.023404900000000003, -1.3000000000000002E-10, 7.0000000000000009, 0.39008166666666672, 2.166666666666667E-09, 13.163668275559454
DataValue, 3.65, 0.0236308, 3.5000000000000003E-10, 7.0000000000000009, 0.39384666666666668, 5.8333333333333343E-09, 13.345195729537444
DataValue, 3.7, 0.0238545, -4.3000000000000007E-10, 7.0000000000000009, 0.397575, 7.166666666666668E-09, 13.55013550135503
DataValue, 3.75, 0.0240736, -5.0000000000000008E-11, 7.0000000000000009, 0.40122666666666668, 8.3333333333333345E-10, 13.69863013698626
DataValue, 3.8000000000000003, 0.0242925, 2.1000000000000002E-10, 7.0000000000000009, 0.40487500000000004, 3.5000000000000007E-09, 13.761467889908207
DataValue, 3.85, 0.024509600000000003, -4.4000000000000003E-10, 7.0000000000000009, 0.40849333333333337, 7.3333333333333345E-09, 13.914656771799564
DataValue, 3.9, 0.0247237, -9.0000000000000012E-11, 7.0000000000000009, 0.41206166666666671, 1.5000000000000002E-09, 14.087814040854594
DataValue, 3.95, 0.024935500000000003, 2.5E-10, 7.0000000000000009, 0.41559166666666675, 4.1666666666666668E-09, 14.312977099236592
DataValue, 4, 0.025142900000000003, -2.8E-10, 7.0000000000000009, 0.41904833333333341, 4.6666666666666671E-09, 14.471780028943568
DataValue, 4.05, 0.025350100000000004, 0, 7.00002, 0.42250166666666672, 0, 14.609203798392958
DataValue, 4.1, 0.025553600000000003, -1.6000000000000002E-10, 7.0000000000000009, 0.4258933333333334, 2.666666666666667E-09, 14.763779527559212
DataValue, 4.15, 0.0257565, -2.4E-10, 7.0000000000000009, 0.429275, 4E-09, 14.88833746898275
DataValue, 4.2, 0.025956600000000003, 1.4E-10, 7.0000000000000009, 0.43261000000000005, 2.3333333333333335E-09, 15.094339622641348
DataValue, 4.25, 0.026154000000000004, -1.1000000000000001E-10, 7.0000000000000009, 0.43590000000000007, 1.8333333333333336E-09, 15.499870834409737
DataValue, 4.3, 0.0263437, -8.0000000000000008E-11, 7.0000000000000009, 0.43906166666666668, 1.3333333333333335E-09, 15.719151165837159
DataValue, 4.3500000000000005, 0.026535700000000002, 8.0000000000000008E-11, 7.0000000000000009, 0.44226166666666672, 1.3333333333333335E-09, 15.710919088766753
DataValue, 4.4, 0.026725600000000002, -3.8000000000000003E-10, 7.0000000000000009, 0.44542666666666669, 6.3333333333333338E-09, 15.789473684210549
DataValue, 4.45, 0.0269157, -1.9000000000000002E-10, 7.0000000000000009, 0.448595, 3.1666666666666669E-09, 15.906680805938308
DataValue, 4.5, 0.027102800000000003, 1.4E-10, 7.0000000000000009, 0.45171333333333341, 2.3333333333333335E-09, 16.339869281045655
DataValue, 4.55, 0.027282900000000002, -2.6000000000000003E-10, 7.0000000000000009, 0.45471500000000004, 4.3333333333333341E-09, 16.727069974909554
DataValue, 4.6000000000000005, 0.027461500000000003, -2.3000000000000003E-10, 7.0000000000000009, 0.45769166666666672, 3.8333333333333337E-09, 16.783216783216844
DataValue, 4.65, 0.027640400000000002, 4.1000000000000003E-10, 7.0000000000000009, 0.46067333333333338, 6.8333333333333341E-09, 16.825574873808065
DataValue, 4.7, 0.027818100000000002, -3.4E-10, 7.0000000000000009, 0.46363500000000007, 5.666666666666667E-09, 17.231476163124597
DataValue, 4.75, 0.027988600000000002, -3.5000000000000003E-10, 7.0000000000000009, 0.46647666666666671, 5.8333333333333343E-09, 17.543859649122798
DataValue, 4.8, 0.028160100000000004, 3.1E-10, 7.0000000000000009, 0.46933500000000006, 5.1666666666666674E-09, 17.783046828689965
DataValue, 4.8500000000000005, 0.028326000000000004, -5.2000000000000007E-10, 7.0000000000000009, 0.47210000000000008, 8.6666666666666682E-09, 18.050541516245438
DataValue, 4.9, 0.028492500000000004, -5.0000000000000008E-11, 7.0000000000000009, 0.4748750000000001, 8.3333333333333345E-10, 18.220467658669893
DataValue, 4.95, 0.0286553, 2.0000000000000003E-10, 7.0000000000000009, 0.47758833333333339, 3.3333333333333338E-09, 18.495684340320704
