
SetupTitle, Output
PrimitiveTest, I/V Sweep
TestParameter, Context.MainFrame, B1500A
TestParameter, Channel.UnitType, SMU, SMU, SMU
TestParameter, Channel.Unit, SMU1:MP, SMU2:MC, GNDU:GND
TestParameter, Channel.IName, Id, Ig, Is
TestParameter, Channel.VName, Vd, Vg, Vs
TestParameter, Channel.Mode, V, V, COMMON
TestParameter, Channel.Func, VAR1, CONST, CONST
TestParameter, Channel.Index, 
TestParameter, Channel.Time, 
TestParameter, Measurement.Port.Unit, SMU1:MP, SMU2:MC, GNDU:GND
TestParameter, Measurement.Port.SeriesResistor, NONE, NONE, NONE
TestParameter, Measurement.Port.Filter, ON, ON, ON
TestParameter, Measurement.Port.OutputVoltageComparison, 0, 0, 0
TestParameter, Measurement.Primary.Locus, Single
TestParameter, Measurement.Primary.Scale, LINEAR
TestParameter, Measurement.Primary.Start, 0
TestParameter, Measurement.Primary.Stop, 10
TestParameter, Measurement.Primary.Step, 0.05
TestParameter, Measurement.Primary.Compliance, 0.1
TestParameter, Measurement.Primary.PowerCompliance, 0
TestParameter, Measurement.Aborting.Condition, CONTINUE AT ANY
TestParameter, Measurement.PostOutput.Value, START
TestParameter, Measurement.PostOutput.Retention, OFF
TestParameter, Measurement.Bias.Source, 0, 7.0000000000000009, 0
TestParameter, Measurement.Bias.Compliance, 0.1, 0.0001, 2
TestParameter, Measurement.Monitor.Unit, SMU1:MP, SMU2:MC, GNDU:GND
TestParameter, Measurement.Monitor.Adc, HR ADC, HS ADC, HR ADC
TestParameter, Measurement.Monitor.Measurement, Compliance Side, Force and Compliance Sides, Compliance Side
TestParameter, Measurement.Monitor.RangingMode, LIMITED, LIMITED, LIMITED
TestParameter, Measurement.Monitor.RangeBoundary, 1nA, 10uA, 1nA
TestParameter, Measurement.Monitor.RangeRating, BY FULL RANGE, BY FULL RANGE, BY FULL RANGE
TestParameter, Measurement.Monitor.RangeRatingCoeff, 50, 50, 50
TestParameter, Measurement.Timing.Hold, 0
TestParameter, Measurement.Timing.Delay, 0
TestParameter, Measurement.Adc.HighSpeed.Mode, AUTO
TestParameter, Measurement.Adc.HighSpeed.Coeff, 1
TestParameter, Measurement.Adc.HighResolution.AutoZero, OFF
TestParameter, Measurement.Adc.HighResolution.Mode, PLC
TestParameter, Measurement.Adc.HighResolution.Coeff, 1
TestParameter, Measurement.WaitTime.Source.Coeff, 1
TestParameter, Measurement.WaitTime.Source.Offset, 0
TestParameter, Measurement.WaitTime.Monitor.Coeff, 1
TestParameter, Measurement.WaitTime.Monitor.Offset, 0
TestParameter, Function.User.Name, Id_dens, Ig_dens, Ron
TestParameter, Function.User.Unit, A/mm, A/mm, Ohm/mm
TestParameter, Function.User.Definition, Id/0.06, abs(Ig)/0.06, diff(Vd,Id_dens)
TestParameter, Output.Graph.Enabled, true
TestParameter, Output.Graph.AutoScaling, false
TestParameter, Output.Graph.XAxis.Data, Vd
TestParameter, Output.Graph.XAxis.Scale, Linear
TestParameter, Output.Graph.XAxis.Left, 0
TestParameter, Output.Graph.XAxis.Right, 6
TestParameter, Output.Graph.XAxis.RunTimeAutoScale, false
TestParameter, Output.Graph.YAxis.Data, Id_dens, Ron
TestParameter, Output.Graph.YAxis.Scale, Linear, Linear
TestParameter, Output.Graph.YAxis.Bottom, 0, 0
TestParameter, Output.Graph.YAxis.Top, 0.30000000000000004, 1
TestParameter, Output.Graph.YAxis.Group, , 
TestParameter, Output.Graph.YAxis.RunTimeAutoScale, false, false
TestParameter, Output.List.Data, Vd, Id_dens, Ig_dens, Vg, Ron
TestParameter, AutoAnalysis.Interpolation, false
TestParameter, AutoAnalysis.Line1.Enabled, false
TestParameter, AutoAnalysis.Line1.Type, 1
TestParameter, AutoAnalysis.Line1.Fix, True
TestParameter, AutoAnalysis.Line1.YAxis, 0
TestParameter, AutoAnalysis.Line1.Point1.Type, 0
TestParameter, AutoAnalysis.Line1.Point1.XY.X, 
TestParameter, AutoAnalysis.Line1.Point1.XY.Y, 
TestParameter, AutoAnalysis.Line1.Point1.Data.Var, 
TestParameter, AutoAnalysis.Line1.Point1.Data.Condition, 
TestParameter, AutoAnalysis.Line1.Point1.Data.Start, false
TestParameter, AutoAnalysis.Line1.Point1.Data.StartVar, 
TestParameter, AutoAnalysis.Line1.Point1.Data.StartCondition, 
TestParameter, AutoAnalysis.Line1.Point2.Type, 0
TestParameter, AutoAnalysis.Line1.Point2.XY.X, 
TestParameter, AutoAnalysis.Line1.Point2.XY.Y, 
TestParameter, AutoAnalysis.Line1.Point2.Data.Var, 
TestParameter, AutoAnalysis.Line1.Point2.Data.Condition, 
TestParameter, AutoAnalysis.Line1.Point2.Data.Start, false
TestParameter, AutoAnalysis.Line1.Point2.Data.StartVar, 
TestParameter, AutoAnalysis.Line1.Point2.Data.StartCondition, 
TestParameter, AutoAnalysis.Line1.GradientExpr, 0
TestParameter, AutoAnalysis.Line2.Enabled, false
TestParameter, AutoAnalysis.Line2.Type, 1
TestParameter, AutoAnalysis.Line2.Fix, True
TestParameter, AutoAnalysis.Line2.YAxis, 0
TestParameter, AutoAnalysis.Line2.Point1.Type, 0
TestParameter, AutoAnalysis.Line2.Point1.XY.X, 
TestParameter, AutoAnalysis.Line2.Point1.XY.Y, 
TestParameter, AutoAnalysis.Line2.Point1.Data.Var, 
TestParameter, AutoAnalysis.Line2.Point1.Data.Condition, 
TestParameter, AutoAnalysis.Line2.Point1.Data.Start, false
TestParameter, AutoAnalysis.Line2.Point1.Data.StartVar, 
TestParameter, AutoAnalysis.Line2.Point1.Data.StartCondition, 
TestParameter, AutoAnalysis.Line2.Point2.Type, 0
TestParameter, AutoAnalysis.Line2.Point2.XY.X, 
TestParameter, AutoAnalysis.Line2.Point2.XY.Y, 
TestParameter, AutoAnalysis.Line2.Point2.Data.Var, 
TestParameter, AutoAnalysis.Line2.Point2.Data.Condition, 
TestParameter, AutoAnalysis.Line2.Point2.Data.Start, false
TestParameter, AutoAnalysis.Line2.Point2.Data.StartVar, 
TestParameter, AutoAnalysis.Line2.Point2.Data.StartCondition, 
TestParameter, AutoAnalysis.Line2.GradientExpr, 0
TestParameter, AutoAnalysis.Marker.Enabled, false
TestParameter, AutoAnalysis.Marker.Data.Var, 
TestParameter, AutoAnalysis.Marker.Data.Condition, 
TestParameter, AutoAnalysis.Marker.Data.Start, false
TestParameter, AutoAnalysis.Marker.Data.StartVar, 
TestParameter, AutoAnalysis.Marker.Data.StartCondition, 
MetaData, TestRecord.EntryPoint, true
MetaData, TestRecord.RecordTime, 08/16/2019 16:02:30
MetaData, TestRecord.TestTarget, 
MetaData, TestRecord.IterationIndex, 1
MetaData, TestRecord.Preservation, true
MetaData, TestRecord.Flag, #
MetaData, TestRecord.Remarks, #172_LPCVD_trigate_die1_r2c4_Pl_lgd15
MetaData, TestRecord.LinkKey, 1d0ecd60-1631-4fc4-a99e-afcc2d1dd83c
Dimension1, 201, 201, 201, 201, 201, 201, 201
Dimension2, 1, 1, 1, 1, 1, 1, 1
DataName, Vd, Id, Ig, Vg, Id_dens, Ig_dens, Ron
DataValue, 0, -5.23936E-07, 8.5700000000000016E-09, 7.0000000000000009, -8.7322666666666677E-06, 1.4283333333333336E-07, 21.330309396991019
DataValue, 0.05, 0.000140121, 6.84E-09, 7.0000000000000009, 0.00233535, 1.1400000000000002E-07, 21.291927744736018
DataValue, 0.1, 0.000281273, 6.77E-09, 7.0000000000000009, 0.0046878833333333335, 1.1283333333333334E-07, 21.20868283475254
DataValue, 0.15, 0.00042302400000000003, 6.74E-09, 7.0000000000000009, 0.0070504000000000009, 1.1233333333333335E-07, 21.114344733906464
DataValue, 0.2, 0.00056544000000000006, 6.7900000000000007E-09, 7.0000000000000009, 0.0094240000000000018, 1.1316666666666668E-07, 21.02504082362093
DataValue, 0.25, 0.00070839800000000006, 6.2800000000000006E-09, 7.0000000000000009, 0.011806633333333335, 1.0466666666666668E-07, 20.923566212625275
DataValue, 0.3, 0.00085219800000000008, 6.300000000000001E-09, 7.0000000000000009, 0.014203300000000002, 1.0500000000000003E-07, 20.963115398456416
DataValue, 0.35000000000000003, 0.00099461500000000013, 6.0400000000000006E-09, 7.0000000000000009, 0.01657691666666667, 1.0066666666666668E-07, 20.853752632786268
DataValue, 0.4, 0.0011399160000000002, 5.9600000000000009E-09, 7.0000000000000009, 0.018998600000000004, 9.9333333333333349E-08, 20.587781151886364
DataValue, 0.45, 0.00128605, 5.7400000000000004E-09, 7.0000000000000009, 0.021434166666666667, 9.5666666666666676E-08, 20.465662030057246
DataValue, 0.5, 0.00143309, 5.5300000000000005E-09, 7.0000000000000009, 0.023884833333333334, 9.2166666666666678E-08, 20.347949944043151
DataValue, 0.55, 0.00158092, 5.890000000000001E-09, 7.0000000000000009, 0.026348666666666666, 9.8166666666666692E-08, 20.247013565499074
DataValue, 0.6, 0.0017294300000000001, 5.1400000000000009E-09, 7.0000000000000009, 0.028823833333333337, 8.5666666666666679E-08, 20.145044319097483
DataValue, 0.65, 0.00187876, 5.4500000000000008E-09, 7.0000000000000009, 0.031312666666666669, 9.0833333333333346E-08, 20.030045067601417
DataValue, 0.70000000000000007, 0.00202898, 5.2900000000000006E-09, 7.00002, 0.033816333333333337, 8.8166666666666682E-08, 19.933554817275734
DataValue, 0.75, 0.00217976, 4.7700000000000007E-09, 7.0000000000000009, 0.036329333333333338, 7.9500000000000017E-08, 19.8393016565817
DataValue, 0.8, 0.00233141, 4.5300000000000007E-09, 7.0000000000000009, 0.038856833333333334, 7.5500000000000021E-08, 19.768054823405389
DataValue, 0.85, 0.00248328, 4.9700000000000008E-09, 7.0000000000000009, 0.041388, 8.2833333333333354E-08, 19.676001836426828
DataValue, 0.9, 0.00263635, 4.52E-09, 7.0000000000000009, 0.043939166666666668, 7.5333333333333333E-08, 19.58160634444048
DataValue, 0.95000000000000007, 0.00278969, 4.5300000000000007E-09, 7.0000000000000009, 0.046494833333333332, 7.5500000000000021E-08, 19.519812609798958
DataValue, 1, 0.00294373, 4.44E-09, 7.0000000000000009, 0.049062166666666664, 7.4000000000000014E-08, 19.590557351356622
DataValue, 1.05, 0.00309596, 4.2600000000000006E-09, 7.0000000000000009, 0.051599333333333337, 7.1000000000000014E-08, 19.500780031201238
DataValue, 1.1, 0.00325141, 4.24E-09, 7.0000000000000009, 0.054190166666666671, 7.0666666666666677E-08, 19.277727798483522
DataValue, 1.1500000000000001, 0.0034072, 4.0900000000000006E-09, 7.0000000000000009, 0.056786666666666666, 6.8166666666666675E-08, 19.228920296125334
DataValue, 1.2, 0.00356344, 3.9100000000000008E-09, 7.0000000000000009, 0.059390666666666675, 6.5166666666666688E-08, 19.184038879652089
DataValue, 1.25, 0.00371996, 4.21E-09, 7.0000000000000009, 0.061999333333333337, 7.0166666666666666E-08, 19.106454797312402
DataValue, 1.3, 0.00387747, 3.6900000000000003E-09, 7.0000000000000009, 0.0646245, 6.15E-08, 19.051247856734619
DataValue, 1.35, 0.0040349, 3.7400000000000007E-09, 7.0000000000000009, 0.067248333333333341, 6.2333333333333349E-08, 19.016227180527419
DataValue, 1.4000000000000001, 0.00419299, 4.3300000000000006E-09, 7.0000000000000009, 0.069883166666666663, 7.2166666666666684E-08, 18.948365703458087
DataValue, 1.45, 0.00435155, 3.2400000000000004E-09, 7.0000000000000009, 0.072525833333333331, 5.4000000000000007E-08, 18.862586060548875
DataValue, 1.5, 0.00451108, 3.6700000000000004E-09, 7.0000000000000009, 0.075184666666666664, 6.1166666666666678E-08, 18.82766411447221
DataValue, 1.55, 0.00467023, 3.9800000000000007E-09, 7.0000000000000009, 0.077837166666666666, 6.6333333333333345E-08, 18.8548802715103
DataValue, 1.6, 0.0048293, 3.5800000000000005E-09, 7.00002, 0.080488333333333328, 5.9666666666666672E-08, 18.82057716436638
DataValue, 1.6500000000000001, 0.00498903, 3.5700000000000003E-09, 7.0000000000000009, 0.0831505, 5.950000000000001E-08, 18.764659890539424
DataValue, 1.7, 0.0051490500000000005, 3.5300000000000004E-09, 7.0000000000000009, 0.0858175, 5.8833333333333344E-08, 18.864958339883625
DataValue, 1.75, 0.0053070800000000005, 3.0200000000000003E-09, 7.0000000000000009, 0.08845133333333334, 5.0333333333333341E-08, 18.82766411447221
DataValue, 1.8, 0.0054677300000000005, 3.3400000000000005E-09, 7.0000000000000009, 0.091128833333333339, 5.5666666666666675E-08, 18.646859558069455
DataValue, 1.85, 0.00562885, 3.2600000000000003E-09, 7.0000000000000009, 0.093814166666666671, 5.4333333333333343E-08, 18.603497457522046
DataValue, 1.9000000000000001, 0.00579025, 3.2300000000000002E-09, 7.0000000000000009, 0.096504166666666669, 5.3833333333333339E-08, 18.579877992134467
DataValue, 1.95, 0.00595178, 3.2400000000000004E-09, 7.0000000000000009, 0.099196333333333345, 5.4000000000000007E-08, 18.572401411502465
DataValue, 2, 0.00611331, 2.94E-09, 7.0000000000000009, 0.1018885, 4.9E-08, 18.581604211830289
DataValue, 2.05, 0.00627468, 3.0500000000000004E-09, 7.0000000000000009, 0.104578, 5.0833333333333345E-08, 18.5477139942502
DataValue, 2.1, 0.0064368, 2.9700000000000003E-09, 7.0000000000000009, 0.10728000000000001, 4.9500000000000006E-08, 18.50709438618135
DataValue, 2.15, 0.0065988800000000005, 2.72E-09, 7.0000000000000009, 0.10998133333333335, 4.5333333333333336E-08, 18.537971945869135
DataValue, 2.2, 0.00676046, 2.8500000000000003E-09, 7.0000000000000009, 0.11267433333333335, 4.7500000000000008E-08, 18.552302031477133
DataValue, 2.25, 0.00692229, 3.42E-09, 7.0000000000000009, 0.1153715, 5.7000000000000007E-08, 18.508807107382008
DataValue, 2.3000000000000003, 0.00708463, 2.55E-09, 7.0000000000000009, 0.11807716666666666, 4.2500000000000003E-08, 18.519661707512835
DataValue, 2.35, 0.00724627, 2.5900000000000004E-09, 7.0000000000000009, 0.12077116666666667, 4.3166666666666676E-08, 18.544274455261842
DataValue, 2.4, 0.00740818, 3.0700000000000004E-09, 7.0000000000000009, 0.12346966666666667, 5.1166666666666675E-08, 18.6329617092637
DataValue, 2.45, 0.00756828, 2.3500000000000004E-09, 7.0000000000000009, 0.126138, 3.9166666666666673E-08, 18.647439085032286
DataValue, 2.5, 0.00772994, 2.5600000000000003E-09, 7.0000000000000009, 0.12883233333333335, 4.2666666666666672E-08, 18.570676901173044
DataValue, 2.5500000000000003, 0.00789137, 2.8500000000000003E-09, 7.0000000000000009, 0.13152283333333334, 4.7500000000000008E-08, 18.587936429257429
DataValue, 2.6, 0.008052730000000001, 2.36E-09, 7.0000000000000009, 0.13421216666666669, 3.9333333333333335E-08, 18.582179689677496
DataValue, 2.65, 0.008214260000000001, 2.6400000000000004E-09, 7.0000000000000009, 0.13690433333333335, 4.400000000000001E-08, 18.589664146734481
DataValue, 2.7, 0.00837549, 2.55E-09, 7.0000000000000009, 0.1395915, 4.2500000000000003E-08, 18.623129927369828
DataValue, 2.75, 0.008536440000000001, 2.43E-09, 7.0000000000000009, 0.142274, 4.0500000000000005E-08, 18.654976214905279
DataValue, 2.8000000000000003, 0.0086971200000000009, 2.4400000000000003E-09, 7.0000000000000009, 0.14495200000000003, 4.0666666666666673E-08, 18.658456945610652
DataValue, 2.85, 0.00885801, 2.24E-09, 7.0000000000000009, 0.1476335, 3.7333333333333337E-08, 18.659037193680859
DataValue, 2.9, 0.00901868, 2.12E-09, 7.0000000000000009, 0.15031133333333333, 3.5333333333333339E-08, 18.702075930428229
DataValue, 2.95, 0.00917883, 2.8300000000000004E-09, 7.0000000000000009, 0.15298050000000002, 4.7166666666666672E-08, 18.753516284303245
DataValue, 3, 0.00933862, 2.31E-09, 7.0000000000000009, 0.15564366666666668, 3.85E-08, 18.764659890539612
DataValue, 3.0500000000000003, 0.00949858, 2.0300000000000002E-09, 7.0000000000000009, 0.15830966666666665, 3.3833333333333339E-08, 18.778754968545531
DataValue, 3.1, 0.0096581300000000009, 2.4900000000000003E-09, 7.0000000000000009, 0.16096883333333337, 4.1500000000000008E-08, 18.977132555270693
DataValue, 3.15, 0.00981475, 2.1300000000000003E-09, 7.0000000000000009, 0.16357916666666669, 3.5500000000000007E-08, 19.001171738923937
DataValue, 3.2, 0.0099739, 2.24E-09, 7.0000000000000009, 0.16623166666666669, 3.7333333333333337E-08, 18.897637795275607
DataValue, 3.25, 0.01013225, 2.5900000000000004E-09, 7.0000000000000009, 0.16887083333333336, 4.3166666666666676E-08, 18.93939393939403
DataValue, 3.3000000000000003, 0.0102907, 2.0800000000000003E-09, 7.0000000000000009, 0.17151166666666667, 3.4666666666666673E-08, 18.959143046734351
DataValue, 3.35, 0.01044872, 2.1600000000000004E-09, 7.0000000000000009, 0.17414533333333335, 3.6000000000000005E-08, 19.015021867275131
DataValue, 3.4, 0.01060624, 2.3300000000000004E-09, 7.0000000000000009, 0.17677066666666666, 3.8833333333333344E-08, 19.07668828691342
DataValue, 3.45, 0.01076324, 2E-09, 7.0000000000000009, 0.17938733333333334, 3.3333333333333334E-08, 19.09247120218928
DataValue, 3.5, 0.0109205, 2.1300000000000003E-09, 7.0000000000000009, 0.18200833333333333, 3.5500000000000007E-08, 19.150973507819948
DataValue, 3.5500000000000003, 0.011076540000000001, 1.9E-09, 7.0000000000000009, 0.18460900000000002, 3.1666666666666666E-08, 19.241870309794102
DataValue, 3.6, 0.01123232, 2.0600000000000003E-09, 7.0000000000000009, 0.18720533333333334, 3.4333333333333343E-08, 19.268441504222913
DataValue, 3.65, 0.011387930000000001, 1.98E-09, 7.0000000000000009, 0.18979883333333336, 3.3000000000000004E-08, 18.66948783371695
DataValue, 3.7, 0.011553700000000002, 2.2500000000000003E-09, 7.0000000000000009, 0.19256166666666671, 3.7500000000000005E-08, 18.73419302463553
DataValue, 3.75, 0.0117082, 1.5800000000000001E-09, 7.0000000000000009, 0.19513666666666668, 2.6333333333333338E-08, 19.467878001297937
DataValue, 3.8000000000000003, 0.011861900000000002, 2.0800000000000003E-09, 7.00002, 0.19769833333333337, 3.4666666666666673E-08, 19.518542615484698
DataValue, 3.85, 0.012015600000000001, 2.0100000000000003E-09, 7.0000000000000009, 0.20026000000000002, 3.3500000000000009E-08, 19.524894240156144
DataValue, 3.9, 0.012169200000000002, 1.7900000000000002E-09, 7.0000000000000009, 0.20282000000000003, 2.9833333333333336E-08, 19.60143743874551
DataValue, 3.95, 0.012321700000000001, 1.8700000000000004E-09, 7.0000000000000009, 0.20536166666666669, 3.1166666666666674E-08, 19.730351857941454
DataValue, 4, 0.012473300000000001, 1.9E-09, 7.0000000000000009, 0.20788833333333337, 3.1666666666666666E-08, 19.795447047179149
DataValue, 4.05, 0.0126248, 1.8200000000000001E-09, 7.0000000000000009, 0.21041333333333334, 3.0333333333333334E-08, 19.880715705765422
DataValue, 4.1, 0.012775100000000001, 2E-09, 7.0000000000000009, 0.21291833333333335, 3.3333333333333334E-08, 19.933554817275734
DataValue, 4.15, 0.012925800000000001, 1.7900000000000002E-09, 7.0000000000000009, 0.21543000000000004, 2.9833333333333336E-08, 19.966722129783786
DataValue, 4.2, 0.013075600000000002, 1.8100000000000002E-09, 7.0000000000000009, 0.21792666666666669, 3.0166666666666672E-08, 20.242914979757014
DataValue, 4.25, 0.013222200000000002, 1.6300000000000002E-09, 7.0000000000000009, 0.22037000000000004, 2.7166666666666672E-08, 20.332090816672256
DataValue, 4.3, 0.013370700000000001, 1.6600000000000003E-09, 7.0000000000000009, 0.22284500000000002, 2.7666666666666673E-08, 20.20882452004053
DataValue, 4.3500000000000005, 0.013519100000000001, 1.7200000000000003E-09, 7.0000000000000009, 0.22531833333333337, 2.8666666666666672E-08, 20.242914979757078
DataValue, 4.4, 0.013667100000000002, 1.8900000000000003E-09, 7.0000000000000009, 0.22778500000000004, 3.1500000000000004E-08, 20.338983050847443
DataValue, 4.45, 0.013814100000000001, 1.5000000000000002E-09, 7.0000000000000009, 0.23023500000000002, 2.5000000000000005E-08, 20.435967302452244
DataValue, 4.5, 0.013960700000000001, 1.6400000000000001E-09, 7.0000000000000009, 0.23267833333333338, 2.7333333333333337E-08, 20.491803278688355
DataValue, 4.55, 0.014106900000000002, 1.9100000000000002E-09, 7.0000000000000009, 0.23511500000000005, 3.183333333333334E-08, 20.576131687243013
DataValue, 4.6000000000000005, 0.0142523, 1.4400000000000002E-09, 7.0000000000000009, 0.23753833333333335, 2.4000000000000003E-08, 20.739716557207274
DataValue, 4.65, 0.014396200000000001, 1.6200000000000002E-09, 7.0000000000000009, 0.23993666666666669, 2.7000000000000004E-08, 20.869565217391109
DataValue, 4.7, 0.014539800000000002, 1.9E-09, 7.0000000000000009, 0.24233000000000005, 3.1666666666666666E-08, 21.023125437981616
DataValue, 4.75, 0.014681600000000001, 1.23E-09, 7.0000000000000009, 0.24469333333333337, 2.05E-08, 21.367521367521338
DataValue, 4.8, 0.014820600000000002, 1.7200000000000003E-09, 7.00002, 0.24701000000000004, 2.8666666666666672E-08, 21.375133594585176
DataValue, 4.8500000000000005, 0.014962300000000001, 1.8400000000000003E-09, 7.0000000000000009, 0.24937166666666669, 3.066666666666667E-08, 21.216407355021392
DataValue, 4.9, 0.015103400000000001, 1.3700000000000002E-09, 7.0000000000000009, 0.25172333333333335, 2.2833333333333339E-08, 21.306818181818009
