
SetupTitle, output
PrimitiveTest, I/V Sweep
TestParameter, Context.MainFrame, B1500A
TestParameter, Channel.UnitType, SMU, SMU, SMU
TestParameter, Channel.Unit, SMU1:HP, SMU3:MP, SMU2:MP
TestParameter, Channel.IName, Id, Ig, Is
TestParameter, Channel.VName, Vd, Vg, Vs
TestParameter, Channel.Mode, V, V, COMMON
TestParameter, Channel.Func, VAR1, CONST, CONST
TestParameter, Channel.Index, 
TestParameter, Channel.Time, 
TestParameter, Measurement.Port.Unit, SMU1:HP, SMU3:MP, SMU2:MP
TestParameter, Measurement.Port.SeriesResistor, NONE, NONE, NONE
TestParameter, Measurement.Port.Filter, ON, ON, ON
TestParameter, Measurement.Port.OutputVoltageComparison, 0, 0, 0
TestParameter, Measurement.Primary.Locus, Single
TestParameter, Measurement.Primary.Scale, LINEAR
TestParameter, Measurement.Primary.Start, 0
TestParameter, Measurement.Primary.Stop, 10
TestParameter, Measurement.Primary.Step, 0.033
TestParameter, Measurement.Primary.Compliance, 0.1
TestParameter, Measurement.Primary.PowerCompliance, 0
TestParameter, Measurement.Aborting.Condition, CONTINUE AT ANY
TestParameter, Measurement.PostOutput.Value, START
TestParameter, Measurement.PostOutput.Retention, OFF
TestParameter, Measurement.Bias.Source, 0, 6, 0
TestParameter, Measurement.Bias.Compliance, 0.1, 0.01, 0.1
TestParameter, Measurement.Monitor.Unit, SMU1:HP, SMU3:MP, SMU2:MP
TestParameter, Measurement.Monitor.Adc, HS ADC, HR ADC, HR ADC
TestParameter, Measurement.Monitor.Measurement, Compliance Side, Compliance Side, Compliance Side
TestParameter, Measurement.Monitor.RangingMode, LIMITED, LIMITED, LIMITED
TestParameter, Measurement.Monitor.RangeBoundary, 10nA, 1nA, 1nA
TestParameter, Measurement.Monitor.RangeRating, BY FULL RANGE, BY FULL RANGE, BY FULL RANGE
TestParameter, Measurement.Monitor.RangeRatingCoeff, 50, 50, 50
TestParameter, Measurement.Timing.Hold, 0
TestParameter, Measurement.Timing.Delay, 0
TestParameter, Measurement.Adc.HighSpeed.Mode, PLC
TestParameter, Measurement.Adc.HighSpeed.Coeff, 3
TestParameter, Measurement.Adc.HighResolution.AutoZero, OFF
TestParameter, Measurement.Adc.HighResolution.Mode, PLC
TestParameter, Measurement.Adc.HighResolution.Coeff, 1
TestParameter, Measurement.WaitTime.Source.Coeff, 1
TestParameter, Measurement.WaitTime.Source.Offset, 0
TestParameter, Measurement.WaitTime.Monitor.Coeff, 1
TestParameter, Measurement.WaitTime.Monitor.Offset, 0
TestParameter, Function.User.Name, Id_density, Ron_density, Ig_density
TestParameter, Function.User.Unit, A/mm, Ohm.mm, A/mm
TestParameter, Function.User.Definition, Id/0.06, diff(Vd,Id_density), Ig/0.06
TestParameter, Output.Graph.Enabled, true
TestParameter, Output.Graph.XAxis.Data, Vd
TestParameter, Output.Graph.XAxis.Scale, Linear
TestParameter, Output.Graph.XAxis.Left, 0
TestParameter, Output.Graph.XAxis.Right, 200
TestParameter, Output.Graph.YAxis.Data, Id_density, Id_density, Ig_density, Ron_density
TestParameter, Output.Graph.YAxis.Scale, Linear, Log, Log, Linear
TestParameter, Output.Graph.YAxis.Bottom, 0, 0, 0, 0
TestParameter, Output.Graph.YAxis.Top, 1, 1, 1E-05, 1
TestParameter, Output.Graph.YAxis.Group, , , , 
TestParameter, Output.List.Data, Vg, Id, Ig_density, Id_density, Vd, Ron_density
TestParameter, AutoAnalysis.Interpolation, false
TestParameter, AutoAnalysis.Line1.Enabled, false
TestParameter, AutoAnalysis.Line1.Type, 1
TestParameter, AutoAnalysis.Line1.Fix, True
TestParameter, AutoAnalysis.Line1.YAxis, 0
TestParameter, AutoAnalysis.Line1.Point1.Type, 0
TestParameter, AutoAnalysis.Line1.Point1.XY.X, 
TestParameter, AutoAnalysis.Line1.Point1.XY.Y, 
TestParameter, AutoAnalysis.Line1.Point1.Data.Var, 
TestParameter, AutoAnalysis.Line1.Point1.Data.Condition, 
TestParameter, AutoAnalysis.Line1.Point1.Data.Start, false
TestParameter, AutoAnalysis.Line1.Point1.Data.StartVar, 
TestParameter, AutoAnalysis.Line1.Point1.Data.StartCondition, 
TestParameter, AutoAnalysis.Line1.Point2.Type, 0
TestParameter, AutoAnalysis.Line1.Point2.XY.X, 
TestParameter, AutoAnalysis.Line1.Point2.XY.Y, 
TestParameter, AutoAnalysis.Line1.Point2.Data.Var, 
TestParameter, AutoAnalysis.Line1.Point2.Data.Condition, 
TestParameter, AutoAnalysis.Line1.Point2.Data.Start, false
TestParameter, AutoAnalysis.Line1.Point2.Data.StartVar, 
TestParameter, AutoAnalysis.Line1.Point2.Data.StartCondition, 
TestParameter, AutoAnalysis.Line1.GradientExpr, 0
TestParameter, AutoAnalysis.Line2.Enabled, false
TestParameter, AutoAnalysis.Line2.Type, 1
TestParameter, AutoAnalysis.Line2.Fix, True
TestParameter, AutoAnalysis.Line2.YAxis, 0
TestParameter, AutoAnalysis.Line2.Point1.Type, 0
TestParameter, AutoAnalysis.Line2.Point1.XY.X, 
TestParameter, AutoAnalysis.Line2.Point1.XY.Y, 
TestParameter, AutoAnalysis.Line2.Point1.Data.Var, 
TestParameter, AutoAnalysis.Line2.Point1.Data.Condition, 
TestParameter, AutoAnalysis.Line2.Point1.Data.Start, false
TestParameter, AutoAnalysis.Line2.Point1.Data.StartVar, 
TestParameter, AutoAnalysis.Line2.Point1.Data.StartCondition, 
TestParameter, AutoAnalysis.Line2.Point2.Type, 0
TestParameter, AutoAnalysis.Line2.Point2.XY.X, 
TestParameter, AutoAnalysis.Line2.Point2.XY.Y, 
TestParameter, AutoAnalysis.Line2.Point2.Data.Var, 
TestParameter, AutoAnalysis.Line2.Point2.Data.Condition, 
TestParameter, AutoAnalysis.Line2.Point2.Data.Start, false
TestParameter, AutoAnalysis.Line2.Point2.Data.StartVar, 
TestParameter, AutoAnalysis.Line2.Point2.Data.StartCondition, 
TestParameter, AutoAnalysis.Line2.GradientExpr, 0
TestParameter, AutoAnalysis.Marker.Enabled, false
TestParameter, AutoAnalysis.Marker.Data.Var, 
TestParameter, AutoAnalysis.Marker.Data.Condition, 
TestParameter, AutoAnalysis.Marker.Data.Start, false
TestParameter, AutoAnalysis.Marker.Data.StartVar, 
TestParameter, AutoAnalysis.Marker.Data.StartCondition, 
MetaData, TestRecord.EntryPoint, true
MetaData, TestRecord.RecordTime, 10/23/2018 15:44:16
MetaData, TestRecord.TestTarget, 
MetaData, TestRecord.IterationIndex, 6
MetaData, TestRecord.Preservation, true
MetaData, TestRecord.Flag, #
MetaData, TestRecord.Remarks, #144_Noff_trigate_Ni_W20_S50_Lgd15_1qb5
MetaData, TestRecord.LinkKey, 20f84bd6-f71e-4999-9342-c8adc0fc9e98
Dimension1, 301, 301, 301, 301, 301, 301, 301
Dimension2, 1, 1, 1, 1, 1, 1, 1
DataName, Vd, Vg, Id, Ig, Id_density, Ron_density, Ig_density
DataValue, 0, 6, -5.5989999999999992E-07, 4.9105000000000008E-10, -9.3316666666666657E-06, 10.298559397981586, 8.1841666666666686E-09
DataValue, 0.033, 6, 0.0001917, 4.5114500000000005E-10, 0.003195, 10.28238445937806, 7.519083333333335E-09
DataValue, 0.067, 6, 0.0003904, 4.36436E-10, 0.0065066666666666667, 10.204340652367053, 7.2739333333333336E-09
DataValue, 0.1, 6, 0.00058565, 4.2546500000000004E-10, 0.0097608333333333332, 10.239172592113768, 7.0910833333333344E-09
DataValue, 0.133, 6, 0.00077715, 4.1731100000000004E-10, 0.0129525, 10.280015343306479, 6.9551833333333345E-09
DataValue, 0.167, 6, 0.0009767, 4.10282E-10, 0.016278333333333336, 10.14255077582945, 6.8380333333333343E-09
DataValue, 0.2, 6, 0.0011734999999999999, 4.0344600000000006E-10, 0.01955833333333333, 10.094315574815198, 6.7241000000000008E-09
DataValue, 0.233, 6, 0.001369, 3.9770700000000004E-10, 0.022816666666666666, 10.151515151515149, 6.628450000000001E-09
DataValue, 0.267, 6, 0.0015695, 3.9178E-10, 0.026158333333333332, 10.125944584382863, 6.529666666666667E-09
DataValue, 0.3, 6, 0.001766, 3.86241E-10, 0.029433333333333336, 10.063532401524778, 6.4373500000000007E-09
DataValue, 0.333, 6, 0.001963, 3.8101900000000004E-10, 0.032716666666666665, 9.9875776397515637, 6.3503166666666676E-09
DataValue, 0.367, 6, 0.0021685, 3.7545200000000005E-10, 0.036141666666666662, 9.97518610421836, 6.2575333333333345E-09
DataValue, 0.4, 6, 0.002366, 3.70031E-10, 0.039433333333333334, 10.012642225031602, 6.1671833333333343E-09
DataValue, 0.433, 6, 0.002564, 3.6497200000000005E-10, 0.042733333333333332, 10.075187969924819, 6.0828666666666681E-09
DataValue, 0.467, 6, 0.0027649999999999997, 3.5972E-10, 0.04608333333333333, 10.100502512562818, 5.9953333333333343E-09
DataValue, 0.5, 6, 0.002962, 3.5469100000000005E-10, 0.049366666666666663, 10.050761421319789, 5.9115166666666678E-09
DataValue, 0.533, 6, 0.003159, 3.50039E-10, 0.05265, 10.062578222778479, 5.8339833333333339E-09
DataValue, 0.56700000000000006, 6, 0.0033615, 3.45261E-10, 0.056025, 10.062578222778463, 5.7543500000000005E-09
DataValue, 0.6, 6, 0.0035585, 3.4060000000000004E-10, 0.059308333333333338, 10.063532401524782, 5.6766666666666675E-09
DataValue, 0.633, 6, 0.0037549999999999997, 3.3594200000000005E-10, 0.062583333333333324, 10.113207547169832, 5.599033333333334E-09
DataValue, 0.667, 6, 0.0039559999999999994, 3.31558E-10, 0.06593333333333333, 10.100502512562816, 5.5259666666666672E-09
DataValue, 0.70000000000000007, 6, 0.004153, 3.2682800000000003E-10, 0.069216666666666662, 10.038022813688187, 5.4471333333333341E-09
DataValue, 0.733, 6, 0.0043505, 3.22825E-10, 0.072508333333333341, 10.087829360100363, 5.3804166666666674E-09
DataValue, 0.767, 6, 0.0045515, 3.18167E-10, 0.075858333333333333, 10.113207547169832, 5.3027833333333339E-09
DataValue, 0.8, 6, 0.004748, 3.13971E-10, 0.079133333333333333, 10.10204081632652, 5.2328500000000006E-09
DataValue, 0.833, 6, 0.0049435, 3.0981600000000004E-10, 0.082391666666666669, 10.037453183520592, 5.1636000000000007E-09
DataValue, 0.867, 6, 0.0051484999999999994, 3.05533E-10, 0.085808333333333334, 10.012453300124545, 5.0922166666666667E-09
DataValue, 0.9, 6, 0.005345, 3.0162700000000005E-10, 0.089083333333333334, 10.19305019305021, 5.0271166666666679E-09
DataValue, 0.933, 6, 0.0055369999999999994, 2.97634E-10, 0.092283333333333328, 10.138713745271103, 4.9605666666666675E-09
DataValue, 0.967, 6, 0.0057415, 2.93426E-10, 0.095691666666666675, 10.100502512562819, 4.8904333333333333E-09
DataValue, 1, 6, 0.0059349999999999993, 2.89333E-10, 0.098916666666666653, 10.219354838709675, 4.8222166666666666E-09
DataValue, 1.033, 6, 0.006129, 2.85671E-10, 0.10215, 10.255102040816315, 4.761183333333334E-09
DataValue, 1.067, 6, 0.0063269999999999993, 2.82248E-10, 0.10544999999999999, 10.455136540962334, 4.7041333333333337E-09
DataValue, 1.1, 6, 0.0065134999999999993, 2.7773600000000003E-10, 0.10855833333333333, 10.630872483221468, 4.6289333333333338E-09
DataValue, 1.133, 6, 0.0066995, 2.7448700000000003E-10, 0.11165833333333333, 10.50980392156861, 4.5747833333333339E-09
DataValue, 1.167, 6, 0.0068959999999999994, 2.7020900000000003E-10, 0.11493333333333333, 10.2420382165605, 4.503483333333334E-09
DataValue, 1.2, 6, 0.0070919999999999993, 2.66827E-10, 0.1182, 10.166880616174604, 4.447116666666667E-09
DataValue, 1.233, 6, 0.0072854999999999994, 2.63883E-10, 0.12142499999999999, 10.164348925410906, 4.39805E-09
DataValue, 1.2670000000000001, 6, 0.0074874999999999994, 2.6074E-10, 0.12479166666666666, 10.177215189873394, 4.3456666666666671E-09
DataValue, 1.3, 6, 0.0076805, 2.5739800000000005E-10, 0.12800833333333334, 10.285714285714281, 4.2899666666666678E-09
DataValue, 1.333, 6, 0.0078725, 2.53783E-10, 0.13120833333333332, 10.203045685279182, 4.2297166666666664E-09
DataValue, 1.367, 6, 0.0080745, 2.51092E-10, 0.134575, 10.320924261874168, 4.1848666666666674E-09
DataValue, 1.4000000000000001, 6, 0.008262, 2.4764100000000004E-10, 0.13770000000000002, 10.434782608695667, 4.1273500000000011E-09
DataValue, 1.433, 6, 0.008454, 2.44629E-10, 0.1409, 10.294494238156194, 4.0771500000000005E-09
DataValue, 1.467, 6, 0.0086525, 2.4146E-10, 0.14420833333333336, 10.334190231362447, 4.0243333333333336E-09
DataValue, 1.5, 6, 0.008843, 2.3788200000000003E-10, 0.14738333333333334, 10.462351387054218, 3.9647000000000006E-09
DataValue, 1.5330000000000001, 6, 0.0090309999999999991, 2.34705E-10, 0.15051666666666666, 10.578947368421051, 3.91175E-09
DataValue, 1.567, 6, 0.009223, 2.3239800000000003E-10, 0.15371666666666667, 10.578947368421051, 3.8733000000000007E-09
DataValue, 1.6, 6, 0.009411, 2.289E-10, 0.15685, 10.560000000000047, 3.8150000000000006E-09
DataValue, 1.633, 6, 0.0095979999999999989, 2.2662100000000002E-10, 0.15996666666666665, 10.592885375494067, 3.777016666666667E-09
DataValue, 1.667, 6, 0.0097904999999999989, 2.2351400000000002E-10, 0.163175, 10.592885375494021, 3.7252333333333337E-09
DataValue, 1.7, 6, 0.0099775, 2.20988E-10, 0.16629166666666667, 10.602409638554212, 3.6831333333333336E-09
DataValue, 1.733, 6, 0.010164, 2.1799700000000002E-10, 0.1694, 10.606860158311376, 3.6332833333333338E-09
DataValue, 1.7670000000000001, 6, 0.0103565, 2.1518200000000002E-10, 0.17260833333333334, 10.620871862615582, 3.586366666666667E-09
DataValue, 1.8, 6, 0.0105425, 2.1289500000000002E-10, 0.17570833333333333, 11.578947368421002, 3.5482500000000004E-09
DataValue, 1.833, 6, 0.0106985, 2.053E-10, 0.17830833333333335, 16.079999999999938, 3.4216666666666669E-09
DataValue, 1.867, 6, 0.0107925, 2.0395200000000002E-10, 0.179875, 14.357142857143023, 3.3992000000000004E-09
DataValue, 1.9000000000000001, 6, 0.010978499999999999, 2.01004E-10, 0.18297499999999997, 10.879120879120892, 3.3500666666666669E-09
DataValue, 1.933, 6, 0.0111565, 1.9849E-10, 0.18594166666666667, 10.879566982408624, 3.3081666666666669E-09
DataValue, 1.967, 6, 0.011347999999999999, 1.9559600000000002E-10, 0.18913333333333332, 10.482398956975191, 3.2599333333333336E-09
DataValue, 2, 6, 0.011540000000000002, 1.9367900000000001E-10, 0.19233333333333336, 10.790190735694711, 3.2279833333333336E-09
DataValue, 2.033, 6, 0.011715000000000002, 1.91246E-10, 0.19525000000000004, 11.166666666666686, 3.1874333333333333E-09
DataValue, 2.067, 6, 0.0119, 1.8811100000000002E-10, 0.19833333333333336, 11.013698630137071, 3.1351833333333336E-09
DataValue, 2.1, 6, 0.01208, 1.8625E-10, 0.20133333333333334, 10.84931506849313, 3.1041666666666668E-09
DataValue, 2.133, 6, 0.012265000000000002, 1.83765E-10, 0.20441666666666669, 11.013698630136972, 3.0627500000000004E-09
DataValue, 2.1670000000000003, 6, 0.012445000000000001, 1.8138200000000002E-10, 0.20741666666666669, 11.323943661971885, 3.0230333333333338E-09
DataValue, 2.2, 6, 0.012620000000000001, 1.7892700000000002E-10, 0.21033333333333334, 11.314285714285694, 2.9821166666666672E-09
DataValue, 2.233, 6, 0.012795, 1.7751400000000002E-10, 0.21325000000000002, 11.323943661971757, 2.9585666666666672E-09
DataValue, 2.267, 6, 0.012975, 1.7449400000000002E-10, 0.21625000000000003, 11.323943661971885, 2.9082333333333337E-09
DataValue, 2.3000000000000003, 6, 0.01315, 1.7233900000000001E-10, 0.21916666666666668, 11.478260869565311, 2.872316666666667E-09
DataValue, 2.333, 6, 0.01332, 1.7088700000000002E-10, 0.222, 11.323943661971757, 2.848116666666667E-09
DataValue, 2.367, 6, 0.013505000000000001, 1.6848600000000002E-10, 0.22508333333333336, 11.485714285714192, 2.8081000000000007E-09
DataValue, 2.4, 6, 0.013670000000000002, 1.6644000000000002E-10, 0.22783333333333336, 11.647058823529354, 2.7740000000000006E-09
DataValue, 2.433, 6, 0.013845000000000001, 1.6455600000000002E-10, 0.23075000000000004, 11.485714285714323, 2.7426000000000004E-09
DataValue, 2.467, 6, 0.014020000000000001, 1.62017E-10, 0.23366666666666669, 11.485714285714323, 2.7002833333333334E-09
DataValue, 2.5, 6, 0.014195000000000001, 1.6044400000000003E-10, 0.23658333333333337, 11.47826086956518, 2.6740666666666672E-09
DataValue, 2.533, 6, 0.014365000000000001, 1.5869800000000001E-10, 0.23941666666666669, 11.652173913043553, 2.6449666666666669E-09
DataValue, 2.567, 6, 0.01454, 1.5633900000000002E-10, 0.24233333333333335, 11.823529411764763, 2.6056500000000004E-09
DataValue, 2.6, 6, 0.014705000000000001, 1.54889E-10, 0.24508333333333335, 11.82089552238798, 2.5814833333333338E-09
DataValue, 2.633, 6, 0.014875000000000001, 1.53237E-10, 0.2479166666666667, 11.823529411764707, 2.5539500000000003E-09
DataValue, 2.6670000000000003, 6, 0.015045000000000001, 1.50772E-10, 0.25075000000000003, 11.823529411764707, 2.5128666666666669E-09
DataValue, 2.7, 6, 0.015215000000000001, 1.48539E-10, 0.25358333333333338, 11.820895522388039, 2.4756500000000002E-09
DataValue, 2.733, 6, 0.015380000000000001, 1.4801100000000002E-10, 0.25633333333333336, 12.181818181818121, 2.4668500000000004E-09
DataValue, 2.767, 6, 0.015545000000000002, 1.4526500000000002E-10, 0.25908333333333339, 12.181818181818201, 2.4210833333333338E-09
DataValue, 2.8000000000000003, 6, 0.015710000000000002, 1.4434700000000002E-10, 0.26183333333333336, 12.000000000000162, 2.4057833333333336E-09
DataValue, 2.833, 6, 0.015875, 1.42271E-10, 0.26458333333333334, 12.181818181818121, 2.3711833333333334E-09
DataValue, 2.867, 6, 0.016040000000000002, 1.39885E-10, 0.26733333333333337, 11.99999999999984, 2.3314166666666669E-09
DataValue, 2.9, 6, 0.016210000000000002, 1.3883500000000002E-10, 0.27016666666666672, 11.820895522388119, 2.3139166666666669E-09
DataValue, 2.9330000000000003, 6, 0.016375, 1.37104E-10, 0.2729166666666667, 12.00000000000016, 2.285066666666667E-09
DataValue, 2.967, 6, 0.016545, 1.35073E-10, 0.27575, 11.99999999999984, 2.2512166666666667E-09
DataValue, 3, 6, 0.016710000000000003, 1.34007E-10, 0.27850000000000008, 12.571428571428463, 2.2334500000000004E-09
DataValue, 3.033, 6, 0.01686, 1.31816E-10, 0.281, 12.562500000000238, 2.1969333333333335E-09
DataValue, 3.067, 6, 0.01703, 1.30915E-10, 0.28383333333333333, 11.823529411764763, 2.181916666666667E-09
DataValue, 3.1, 6, 0.0172, 1.2985500000000001E-10, 0.28666666666666668, 11.820895522387922, 2.1642500000000003E-09
DataValue, 3.133, 6, 0.017365000000000002, 1.2893600000000001E-10, 0.28941666666666671, 11.99999999999992, 2.1489333333333336E-09
DataValue, 3.1670000000000003, 6, 0.017535000000000002, 1.2575200000000002E-10, 0.29225000000000007, 12.369230769230896, 2.0958666666666672E-09
DataValue, 3.2, 6, 0.01769, 1.26147E-10, 0.29483333333333334, 12.571428571428596, 2.10245E-09
DataValue, 3.233, 6, 0.01785, 1.23243E-10, 0.29750000000000004, 12.562499999999893, 2.0540500000000004E-09
DataValue, 3.267, 6, 0.01801, 1.22317E-10, 0.30016666666666669, 12.369230769230896, 2.0386166666666668E-09
DataValue, 3.3000000000000003, 6, 0.018175, 1.2096000000000001E-10, 0.30291666666666667, 12.374999999999998, 2.0160000000000005E-09
DataValue, 3.333, 6, 0.018330000000000003, 1.19185E-10, 0.30550000000000005, 12.967741935483714, 1.986416666666667E-09
DataValue, 3.367, 6, 0.018485, 1.1836000000000002E-10, 0.30808333333333338, 13.180327868852418, 1.9726666666666671E-09
DataValue, 3.4, 6, 0.018635000000000002, 1.1664500000000001E-10, 0.31058333333333338, 13.200000000000044, 1.9440833333333335E-09
DataValue, 3.4330000000000003, 6, 0.018785000000000003, 1.1617200000000002E-10, 0.31308333333333338, 12.76190476190485, 1.9362000000000004E-09
DataValue, 3.467, 6, 0.01895, 1.14045E-10, 0.31583333333333335, 12.967741935483852, 1.90075E-09
DataValue, 3.5, 6, 0.019095, 1.1326200000000001E-10, 0.31825000000000003, 13.655172413793162, 1.8877000000000004E-09
DataValue, 3.533, 6, 0.01924, 1.1193300000000001E-10, 0.32066666666666666, 13.400000000000022, 1.86555E-09
DataValue, 3.567, 6, 0.019395000000000003, 1.0987400000000001E-10, 0.32325000000000004, 17.8666666666663, 1.8312333333333336E-09
DataValue, 3.6, 6, 0.019465000000000003, 1.0557400000000001E-10, 0.32441666666666674, 21.999999999999925, 1.7595666666666669E-09
DataValue, 3.633, 6, 0.019575000000000002, 1.0434000000000001E-10, 0.32625000000000004, 15.169811320754901, 1.7390000000000003E-09
DataValue, 3.6670000000000003, 6, 0.01973, 1.0390000000000001E-10, 0.32883333333333337, 13.627118644067794, 1.731666666666667E-09
DataValue, 3.7, 6, 0.019870000000000002, 1.0287200000000001E-10, 0.33116666666666672, 14.142857142857151, 1.7145333333333336E-09
DataValue, 3.733, 6, 0.02001, 1.0260100000000001E-10, 0.3335, 14.105263157894584, 1.710016666666667E-09
DataValue, 3.767, 6, 0.020155000000000003, 1.0047E-10, 0.33591666666666675, 14.105263157894843, 1.6745000000000002E-09
DataValue, 3.8000000000000003, 6, 0.020295, 9.9595E-11, 0.33825, 14.142857142857414, 1.6599166666666669E-09
DataValue, 3.833, 6, 0.020435000000000002, 9.9304E-11, 0.34058333333333335, 14.105263157894584, 1.6550666666666669E-09
