
SetupTitle, Output
PrimitiveTest, I/V Sweep
TestParameter, Context.MainFrame, B1500A
TestParameter, Channel.UnitType, SMU, SMU, SMU
TestParameter, Channel.Unit, SMU1:MP, SMU2:MC, GNDU:GND
TestParameter, Channel.IName, Id, Ig, Is
TestParameter, Channel.VName, Vd, Vg, Vs
TestParameter, Channel.Mode, V, V, COMMON
TestParameter, Channel.Func, VAR1, CONST, CONST
TestParameter, Channel.Index, 
TestParameter, Channel.Time, 
TestParameter, Measurement.Port.Unit, SMU1:MP, SMU2:MC, GNDU:GND
TestParameter, Measurement.Port.SeriesResistor, NONE, NONE, NONE
TestParameter, Measurement.Port.Filter, ON, ON, ON
TestParameter, Measurement.Port.OutputVoltageComparison, 0, 0, 0
TestParameter, Measurement.Primary.Locus, Single
TestParameter, Measurement.Primary.Scale, LINEAR
TestParameter, Measurement.Primary.Start, 0
TestParameter, Measurement.Primary.Stop, 10
TestParameter, Measurement.Primary.Step, 0.05
TestParameter, Measurement.Primary.Compliance, 0.1
TestParameter, Measurement.Primary.PowerCompliance, 0
TestParameter, Measurement.Aborting.Condition, CONTINUE AT ANY
TestParameter, Measurement.PostOutput.Value, START
TestParameter, Measurement.PostOutput.Retention, OFF
TestParameter, Measurement.Bias.Source, 0, 7.0000000000000009, 0
TestParameter, Measurement.Bias.Compliance, 0.1, 0.0001, 2
TestParameter, Measurement.Monitor.Unit, SMU1:MP, SMU2:MC, GNDU:GND
TestParameter, Measurement.Monitor.Adc, HR ADC, HS ADC, HR ADC
TestParameter, Measurement.Monitor.Measurement, Compliance Side, Force and Compliance Sides, Compliance Side
TestParameter, Measurement.Monitor.RangingMode, LIMITED, LIMITED, LIMITED
TestParameter, Measurement.Monitor.RangeBoundary, 1nA, 10uA, 1nA
TestParameter, Measurement.Monitor.RangeRating, BY FULL RANGE, BY FULL RANGE, BY FULL RANGE
TestParameter, Measurement.Monitor.RangeRatingCoeff, 50, 50, 50
TestParameter, Measurement.Timing.Hold, 0
TestParameter, Measurement.Timing.Delay, 0
TestParameter, Measurement.Adc.HighSpeed.Mode, AUTO
TestParameter, Measurement.Adc.HighSpeed.Coeff, 1
TestParameter, Measurement.Adc.HighResolution.AutoZero, OFF
TestParameter, Measurement.Adc.HighResolution.Mode, PLC
TestParameter, Measurement.Adc.HighResolution.Coeff, 1
TestParameter, Measurement.WaitTime.Source.Coeff, 1
TestParameter, Measurement.WaitTime.Source.Offset, 0
TestParameter, Measurement.WaitTime.Monitor.Coeff, 1
TestParameter, Measurement.WaitTime.Monitor.Offset, 0
TestParameter, Function.User.Name, Id_dens, Ig_dens, Ron
TestParameter, Function.User.Unit, A/mm, A/mm, Ohm/mm
TestParameter, Function.User.Definition, Id/0.06, abs(Ig)/0.06, diff(Vd,Id_dens)
TestParameter, Output.Graph.Enabled, true
TestParameter, Output.Graph.AutoScaling, false
TestParameter, Output.Graph.XAxis.Data, Vd
TestParameter, Output.Graph.XAxis.Scale, Linear
TestParameter, Output.Graph.XAxis.Left, 0
TestParameter, Output.Graph.XAxis.Right, 6
TestParameter, Output.Graph.XAxis.RunTimeAutoScale, false
TestParameter, Output.Graph.YAxis.Data, Id_dens, Ron
TestParameter, Output.Graph.YAxis.Scale, Linear, Linear
TestParameter, Output.Graph.YAxis.Bottom, 0, 0
TestParameter, Output.Graph.YAxis.Top, 0.30000000000000004, 1
TestParameter, Output.Graph.YAxis.Group, , 
TestParameter, Output.Graph.YAxis.RunTimeAutoScale, false, false
TestParameter, Output.List.Data, Vd, Id_dens, Ig_dens, Vg, Ron
TestParameter, AutoAnalysis.Interpolation, false
TestParameter, AutoAnalysis.Line1.Enabled, false
TestParameter, AutoAnalysis.Line1.Type, 1
TestParameter, AutoAnalysis.Line1.Fix, True
TestParameter, AutoAnalysis.Line1.YAxis, 0
TestParameter, AutoAnalysis.Line1.Point1.Type, 0
TestParameter, AutoAnalysis.Line1.Point1.XY.X, 
TestParameter, AutoAnalysis.Line1.Point1.XY.Y, 
TestParameter, AutoAnalysis.Line1.Point1.Data.Var, 
TestParameter, AutoAnalysis.Line1.Point1.Data.Condition, 
TestParameter, AutoAnalysis.Line1.Point1.Data.Start, false
TestParameter, AutoAnalysis.Line1.Point1.Data.StartVar, 
TestParameter, AutoAnalysis.Line1.Point1.Data.StartCondition, 
TestParameter, AutoAnalysis.Line1.Point2.Type, 0
TestParameter, AutoAnalysis.Line1.Point2.XY.X, 
TestParameter, AutoAnalysis.Line1.Point2.XY.Y, 
TestParameter, AutoAnalysis.Line1.Point2.Data.Var, 
TestParameter, AutoAnalysis.Line1.Point2.Data.Condition, 
TestParameter, AutoAnalysis.Line1.Point2.Data.Start, false
TestParameter, AutoAnalysis.Line1.Point2.Data.StartVar, 
TestParameter, AutoAnalysis.Line1.Point2.Data.StartCondition, 
TestParameter, AutoAnalysis.Line1.GradientExpr, 0
TestParameter, AutoAnalysis.Line2.Enabled, false
TestParameter, AutoAnalysis.Line2.Type, 1
TestParameter, AutoAnalysis.Line2.Fix, True
TestParameter, AutoAnalysis.Line2.YAxis, 0
TestParameter, AutoAnalysis.Line2.Point1.Type, 0
TestParameter, AutoAnalysis.Line2.Point1.XY.X, 
TestParameter, AutoAnalysis.Line2.Point1.XY.Y, 
TestParameter, AutoAnalysis.Line2.Point1.Data.Var, 
TestParameter, AutoAnalysis.Line2.Point1.Data.Condition, 
TestParameter, AutoAnalysis.Line2.Point1.Data.Start, false
TestParameter, AutoAnalysis.Line2.Point1.Data.StartVar, 
TestParameter, AutoAnalysis.Line2.Point1.Data.StartCondition, 
TestParameter, AutoAnalysis.Line2.Point2.Type, 0
TestParameter, AutoAnalysis.Line2.Point2.XY.X, 
TestParameter, AutoAnalysis.Line2.Point2.XY.Y, 
TestParameter, AutoAnalysis.Line2.Point2.Data.Var, 
TestParameter, AutoAnalysis.Line2.Point2.Data.Condition, 
TestParameter, AutoAnalysis.Line2.Point2.Data.Start, false
TestParameter, AutoAnalysis.Line2.Point2.Data.StartVar, 
TestParameter, AutoAnalysis.Line2.Point2.Data.StartCondition, 
TestParameter, AutoAnalysis.Line2.GradientExpr, 0
TestParameter, AutoAnalysis.Marker.Enabled, false
TestParameter, AutoAnalysis.Marker.Data.Var, 
TestParameter, AutoAnalysis.Marker.Data.Condition, 
TestParameter, AutoAnalysis.Marker.Data.Start, false
TestParameter, AutoAnalysis.Marker.Data.StartVar, 
TestParameter, AutoAnalysis.Marker.Data.StartCondition, 
MetaData, TestRecord.EntryPoint, true
MetaData, TestRecord.RecordTime, 08/14/2019 13:58:29
MetaData, TestRecord.TestTarget, 
MetaData, TestRecord.IterationIndex, 1
MetaData, TestRecord.Preservation, true
MetaData, TestRecord.Flag, #
MetaData, TestRecord.Remarks, #188_F_implant_5nm_cap_die2_r4c3_W40_S70
MetaData, TestRecord.LinkKey, e7c29f6b-3883-48de-9747-316475b19d09
Dimension1, 201, 201, 201, 201, 201, 201, 201
Dimension2, 1, 1, 1, 1, 1, 1, 1
DataName, Vd, Id, Ig, Vg, Id_dens, Ig_dens, Ron
DataValue, 0, -2.0634E-06, 2.5E-10, 7.0000000000000009, -3.439E-05, 4.1666666666666668E-09, 8.2412058092809168
DataValue, 0.05, 0.000361961, 3.9000000000000005E-10, 7.0000000000000009, 0.0060326833333333336, 6.5000000000000011E-09, 8.1835359804162522
DataValue, 0.1, 0.00073111600000000008, 2.2000000000000002E-10, 7.0000000000000009, 0.012185266666666668, 3.6666666666666672E-09, 8.0756527146306585
DataValue, 0.15, 0.001104935, -2.9000000000000003E-10, 7.0000000000000009, 0.018415583333333336, 4.8333333333333344E-09, 7.9455044335914744
DataValue, 0.2, 0.00148626, -6E-11, 7.0000000000000009, 0.024771, 1E-09, 7.8623048346622815
DataValue, 0.25, 0.00186807, -2.8E-10, 7.0000000000000009, 0.031134500000000002, 4.6666666666666671E-09, 7.8167747987180478
DataValue, 0.3, 0.00225384, 1.9000000000000002E-10, 7.0000000000000009, 0.037564, 3.1666666666666669E-09, 7.74113639882335
DataValue, 0.35000000000000003, 0.00264315, -1.2E-10, 7.0000000000000009, 0.0440525, 2E-09, 7.6749897666803113
DataValue, 0.4, 0.0030356000000000003, -1.8000000000000003E-10, 7.0000000000000009, 0.050593333333333337, 3.0000000000000004E-09, 7.6829502528971085
DataValue, 0.45, 0.0034241000000000002, 2.3000000000000003E-10, 7.0000000000000009, 0.057068333333333339, 3.8333333333333337E-09, 7.6309664619023954
DataValue, 0.5, 0.00382187, -3.1E-10, 7.00002, 0.063697833333333342, 5.1666666666666674E-09, 7.5240770465489595
DataValue, 0.55, 0.00422154, -1.9000000000000002E-10, 7.0000000000000009, 0.070359, 3.1666666666666669E-09, 7.4864308440950795
DataValue, 0.6, 0.00462332, 3.6000000000000005E-10, 7.0000000000000009, 0.077055333333333337, 6.0000000000000008E-09, 7.453323561197994
DataValue, 0.65, 0.00502655, -5E-10, 7.0000000000000009, 0.083775833333333341, 8.3333333333333335E-09, 7.4205995844464292
DataValue, 0.70000000000000007, 0.00543188, -1.9000000000000002E-10, 7.0000000000000009, 0.090531333333333339, 3.1666666666666669E-09, 7.3946265713581454
DataValue, 0.75, 0.00583795, 2.5E-10, 7.00002, 0.097299166666666673, 4.1666666666666668E-09, 7.3723659150949166
DataValue, 0.8, 0.0062457300000000006, -4.0000000000000007E-10, 7.0000000000000009, 0.10409550000000001, 6.6666666666666676E-09, 7.3619631901840457
DataValue, 0.85, 0.00665295, 6E-11, 7.0000000000000009, 0.11088250000000001, 1E-09, 7.356186552890982
DataValue, 0.9, 0.00706137, 2.4E-10, 7.0000000000000009, 0.1176895, 4E-09, 7.345379756133398
DataValue, 0.95000000000000007, 0.0074697900000000005, -2.7000000000000005E-10, 6.9999800000000008, 0.12449650000000001, 4.5000000000000006E-09, 7.3471786833855823
DataValue, 1, 0.00787801, -7E-11, 7.0000000000000009, 0.13130016666666666, 1.1666666666666668E-09, 7.3560963648623829
DataValue, 1.05, 0.00828544, -1.0000000000000002E-10, 7.0000000000000009, 0.13809066666666667, 1.6666666666666669E-09, 7.35744941753526
DataValue, 1.1, 0.00869351, -2.0000000000000002E-11, 7.0000000000000009, 0.14489183333333333, 3.3333333333333337E-10, 7.421976472334574
DataValue, 1.1500000000000001, 0.00909385, 4.0000000000000004E-11, 7.0000000000000009, 0.15156416666666669, 6.6666666666666674E-10, 7.4376169875171847
DataValue, 1.2, 0.00950022, -1.1000000000000001E-10, 7.0000000000000009, 0.158337, 1.8333333333333336E-09, 7.40201581564045
DataValue, 1.25, 0.00990444, -1.0000000000000002E-10, 7.0000000000000009, 0.16507400000000003, 1.6666666666666669E-09, 7.42537498143657
DataValue, 1.3, 0.01030826, 3.0000000000000005E-10, 7.0000000000000009, 0.17180433333333334, 5.0000000000000009E-09, 7.4471254095919219
DataValue, 1.35, 0.01071012, -3.0000000000000005E-10, 7.0000000000000009, 0.178502, 5.0000000000000009E-09, 7.479151864178605
DataValue, 1.4000000000000001, 0.01111049, 1.7E-10, 7.00002, 0.18517483333333334, 2.8333333333333335E-09, 7.4039339569090741
DataValue, 1.45, 0.011520500000000001, 3.7E-10, 7.00002, 0.19200833333333336, 6.1666666666666673E-09, 7.4339309387815709
DataValue, 1.5, 0.0119176, 1.0000000000000002E-10, 7.0000000000000009, 0.19862666666666667, 1.6666666666666669E-09, 7.5757575757575886
DataValue, 1.55, 0.0123125, -8.0000000000000008E-11, 7.0000000000000009, 0.20520833333333335, 1.3333333333333335E-09, 7.6365024818633
DataValue, 1.6, 0.0127033, 1.8000000000000003E-10, 7.0000000000000009, 0.2117216666666667, 3.0000000000000004E-09, 7.6913216254326464
DataValue, 1.6500000000000001, 0.013092600000000001, -3.7E-10, 7.0000000000000009, 0.21821000000000002, 6.1666666666666673E-09, 7.7210140265088043
DataValue, 1.7, 0.013480400000000002, -4.0000000000000004E-11, 7.0000000000000009, 0.22467333333333336, 6.6666666666666674E-10, 7.7679958570688568
DataValue, 1.75, 0.013865, 4.8E-10, 7.0000000000000009, 0.23108333333333336, 8E-09, 7.8905839032088387
DataValue, 1.8, 0.014240800000000001, -2.2000000000000002E-10, 7.0000000000000009, 0.23734666666666671, 3.6666666666666672E-09, 7.9522862823061855
DataValue, 1.85, 0.0146195, 1.8000000000000003E-10, 7.0000000000000009, 0.24365833333333334, 3.0000000000000004E-09, 7.945967421533588
DataValue, 1.9000000000000001, 0.014995900000000001, 5.100000000000001E-10, 7.0000000000000009, 0.24993166666666669, 8.5000000000000017E-09, 7.9925402957239777
DataValue, 1.95, 0.0153702, -1.8000000000000003E-10, 7.0000000000000009, 0.25617, 3.0000000000000004E-09, 8.0536912751677434
DataValue, 2, 0.015740900000000002, 1.0000000000000001E-11, 7.0000000000000009, 0.26234833333333341, 1.6666666666666669E-10, 8.136696501220479
DataValue, 2.05, 0.0161076, 3.0000000000000005E-10, 7.0000000000000009, 0.26846000000000003, 5.0000000000000009E-09, 8.2000820008200446
DataValue, 2.1, 0.0164726, -9.0000000000000012E-11, 7.0000000000000009, 0.27454333333333336, 1.5000000000000002E-09, 8.2747207281754225
DataValue, 2.15, 0.016832700000000003, 6E-11, 7.0000000000000009, 0.28054500000000004, 1E-09, 8.370535714285726
DataValue, 2.2, 0.0171894, 3.2000000000000003E-10, 7.00002, 0.28649, 5.3333333333333339E-09, 8.429334082607479
DataValue, 2.25, 0.0175445, -4.2000000000000005E-10, 7.0000000000000009, 0.29240833333333338, 7.0000000000000015E-09, 8.4949738071640919
DataValue, 2.3000000000000003, 0.0178957, 3E-11, 7.00002, 0.2982616666666667, 5E-10, 8.58000858000861
DataValue, 2.35, 0.0182438, -2.0000000000000002E-11, 7.0000000000000009, 0.30406333333333335, 3.3333333333333337E-10, 8.66175833694239
DataValue, 2.4, 0.0185884, -1.4E-10, 7.0000000000000009, 0.30980666666666667, 2.3333333333333335E-09, 8.7604029785369715
DataValue, 2.45, 0.018928700000000003, 2.6000000000000003E-10, 7.0000000000000009, 0.31547833333333342, 4.3333333333333341E-09, 8.9179548156955484
DataValue, 2.5, 0.019261200000000003, -2.0000000000000002E-11, 7.0000000000000009, 0.32102000000000008, 3.3333333333333337E-10, 9.0090090090090182
DataValue, 2.5500000000000003, 0.019594700000000003, -2.3000000000000003E-10, 7.0000000000000009, 0.32657833333333341, 3.8333333333333337E-09, 9.0511389349827116
DataValue, 2.6, 0.0199241, 1.3000000000000002E-10, 7.0000000000000009, 0.33206833333333335, 2.166666666666667E-09, 9.1421605972878446
DataValue, 2.65, 0.020251, -3.2000000000000003E-10, 7.0000000000000009, 0.33751666666666669, 5.3333333333333339E-09, 9.2321895676257828
DataValue, 2.7, 0.020574000000000002, -1.5000000000000003E-10, 7.0000000000000009, 0.34290000000000004, 2.5000000000000005E-09, 9.3283582089552262
DataValue, 2.75, 0.0208942, 5.3E-10, 7.00002, 0.34823666666666669, 8.8333333333333347E-09, 9.4369298521547957
DataValue, 2.8000000000000003, 0.0212098, -2.6000000000000003E-10, 7.0000000000000009, 0.35349666666666668, 4.3333333333333341E-09, 9.55870638840208
DataValue, 2.85, 0.021521900000000004, 1.0000000000000001E-11, 7.0000000000000009, 0.3586983333333334, 1.6666666666666669E-10, 9.6696212731667419
DataValue, 2.9, 0.0218303, 4.5000000000000005E-10, 7.0000000000000009, 0.36383833333333337, 7.500000000000001E-09, 9.771986970684063
DataValue, 2.95, 0.022135900000000003, -2.3000000000000003E-10, 7.0000000000000009, 0.36893166666666671, 3.8333333333333337E-09, 9.8879367172050436
DataValue, 3, 0.0224371, 2.6000000000000003E-10, 7.0000000000000009, 0.37395166666666668, 4.3333333333333341E-09, 10.010010010010021
DataValue, 3.0500000000000003, 0.022735300000000003, 5.100000000000001E-10, 7.00002, 0.37892166666666671, 8.5000000000000017E-09, 10.121457489878495
DataValue, 3.1, 0.023029900000000002, -4.3000000000000007E-10, 7.0000000000000009, 0.38383166666666674, 7.166666666666668E-09, 10.242403550699907
DataValue, 3.15, 0.0233211, 4.0000000000000004E-11, 7.0000000000000009, 0.388685, 6.6666666666666674E-10, 10.438413361169136
DataValue, 3.2, 0.023604700000000003, 3.6000000000000005E-10, 7.0000000000000009, 0.39341166666666672, 6.0000000000000008E-09, 10.583877227024111
DataValue, 3.25, 0.023888000000000003, -1.1000000000000001E-10, 7.00002, 0.39813333333333339, 1.8333333333333336E-09, 10.632642211589593
DataValue, 3.3000000000000003, 0.024169000000000003, -7E-11, 7.0000000000000009, 0.40281666666666671, 1.1666666666666668E-09, 10.764262648008597
DataValue, 3.35, 0.024445400000000003, 2.0000000000000003E-10, 7.0000000000000009, 0.40742333333333342, 3.3333333333333338E-09, 10.926971407758108
DataValue, 3.4, 0.024718100000000003, -2.8E-10, 7.0000000000000009, 0.41196833333333338, 4.6666666666666671E-09, 11.070110701107016
DataValue, 3.45, 0.024987400000000003, 2.0000000000000002E-11, 7.0000000000000009, 0.41645666666666675, 3.3333333333333337E-10, 11.204481792717147
DataValue, 3.5, 0.0252536, 1.0000000000000002E-10, 7.0000000000000009, 0.42089333333333334, 1.6666666666666669E-09, 11.348590883298673
DataValue, 3.5500000000000003, 0.025516100000000003, 1.4E-10, 7.0000000000000009, 0.42526833333333341, 2.3333333333333335E-09, 11.516314779270587
DataValue, 3.6, 0.0257746, 1.3000000000000002E-10, 7.0000000000000009, 0.42957666666666672, 2.166666666666667E-09, 11.702750146284377
DataValue, 3.65, 0.0260288, -1.5000000000000003E-10, 7.0000000000000009, 0.43381333333333338, 2.5000000000000005E-09, 11.85536455246004
DataValue, 3.7, 0.0262807, 1.0000000000000002E-10, 7.00002, 0.43801166666666669, 1.6666666666666669E-09, 12.067578439259869
DataValue, 3.75, 0.026526, 2.4E-10, 7.0000000000000009, 0.44210000000000005, 4E-09, 12.272448353446471
DataValue, 3.8000000000000003, 0.0267696, -1.4E-10, 7.0000000000000009, 0.44616000000000006, 2.3333333333333335E-09, 12.404382881951685
DataValue, 3.85, 0.0270097, 2.0000000000000002E-11, 7.0000000000000009, 0.45016166666666668, 3.3333333333333337E-10, 12.586532410320944
DataValue, 3.9, 0.0272463, 3.3000000000000005E-10, 7.00002, 0.45410500000000004, 5.5000000000000013E-09, 12.757814161173727
DataValue, 3.95, 0.02748, -1.9000000000000002E-10, 7.0000000000000009, 0.458, 3.1666666666666669E-09, 12.950571983595928
DataValue, 4, 0.0277096, -1.2E-10, 7.0000000000000009, 0.46182666666666672, 2E-09, 13.140604467805368
DataValue, 4.05, 0.027936600000000002, 5.5000000000000007E-10, 7.0000000000000009, 0.46561000000000008, 9.1666666666666677E-09, 13.368983957219129
DataValue, 4.1, 0.028158400000000004, -2.6000000000000003E-10, 7.0000000000000009, 0.46930666666666676, 4.3333333333333341E-09, 13.593112822836481
DataValue, 4.15, 0.028378000000000004, 1.6000000000000002E-10, 7.0000000000000009, 0.47296666666666676, 2.666666666666667E-09, 13.78993334865568
DataValue, 4.2, 0.0285935, 4.8E-10, 7.0000000000000009, 0.47655833333333336, 8E-09, 14.002333722287016
DataValue, 4.25, 0.028806500000000002, -2.4E-10, 7.0000000000000009, 0.48010833333333341, 4E-09, 14.343772412144256
DataValue, 4.3, 0.029011800000000004, 4.0000000000000004E-11, 7.0000000000000009, 0.48353000000000007, 6.6666666666666674E-10, 14.623446258835191
DataValue, 4.3500000000000005, 0.0292168, 5E-10, 7.0000000000000009, 0.48694666666666669, 8.3333333333333335E-09, 14.77832512315284
DataValue, 4.4, 0.0294178, -4.5000000000000005E-10, 7.0000000000000009, 0.49029666666666671, 7.500000000000001E-09, 15.011258443832674
DataValue, 4.45, 0.029616500000000004, 1.9000000000000002E-10, 7.0000000000000009, 0.49360833333333343, 3.1666666666666669E-09, 15.33742331288332
DataValue, 4.5, 0.029809000000000002, 3.9000000000000005E-10, 7.0000000000000009, 0.49681666666666674, 6.5000000000000011E-09, 15.669887699138219
DataValue, 4.55, 0.029999400000000002, -1.6000000000000002E-10, 7.0000000000000009, 0.49999000000000005, 2.666666666666667E-09, 15.864621893178173
DataValue, 4.6000000000000005, 0.030187200000000004, 1.0000000000000001E-11, 7.0000000000000009, 0.50312000000000012, 1.6666666666666669E-10, 16.068559185859687
DataValue, 4.65, 0.030372800000000002, 3.4E-10, 7.0000000000000009, 0.5062133333333334, 5.666666666666667E-09, 16.371077762619482
DataValue, 4.7, 0.030553700000000003, 1.0000000000000001E-11, 7.0000000000000009, 0.50922833333333339, 1.6666666666666669E-10, 16.839741790626004
DataValue, 4.75, 0.030729100000000002, 3.5000000000000003E-10, 7.00002, 0.51215166666666667, 5.8333333333333343E-09, 17.226528854435919
DataValue, 4.8, 0.030902000000000002, 2.5E-10, 7.00002, 0.51503333333333334, 4.1666666666666668E-09, 17.600469345849227
DataValue, 4.8500000000000005, 0.031070000000000004, 2.4E-10, 7.0000000000000009, 0.51783333333333337, 4E-09, 17.910447761193961
DataValue, 4.9, 0.031237000000000004, 3.6000000000000005E-10, 7.0000000000000009, 0.52061666666666673, 6.0000000000000008E-09, 18.143332325370277
DataValue, 4.95, 0.031400700000000004, -2.0000000000000002E-11, 7.00002, 0.52334500000000006, 3.3333333333333337E-10, 18.507094386181365
DataValue, 5, 0.031561200000000005, 2.4E-10, 7.0000000000000009, 0.52602, 4E-09, 18.951358180669402
DataValue, 5.05, 0.031717300000000004, 1.9000000000000002E-10, 7.0000000000000009, 0.52862166666666677, 3.1666666666666669E-09, 19.436345966958484
