
SetupTitle, Output
PrimitiveTest, I/V Sweep
TestParameter, Context.MainFrame, B1500A
TestParameter, Channel.UnitType, SMU, SMU, SMU
TestParameter, Channel.Unit, SMU1:MP, SMU2:MC, GNDU:GND
TestParameter, Channel.IName, Id, Ig, Is
TestParameter, Channel.VName, Vd, Vg, Vs
TestParameter, Channel.Mode, V, V, COMMON
TestParameter, Channel.Func, VAR1, VAR2, CONST
TestParameter, Channel.Index, 
TestParameter, Channel.Time, 
TestParameter, Measurement.Port.Unit, SMU1:MP, SMU2:MC, GNDU:GND
TestParameter, Measurement.Port.SeriesResistor, NONE, NONE, NONE
TestParameter, Measurement.Port.Filter, ON, ON, ON
TestParameter, Measurement.Port.OutputVoltageComparison, 0, 0, 0
TestParameter, Measurement.Primary.Locus, Single
TestParameter, Measurement.Primary.Scale, LINEAR
TestParameter, Measurement.Primary.Start, 0
TestParameter, Measurement.Primary.Stop, 10
TestParameter, Measurement.Primary.Step, 0.025
TestParameter, Measurement.Primary.Compliance, 0.1
TestParameter, Measurement.Primary.PowerCompliance, 0
TestParameter, Measurement.Aborting.Condition, CONTINUE AT ANY
TestParameter, Measurement.PostOutput.Value, START
TestParameter, Measurement.PostOutput.Retention, OFF
TestParameter, Measurement.Secondary.Start, 0
TestParameter, Measurement.Secondary.Count, 8
TestParameter, Measurement.Secondary.Step, 1
TestParameter, Measurement.Secondary.Compliance, 0.0001
TestParameter, Measurement.Secondary.PowerCompliance, 0
TestParameter, Measurement.Bias.Source, 0, 0, 0
TestParameter, Measurement.Bias.Compliance, 0.1, 0.0001, 2
TestParameter, Measurement.Monitor.Unit, SMU1:MP, SMU2:MC, GNDU:GND
TestParameter, Measurement.Monitor.Adc, HR ADC, HS ADC, HR ADC
TestParameter, Measurement.Monitor.Measurement, Compliance Side, Force and Compliance Sides, Compliance Side
TestParameter, Measurement.Monitor.RangingMode, LIMITED, LIMITED, LIMITED
TestParameter, Measurement.Monitor.RangeBoundary, 1nA, 10uA, 1nA
TestParameter, Measurement.Monitor.RangeRating, BY FULL RANGE, BY FULL RANGE, BY FULL RANGE
TestParameter, Measurement.Monitor.RangeRatingCoeff, 50, 50, 50
TestParameter, Measurement.Timing.Hold, 0
TestParameter, Measurement.Timing.Delay, 0
TestParameter, Measurement.Adc.HighSpeed.Mode, AUTO
TestParameter, Measurement.Adc.HighSpeed.Coeff, 1
TestParameter, Measurement.Adc.HighResolution.AutoZero, OFF
TestParameter, Measurement.Adc.HighResolution.Mode, PLC
TestParameter, Measurement.Adc.HighResolution.Coeff, 1
TestParameter, Measurement.WaitTime.Source.Coeff, 1
TestParameter, Measurement.WaitTime.Source.Offset, 0
TestParameter, Measurement.WaitTime.Monitor.Coeff, 1
TestParameter, Measurement.WaitTime.Monitor.Offset, 0
TestParameter, Function.User.Name, Id_dens, Ig_dens, Ron
TestParameter, Function.User.Unit, A/mm, A/mm, Ohm/mm
TestParameter, Function.User.Definition, Id/0.06, abs(Ig)/0.06, diff(Vd,Id_dens)
TestParameter, Output.Graph.Enabled, true
TestParameter, Output.Graph.AutoScaling, false
TestParameter, Output.Graph.XAxis.Data, Vd
TestParameter, Output.Graph.XAxis.Scale, Linear
TestParameter, Output.Graph.XAxis.Left, 0
TestParameter, Output.Graph.XAxis.Right, 6
TestParameter, Output.Graph.XAxis.RunTimeAutoScale, false
TestParameter, Output.Graph.YAxis.Data, Id_dens, Ron
TestParameter, Output.Graph.YAxis.Scale, Linear, Linear
TestParameter, Output.Graph.YAxis.Bottom, 0, 0
TestParameter, Output.Graph.YAxis.Top, 0.30000000000000004, 1
TestParameter, Output.Graph.YAxis.Group, , 
TestParameter, Output.Graph.YAxis.RunTimeAutoScale, false, false
TestParameter, Output.List.Data, Vd, Id_dens, Ig_dens, Vg, Ron
TestParameter, AutoAnalysis.Interpolation, false
TestParameter, AutoAnalysis.Line1.Enabled, false
TestParameter, AutoAnalysis.Line1.Type, 1
TestParameter, AutoAnalysis.Line1.Fix, True
TestParameter, AutoAnalysis.Line1.YAxis, 0
TestParameter, AutoAnalysis.Line1.Point1.Type, 0
TestParameter, AutoAnalysis.Line1.Point1.XY.X, 
TestParameter, AutoAnalysis.Line1.Point1.XY.Y, 
TestParameter, AutoAnalysis.Line1.Point1.Data.Var, 
TestParameter, AutoAnalysis.Line1.Point1.Data.Condition, 
TestParameter, AutoAnalysis.Line1.Point1.Data.Start, false
TestParameter, AutoAnalysis.Line1.Point1.Data.StartVar, 
TestParameter, AutoAnalysis.Line1.Point1.Data.StartCondition, 
TestParameter, AutoAnalysis.Line1.Point2.Type, 0
TestParameter, AutoAnalysis.Line1.Point2.XY.X, 
TestParameter, AutoAnalysis.Line1.Point2.XY.Y, 
TestParameter, AutoAnalysis.Line1.Point2.Data.Var, 
TestParameter, AutoAnalysis.Line1.Point2.Data.Condition, 
TestParameter, AutoAnalysis.Line1.Point2.Data.Start, false
TestParameter, AutoAnalysis.Line1.Point2.Data.StartVar, 
TestParameter, AutoAnalysis.Line1.Point2.Data.StartCondition, 
TestParameter, AutoAnalysis.Line1.GradientExpr, 0
TestParameter, AutoAnalysis.Line2.Enabled, false
TestParameter, AutoAnalysis.Line2.Type, 1
TestParameter, AutoAnalysis.Line2.Fix, True
TestParameter, AutoAnalysis.Line2.YAxis, 0
TestParameter, AutoAnalysis.Line2.Point1.Type, 0
TestParameter, AutoAnalysis.Line2.Point1.XY.X, 
TestParameter, AutoAnalysis.Line2.Point1.XY.Y, 
TestParameter, AutoAnalysis.Line2.Point1.Data.Var, 
TestParameter, AutoAnalysis.Line2.Point1.Data.Condition, 
TestParameter, AutoAnalysis.Line2.Point1.Data.Start, false
TestParameter, AutoAnalysis.Line2.Point1.Data.StartVar, 
TestParameter, AutoAnalysis.Line2.Point1.Data.StartCondition, 
TestParameter, AutoAnalysis.Line2.Point2.Type, 0
TestParameter, AutoAnalysis.Line2.Point2.XY.X, 
TestParameter, AutoAnalysis.Line2.Point2.XY.Y, 
TestParameter, AutoAnalysis.Line2.Point2.Data.Var, 
TestParameter, AutoAnalysis.Line2.Point2.Data.Condition, 
TestParameter, AutoAnalysis.Line2.Point2.Data.Start, false
TestParameter, AutoAnalysis.Line2.Point2.Data.StartVar, 
TestParameter, AutoAnalysis.Line2.Point2.Data.StartCondition, 
TestParameter, AutoAnalysis.Line2.GradientExpr, 0
TestParameter, AutoAnalysis.Marker.Enabled, false
TestParameter, AutoAnalysis.Marker.Data.Var, 
TestParameter, AutoAnalysis.Marker.Data.Condition, 
TestParameter, AutoAnalysis.Marker.Data.Start, false
TestParameter, AutoAnalysis.Marker.Data.StartVar, 
TestParameter, AutoAnalysis.Marker.Data.StartCondition, 
MetaData, TestRecord.EntryPoint, true
MetaData, TestRecord.RecordTime, 08/14/2019 14:11:49
MetaData, TestRecord.TestTarget, 
MetaData, TestRecord.IterationIndex, 3
MetaData, TestRecord.Preservation, true
MetaData, TestRecord.Flag, #
MetaData, TestRecord.Remarks, #188_F_implant_5nm_cap_die2_r4c1_W70_S70_full
MetaData, TestRecord.LinkKey, a1b49615-e47f-432d-89c2-dd852e1a7ef3
Dimension1, 401, 401, 401, 401, 401, 401, 401
Dimension2, 8, 8, 8, 8, 8, 8, 8
DataName, Vd, Id, Ig, Vg, Id_dens, Ig_dens, Ron
DataValue, 0, -8.25588E-08, 4.8E-10, -1.0000000000000002E-06, -1.37598E-06, 8E-09, 6769.8451239964834
DataValue, 0.025, 1.39012E-07, -5.3E-10, 4.8000000000000006E-06, 2.3168666666666668E-06, 8.8333333333333347E-09, 7829.1818661533525
DataValue, 0.05, 3.00623E-07, -1.0000000000000001E-11, 6.0000000000000008E-07, 5.0103833333333328E-06, 1.6666666666666669E-10, 10248.24669579446
DataValue, 0.075, 4.31745E-07, -5.0000000000000008E-11, -6.0000000000000008E-07, 7.1957500000000005E-06, 8.3333333333333345E-10, 13219.935662979769
DataValue, 0.1, 5.27553E-07, -1.2E-10, 4.2000000000000004E-06, 8.7925500000000011E-06, 2E-09, 16609.548275652065
DataValue, 0.125, 6.12364E-07, -4.0000000000000004E-11, 1.0000000000000002E-06, 1.0206066666666667E-05, 6.6666666666666674E-10, 21218.958432060426
DataValue, 0.15, 6.68936E-07, -3.4E-10, 0, 1.1148933333333334E-05, 5.666666666666667E-09, 25684.271808087135
DataValue, 0.17500000000000002, 7.29167E-07, -2.0000000000000003E-10, 2.2E-06, 1.2152783333333333E-05, 3.3333333333333338E-09, 27416.539484386303
DataValue, 0.2, 7.78359E-07, 2.9000000000000003E-10, 3E-06, 1.297265E-05, 4.8333333333333344E-09, 33534.915436121577
DataValue, 0.225, 8.18626E-07, -4.4000000000000003E-10, 1.4000000000000002E-06, 1.3643766666666666E-05, 7.3333333333333345E-09, 40708.877249165474
DataValue, 0.25, 8.5205299999999993E-07, -8.0000000000000008E-11, -4.0000000000000003E-07, 1.4200883333333333E-05, 1.3333333333333335E-09, 46448.9758000836
DataValue, 0.275, 8.83213E-07, 1.6000000000000002E-10, 3.6000000000000003E-06, 1.4720216666666667E-05, 2.666666666666667E-09, 38673.249713173369
DataValue, 0.3, 9.2962599999999994E-07, -3.3000000000000005E-10, 3.2000000000000003E-06, 1.5493766666666667E-05, 5.5000000000000013E-09, 40491.29437171
DataValue, 0.325, 9.57303E-07, -7E-11, -8.0000000000000013E-06, 1.5955050000000002E-05, 1.1666666666666668E-09, 53553.258715793054
DataValue, 0.35000000000000003, 9.85645E-07, -4.0000000000000004E-11, -2.6E-06, 1.6427416666666665E-05, 6.6666666666666674E-10, 47174.261722804185
DataValue, 0.375, 1.020897E-06, -1.2E-10, -2.2E-06, 1.701495E-05, 2E-09, 86495.213931495717
DataValue, 0.4, 1.020329E-06, -8.0000000000000008E-11, -1.8000000000000001E-06, 1.7005483333333332E-05, 1.3333333333333335E-09, 187722.92096864933
DataValue, 0.425, 1.036878E-06, -3.6000000000000005E-10, 2.0000000000000002E-07, 1.72813E-05, 6.0000000000000008E-09, 74262.94031735
DataValue, 0.45, 1.060726E-06, -2.5E-10, -6E-06, 1.7678766666666667E-05, 4.1666666666666668E-09, 73760.818253343634
DataValue, 0.47500000000000003, 1.0775500000000002E-06, 3.4E-10, -4.0000000000000003E-07, 1.7959166666666669E-05, 5.666666666666667E-09, 93330.014932801947
DataValue, 0.5, 1.0928700000000002E-06, 4.0000000000000007E-10, 2.0000000000000003E-06, 1.8214500000000003E-05, 6.6666666666666676E-09, 77379.417075057951
DataValue, 0.525, 1.1163200000000001E-06, -3.9000000000000005E-10, -1.2000000000000002E-06, 1.8605333333333336E-05, 6.5000000000000011E-09, 83033.490174370541
DataValue, 0.55, 1.1290000000000001E-06, -5.0000000000000008E-11, -8.0000000000000013E-06, 1.8816666666666669E-05, 8.3333333333333345E-10, 114722.75334608035
DataValue, 0.57500000000000007, 1.14247E-06, -1.1000000000000001E-10, 0, 1.904116666666667E-05, 1.8333333333333336E-09, 109369.30368209985
DataValue, 0.6, 1.15643E-06, -4.0000000000000004E-11, 8.0000000000000007E-07, 1.9273833333333335E-05, 6.6666666666666674E-10, 112528.13203300849
DataValue, 0.625, 1.1691300000000002E-06, 2.2000000000000002E-10, 1.8000000000000001E-06, 1.9485500000000002E-05, 3.6666666666666672E-09, 231481.48148147881
DataValue, 0.65, 1.1693900000000001E-06, -3.6000000000000005E-10, 3E-06, 1.9489833333333338E-05, 6.0000000000000008E-09, 157150.34049240468
DataValue, 0.675, 1.18822E-06, -1.3000000000000002E-10, 2.0000000000000003E-06, 1.9803666666666668E-05, 2.166666666666667E-09, 113981.76291793333
DataValue, 0.70000000000000007, 1.1957100000000001E-06, 2.3000000000000003E-10, 3.6000000000000003E-06, 1.9928500000000004E-05, 3.8333333333333337E-09, 213980.02853066949
DataValue, 0.725, 1.2022400000000002E-06, -3.9000000000000005E-10, 3.6000000000000003E-06, 2.0037333333333336E-05, 6.5000000000000011E-09, 227790.43280182534
DataValue, 0.75, 1.20888E-06, -6E-11, 2.4000000000000003E-06, 2.0148E-05, 1E-09, 1176470.5882353417
DataValue, 0.775, 1.20479E-06, -1.1000000000000001E-10, 4.2000000000000004E-06, 2.0079833333333334E-05, 1.8333333333333336E-09, 180722.89156626511
DataValue, 0.8, 1.22548E-06, -1.0000000000000002E-10, -6.6E-06, 2.0424666666666668E-05, 1.6666666666666669E-09, 147130.94654242153
DataValue, 0.82500000000000007, 1.2251800000000002E-06, 2.0000000000000002E-11, 2.6E-06, 2.041966666666667E-05, 3.3333333333333337E-10, 170940.17094016814
DataValue, 0.85, 1.2430300000000002E-06, -1.3000000000000002E-10, -2.0000000000000003E-06, 2.0717166666666672E-05, 2.166666666666667E-09, 182481.75182481878
DataValue, 0.875, 1.24162E-06, -1.9000000000000002E-10, -3.8000000000000005E-06, 2.0693666666666668E-05, 3.1666666666666669E-09, 307062.43602866336
DataValue, 0.9, 1.2528E-06, 4.9000000000000007E-10, -5E-06, 2.0880000000000003E-05, 8.1666666666666687E-09, 68042.640054434
DataValue, 0.925, 1.28571E-06, -4.2000000000000005E-10, -8.0000000000000007E-07, 2.1428500000000003E-05, 7.0000000000000015E-09, 72780.2037845708
DataValue, 0.95000000000000007, 1.2940200000000002E-06, -7E-11, 6.0000000000000008E-07, 2.1567000000000002E-05, 1.1666666666666668E-09, 218978.10218978146
DataValue, 0.975, 1.29941E-06, 2.3000000000000003E-10, 1.0000000000000002E-06, 2.1656833333333336E-05, 3.8333333333333337E-09, 261780.10471203871
DataValue, 1, 1.3054800000000001E-06, -4.3000000000000007E-10, -5E-06, 2.1758000000000004E-05, 7.166666666666668E-09, -900900.90090090421
DataValue, 1.025, 1.29608E-06, -9.0000000000000012E-11, -2.4000000000000003E-06, 2.1601333333333336E-05, 1.5000000000000002E-09, 471698.11320755363
DataValue, 1.05, 1.3118400000000001E-06, -1.8000000000000003E-10, 8.0000000000000007E-07, 2.1864000000000003E-05, 3.0000000000000004E-09, 83612.04013377933
DataValue, 1.075, 1.33196E-06, -2.2000000000000002E-10, -2.0000000000000002E-07, 2.2199333333333336E-05, 3.6666666666666672E-09, 117187.49999999999
DataValue, 1.1, 1.3374400000000002E-06, 5.5000000000000007E-10, -5.4000000000000008E-06, 2.229066666666667E-05, 9.1666666666666677E-09, 159404.88841657827
DataValue, 1.125, 1.3507800000000001E-06, -5.3E-10, 9.6000000000000013E-06, 2.2513000000000003E-05, 8.8333333333333347E-09, 440528.63436124107
DataValue, 1.1500000000000001, 1.34425E-06, -1.0000000000000001E-11, -2.6E-06, 2.2404166666666668E-05, 1.6666666666666669E-10, -255754.47570332716
DataValue, 1.175, 1.3390500000000001E-06, 2.7000000000000005E-10, 2.6E-06, 2.2317500000000004E-05, 4.5000000000000006E-09, 329670.32967032737
DataValue, 1.2, 1.3533500000000001E-06, -3.8000000000000003E-10, 7.0000000000000007E-06, 2.2555833333333335E-05, 6.3333333333333338E-09, 144439.09484833904
DataValue, 1.225, 1.3598200000000002E-06, -1.0000000000000001E-11, 2.0000000000000003E-06, 2.2663666666666671E-05, 1.6666666666666669E-10, -195439.73941368208
DataValue, 1.25, 1.3380000000000002E-06, -2.2000000000000002E-10, 3.2000000000000003E-06, 2.2300000000000003E-05, 3.6666666666666672E-09, -196206.67102681528
DataValue, 1.2750000000000001, 1.3445300000000002E-06, -2.4E-10, -1.4000000000000002E-06, 2.2408833333333338E-05, 4E-09, -3061224.4897961938
DataValue, 1.3, 1.3370200000000002E-06, 3.9000000000000005E-10, 1.2000000000000002E-06, 2.2283666666666671E-05, 6.5000000000000011E-09, -404312.66846361005
DataValue, 1.325, 1.3371100000000002E-06, -3.8000000000000003E-10, -3.2000000000000003E-06, 2.2285166666666671E-05, 6.3333333333333338E-09, 236406.61938534727
DataValue, 1.35, 1.34971E-06, -5.0000000000000008E-11, 3.4000000000000005E-06, 2.2495166666666668E-05, 8.3333333333333345E-10, 109329.44606414007
DataValue, 1.375, 1.3645500000000001E-06, 1.2E-10, -7.8E-06, 2.2742500000000005E-05, 2E-09, 184388.44499077729
DataValue, 1.4000000000000001, 1.3659800000000002E-06, -4.0000000000000007E-10, 2.8000000000000003E-06, 2.2766333333333339E-05, 6.6666666666666676E-09, -112570.3564727952
DataValue, 1.425, 1.3379000000000001E-06, -1.7E-10, 3E-06, 2.2298333333333336E-05, 2.8333333333333335E-09, -139146.56771799506
DataValue, 1.45, 1.3444200000000001E-06, -1.6000000000000002E-10, -2.0000000000000002E-07, 2.2407000000000004E-05, 2.666666666666667E-09, 252312.86795626493
DataValue, 1.475, 1.3497900000000001E-06, -1.6000000000000002E-10, -2.6E-06, 2.2496500000000004E-05, 2.666666666666667E-09, 106307.58327427413
DataValue, 1.5, 1.37264E-06, 2.2000000000000002E-10, -4.0000000000000003E-07, 2.2877333333333335E-05, 3.6666666666666672E-09, 79512.324410283676
DataValue, 1.5250000000000001, 1.3875200000000002E-06, -4.1000000000000003E-10, -2.8000000000000003E-06, 2.3125333333333337E-05, 6.8333333333333341E-09, -135074.29085997364
DataValue, 1.55, 1.3504300000000002E-06, -6E-11, 1.6000000000000001E-06, 2.250716666666667E-05, 1E-09, -110456.55375552247
DataValue, 1.575, 1.36036E-06, 2.7000000000000005E-10, -6.800000000000001E-06, 2.2672666666666671E-05, 4.5000000000000006E-09, 111524.16356877321
DataValue, 1.6, 1.3773300000000001E-06, -4.0000000000000007E-10, 2.6E-06, 2.2955500000000004E-05, 6.6666666666666676E-09, 190839.6946564898
DataValue, 1.625, 1.3760800000000001E-06, -4.0000000000000004E-11, -1.2000000000000002E-06, 2.2934666666666669E-05, 6.6666666666666674E-10, -4615384.6153846039
DataValue, 1.6500000000000001, 1.3766800000000002E-06, -1.1000000000000001E-10, -1.2000000000000002E-06, 2.2944666666666671E-05, 1.8333333333333336E-09, -404312.66846361186
DataValue, 1.675, 1.36866E-06, -1.7E-10, -2.0000000000000003E-06, 2.2811000000000002E-05, 2.8333333333333335E-09, -18750000.000006467
DataValue, 1.7, 1.3765200000000002E-06, 3.0000000000000005E-10, 2.0000000000000002E-07, 2.2942000000000005E-05, 5.0000000000000009E-09, 212014.13427561667
DataValue, 1.725, 1.3828100000000002E-06, -3.5000000000000003E-10, -3.2000000000000003E-06, 2.3046833333333338E-05, 5.8333333333333343E-09, 339366.51583710947
DataValue, 1.75, 1.38536E-06, -1.0000000000000002E-10, 5.4000000000000008E-06, 2.3089333333333336E-05, 1.6666666666666669E-09, -837988.82681561389
DataValue, 1.7750000000000001, 1.37923E-06, 1.6000000000000002E-10, -1.8000000000000001E-06, 2.2987166666666669E-05, 2.666666666666667E-09, -128865.97938144329
DataValue, 1.8, 1.3620800000000001E-06, -3.7E-10, -1.2000000000000002E-06, 2.2701333333333336E-05, 6.1666666666666673E-09, 1127819.548872117
DataValue, 1.825, 1.3818900000000002E-06, 2.0000000000000002E-11, 1.8000000000000001E-06, 2.3031500000000005E-05, 3.3333333333333337E-10, 197498.35418038242
DataValue, 1.85, 1.3772700000000002E-06, -6E-11, 2.0000000000000002E-07, 2.2954500000000002E-05, 1E-09, -356294.53681709542
DataValue, 1.875, 1.37347E-06, -1.7E-10, 1.6000000000000001E-06, 2.2891166666666669E-05, 2.8333333333333335E-09, 427960.05706133373
DataValue, 1.9000000000000001, 1.3842800000000001E-06, 2.1000000000000002E-10, 1.8000000000000001E-06, 2.3071333333333337E-05, 3.5000000000000007E-09, 1200000.0000000044
DataValue, 1.925, 1.37597E-06, -5.2000000000000007E-10, -1.2000000000000002E-06, 2.2932833333333335E-05, 8.6666666666666682E-09, -379266.7509481624
DataValue, 1.95, 1.37637E-06, 3E-11, -1.0000000000000002E-06, 2.2939500000000003E-05, 5E-10, 652173.913043461
DataValue, 1.975, 1.3805700000000002E-06, 2.6000000000000003E-10, -8.0000000000000007E-07, 2.3009500000000004E-05, 4.3333333333333341E-09, 144578.31325301243
DataValue, 2, 1.39712E-06, -3.5000000000000003E-10, 5.6000000000000006E-06, 2.3285333333333336E-05, 5.8333333333333343E-09, 197628.45849802371
DataValue, 2.025, 1.3957500000000002E-06, 0, 8.0000000000000007E-07, 2.3262500000000003E-05, 0, -1657458.5635358084
DataValue, 2.05, 1.39531E-06, -8.0000000000000008E-11, 8.0000000000000007E-07, 2.3255166666666667E-05, 1.3333333333333335E-09, -833333.33333334571
DataValue, 2.075, 1.39215E-06, -1.4E-10, 2.2E-06, 2.3202500000000004E-05, 2.3333333333333335E-09, 169204.73773265694
DataValue, 2.1, 1.4130400000000001E-06, 1.2E-10, 2.6E-06, 2.3550666666666668E-05, 2E-09, 191204.58891013259
DataValue, 2.125, 1.4078400000000001E-06, -3.4E-10, 4.8000000000000006E-06, 2.3464000000000004E-05, 5.666666666666667E-09, -8333333.3333338536
DataValue, 2.15, 1.4126800000000001E-06, -1.3000000000000002E-10, -1.2000000000000002E-06, 2.3544666666666668E-05, 2.166666666666667E-09, -222057.73501110167
DataValue, 2.1750000000000003, 1.3943300000000001E-06, 2.6000000000000003E-10, -4.4E-06, 2.3238833333333335E-05, 4.3333333333333341E-09, -171232.87671233172
DataValue, 2.2, 1.3951600000000002E-06, -2.2000000000000002E-10, 2.0000000000000002E-07, 2.3252666666666672E-05, 3.6666666666666672E-09, -675675.67567567667
DataValue, 2.225, 1.3898900000000002E-06, -9.0000000000000012E-11, 1.4000000000000002E-06, 2.3164833333333336E-05, 1.5000000000000002E-09, 234741.78403755842
DataValue, 2.25, 1.4079400000000002E-06, -1.6000000000000002E-10, 2.6E-06, 2.3465666666666671E-05, 2.666666666666667E-09, -5882352.9411752755
DataValue, 2.275, 1.38938E-06, -9.0000000000000012E-11, -2.0000000000000002E-07, 2.3156333333333334E-05, 1.5000000000000002E-09, -259067.35751295064
DataValue, 2.3000000000000003, 1.39636E-06, 1.3000000000000002E-10, -3E-06, 2.3272666666666668E-05, 2.166666666666667E-09, 253164.55696202311
