
SetupTitle, MOS cap measurement
PrimitiveTest, C-V Sweep
TestParameter, Channel.UnitTyp, CMU
TestParameter, Channel.Unit, CMU1:MF
TestParameter, Channel.IName, 
TestParameter, Channel.VName, VBias
TestParameter, Channel.Mode, 
TestParameter, Channel.Func, VAR1
TestParameter, Channel.Index, 
TestParameter, Channel.Time, 
TestParameter, Measurement.Primary.Locus, Single
TestParameter, Measurement.Primary.Scale, LINEAR
TestParameter, Measurement.Primary.Start, -8
TestParameter, Measurement.Primary.Stop, 7
TestParameter, Measurement.Primary.Step, 0.015
TestParameter, Measurement.Aborting.Condition, CONTINUE AT ANY
TestParameter, Measurement.PostOutput.Value, START
TestParameter, Measurement.PostOutput.Retention, OFF
TestParameter, Measurement.Secondary.ACLevel, 0.1
TestParameter, Measurement.Secondary.FName, Freq
TestParameter, Measurement.Secondary.Frequency, 500000
TestParameter, Measurement.Bias.Source, 0
TestParameter, Measurement.ImpedanceMode.Model, Cp-G
TestParameter, Measurement.ImpedanceMode.CName, C
TestParameter, Measurement.ImpedanceMode.LName, L
TestParameter, Measurement.ImpedanceMode.GName, G
TestParameter, Measurement.ImpedanceMode.RName, R
TestParameter, Measurement.ImpedanceMode.QName, Q
TestParameter, Measurement.ImpedanceMode.DName, D
TestParameter, Measurement.ImpedanceMode.YName, Y
TestParameter, Measurement.ImpedanceMode.ZName, Z
TestParameter, Measurement.ImpedanceMode.ThName, Theta
TestParameter, Measurement.ImpedanceMode.BName, B
TestParameter, Measurement.ImpedanceMode.XName, X
TestParameter, Measurement.Monitor.Unit, CMU1:MF
TestParameter, Measurement.Monitor.RangingMode, AUTO
TestParameter, Measurement.Monitor.RangeBoundary, 50
TestParameter, Measurement.Monitor.AcMonitorSymbol, 
TestParameter, Measurement.Monitor.DcMonitorSymbol, 
TestParameter, Measurement.Timing.Hold, 0
TestParameter, Measurement.Timing.Delay, 0
TestParameter, Measurement.Adc.UnitType, Cmu, Smu
TestParameter, Measurement.Adc.HighResolution.Mode, PLC, PLC
TestParameter, Measurement.Adc.HighResolution.Coeff, 1, 20
TestParameter, Measurement.WaitTime.Source.Coeff, 1
TestParameter, Measurement.WaitTime.Source.Offset, 0
TestParameter, Measurement.WaitTime.Monitor.Coeff, 1
TestParameter, Measurement.WaitTime.Monitor.Offset, 0
TestParameter, Function.User.Name, C_density, Q_density
TestParameter, Function.User.Unit, F/cm^2, e13/cm2
TestParameter, Function.User.Definition, C/100/3.14*1e6, integ(C_density,abs(VBias))/1.6*1e6
TestParameter, Output.Graph.Enabled, true
TestParameter, Output.Graph.XAxis.Data, VBias
TestParameter, Output.Graph.XAxis.Scale, Linear
TestParameter, Output.Graph.XAxis.Left, -15
TestParameter, Output.Graph.XAxis.Right, 6
TestParameter, Output.Graph.YAxis.Data, C, G, C_density, Q_density
TestParameter, Output.Graph.YAxis.Scale, Linear, Linear, Linear, Linear
TestParameter, Output.Graph.YAxis.Bottom, 0, 0, 0, 0
TestParameter, Output.Graph.YAxis.Top, 6.9999999999999991E-11, 0.001, 1, 1
TestParameter, Output.Graph.YAxis.Group, , , , 
TestParameter, Output.List.Data, VBias, C, G, Freq
TestParameter, AutoAnalysis.Interpolation, false
TestParameter, AutoAnalysis.Line1.Enabled, false
TestParameter, AutoAnalysis.Line1.Type, 1
TestParameter, AutoAnalysis.Line1.Fix, True
TestParameter, AutoAnalysis.Line1.YAxis, 0
TestParameter, AutoAnalysis.Line1.Point1.Type, 0
TestParameter, AutoAnalysis.Line1.Point1.XY.X, 
TestParameter, AutoAnalysis.Line1.Point1.XY.Y, 
TestParameter, AutoAnalysis.Line1.Point1.Data.Var, 
TestParameter, AutoAnalysis.Line1.Point1.Data.Condition, 
TestParameter, AutoAnalysis.Line1.Point1.Data.Start, false
TestParameter, AutoAnalysis.Line1.Point1.Data.StartVar, 
TestParameter, AutoAnalysis.Line1.Point1.Data.StartCondition, 
TestParameter, AutoAnalysis.Line1.Point2.Type, 0
TestParameter, AutoAnalysis.Line1.Point2.XY.X, 
TestParameter, AutoAnalysis.Line1.Point2.XY.Y, 
TestParameter, AutoAnalysis.Line1.Point2.Data.Var, 
TestParameter, AutoAnalysis.Line1.Point2.Data.Condition, 
TestParameter, AutoAnalysis.Line1.Point2.Data.Start, false
TestParameter, AutoAnalysis.Line1.Point2.Data.StartVar, 
TestParameter, AutoAnalysis.Line1.Point2.Data.StartCondition, 
TestParameter, AutoAnalysis.Line1.GradientExpr, 0
TestParameter, AutoAnalysis.Line2.Enabled, false
TestParameter, AutoAnalysis.Line2.Type, 1
TestParameter, AutoAnalysis.Line2.Fix, True
TestParameter, AutoAnalysis.Line2.YAxis, 0
TestParameter, AutoAnalysis.Line2.Point1.Type, 0
TestParameter, AutoAnalysis.Line2.Point1.XY.X, 
TestParameter, AutoAnalysis.Line2.Point1.XY.Y, 
TestParameter, AutoAnalysis.Line2.Point1.Data.Var, 
TestParameter, AutoAnalysis.Line2.Point1.Data.Condition, 
TestParameter, AutoAnalysis.Line2.Point1.Data.Start, false
TestParameter, AutoAnalysis.Line2.Point1.Data.StartVar, 
TestParameter, AutoAnalysis.Line2.Point1.Data.StartCondition, 
TestParameter, AutoAnalysis.Line2.Point2.Type, 0
TestParameter, AutoAnalysis.Line2.Point2.XY.X, 
TestParameter, AutoAnalysis.Line2.Point2.XY.Y, 
TestParameter, AutoAnalysis.Line2.Point2.Data.Var, 
TestParameter, AutoAnalysis.Line2.Point2.Data.Condition, 
TestParameter, AutoAnalysis.Line2.Point2.Data.Start, false
TestParameter, AutoAnalysis.Line2.Point2.Data.StartVar, 
TestParameter, AutoAnalysis.Line2.Point2.Data.StartCondition, 
TestParameter, AutoAnalysis.Line2.GradientExpr, 0
TestParameter, AutoAnalysis.Marker.Enabled, false
TestParameter, AutoAnalysis.Marker.Data.Var, 
TestParameter, AutoAnalysis.Marker.Data.Condition, 
TestParameter, AutoAnalysis.Marker.Data.Start, false
TestParameter, AutoAnalysis.Marker.Data.StartVar, 
TestParameter, AutoAnalysis.Marker.Data.StartCondition, 
MetaData, TestRecord.EntryPoint, true
MetaData, TestRecord.RecordTime, 10/30/2018 13:24:24
MetaData, TestRecord.TestTarget, 
MetaData, TestRecord.IterationIndex, 8
MetaData, TestRecord.Preservation, true
MetaData, TestRecord.Flag, #
MetaData, TestRecord.Remarks, #144_Noff_trigate_W20_S50_3qt3
MetaData, TestRecord.LinkKey, 0781bbb1-90b0-4a34-ae8e-0df271cb8426
Dimension1, 1001, 1001, 1001, 1001, 1001, 1001
Dimension2, 1, 1, 1, 1, 1, 1
DataName, VBias, Freq, C, G, C_density, Q_density
DataValue, -8, 500000, 3.81865E-14, 3.91193E-09, 1.2161305732484076E-10, 0
DataValue, -7.985, 500000, 3.71992E-14, 1.15306E-09, 1.1846878980891719E-10, -1.1253836584394664E-06
DataValue, -7.97, 500000, 3.72072E-14, 7.03394E-09, 1.1849426751592354E-10, -2.2361479896496992E-06
DataValue, -7.955, 500000, 3.52215E-14, 7.39707E-09, 1.1217038216560507E-10, -3.3173885350318419E-06
DataValue, -7.94, 500000, 3.6698E-14, -4.2297E-09, 1.1687261146496817E-10, -4.3910275676751315E-06
DataValue, -7.925, 500000, 3.53465E-14, 2.05225E-09, 1.1256847133757962E-10, -5.4665326433121139E-06
DataValue, -7.91, 500000, 3.45941E-14, 2.94837E-09, 1.1017229299363059E-10, -6.5106299761146394E-06
DataValue, -7.8950000000000005, 500000, 3.13558E-14, 1.64591E-09, 9.98592356687898E-11, -7.4951527667197144E-06
DataValue, -7.88, 500000, 3.23932E-14, 2.5769E-09, 1.0316305732484076E-10, -8.4468197651273927E-06
DataValue, -7.865, 500000, 3.677E-14, 4.41258E-09, 1.1710191082802547E-10, -9.4793118033439324E-06
DataValue, -7.8500000000000005, 500000, 3.13274E-14, 1.34476E-08, 9.9768789808917176E-11, -1.0495893212579581E-05
DataValue, -7.835, 500000, 3.47194E-14, -1.3434199999999999E-09, 1.1057133757961781E-10, -1.1481862559713375E-05
DataValue, -7.82, 500000, 3.2760599999999997E-14, 4.76137E-09, 1.0433312101910826E-10, -1.2489227209394882E-05
DataValue, -7.8050000000000006, 500000, 3.2309299999999997E-14, -3.80044E-09, 1.0289585987261144E-10, -1.3460613057324798E-05
DataValue, -7.79, 500000, 3.53458E-14, -4.51094E-10, 1.1256624203821657E-10, -1.4470591660031842E-05
DataValue, -7.775, 500000, 3.1861E-14, -9.97872E-10, 1.0146815286624204E-10, -1.547387788614647E-05
DataValue, -7.76, 500000, 3.47027E-14, 6.58391E-09, 1.1051815286624204E-10, -1.6467563694267526E-05
DataValue, -7.745, 500000, 3.44365E-14, 4.57798E-09, 1.096703821656051E-10, -1.7499697452229288E-05
DataValue, -7.73, 500000, 3.39388E-14, 1.14338E-08, 1.0808535031847132E-10, -1.8520427448248376E-05
DataValue, -7.715, 500000, 3.32426E-14, 9.44891E-09, 1.0586815286624203E-10, -1.9523334494426758E-05
DataValue, -7.7, 500000, 3.4133499999999997E-14, 6.76428E-09, 1.0870541401273883E-10, -2.052914808917196E-05
DataValue, -7.6850000000000005, 500000, 3.4033599999999997E-14, -1.13151E-08, 1.083872611464968E-10, -2.1546770003980855E-05
DataValue, -7.67, 500000, 3.05001E-14, -5.60351E-09, 9.7134076433121015E-11, -2.2510151273885352E-05
DataValue, -7.655, 500000, 3.38481E-14, 3.78487E-09, 1.0779649681528661E-10, -2.3470763335987241E-05
DataValue, -7.6400000000000006, 500000, 3.42274E-14, 3.34674E-09, 1.090044585987261E-10, -2.4487017814490407E-05
DataValue, -7.625, 500000, 3.41731E-14, 1.27047E-08, 1.0883152866242038E-10, -2.5508124004777066E-05
DataValue, -7.61, 500000, 3.5616E-14, -6.47175E-09, 1.1342675159235669E-10, -2.6549959693471311E-05
DataValue, -7.595, 500000, 3.35902E-14, 8.87178E-09, 1.069751592356688E-10, -2.758309365047772E-05
DataValue, -7.58, 500000, 2.9669499999999997E-14, 1.00745E-08, 9.44888535031847E-11, -2.8527456210191077E-05
DataValue, -7.565, 500000, 3.30737E-14, -6.44491E-09, 1.0533025477707007E-10, -2.9464108280254752E-05
DataValue, -7.55, 500000, 3.30457E-14, 6.4295E-09, 1.0524108280254776E-10, -3.0451161425159247E-05
DataValue, -7.535, 500000, 3.67571E-14, 3.41923E-09, 1.170608280254777E-10, -3.1493201632165593E-05
DataValue, -7.5200000000000005, 500000, 3.25721E-14, 9.17258E-09, 1.037328025477707E-10, -3.2528171775477676E-05
DataValue, -7.505, 500000, 3.3033799999999997E-14, -1.3617E-08, 1.0520318471337578E-10, -3.3507559215764335E-05
DataValue, -7.49, 500000, 2.84402E-14, 1.07754E-09, 9.0573885350318464E-11, -3.4425264231687884E-05
DataValue, -7.4750000000000005, 500000, 3.13806E-14, -4.29207E-11, 9.9938216560509548E-11, -3.5318289709394871E-05
DataValue, -7.46, 500000, 3.0077E-14, -3.17852E-09, 9.5786624203821648E-11, -3.6235749900477707E-05
DataValue, -7.445, 500000, 3.32464E-14, 2.8977200000000004E-10, 1.0588025477707007E-10, -3.7181063395700617E-05
DataValue, -7.43, 500000, 3.59973E-14, 2.42478E-10, 1.1464108280254776E-10, -3.8214757165605114E-05
DataValue, -7.415, 500000, 3.62116E-14, -2.36079E-09, 1.1532356687898089E-10, -3.9292716460987261E-05
DataValue, -7.4, 500000, 3.3560499999999996E-14, -7.24094E-09, 1.0688057324840764E-10, -4.033429836783437E-05
DataValue, -7.385, 500000, 3.26587E-14, 1.9404E-09, 1.0400859872611464E-10, -4.1322841361464984E-05
DataValue, -7.37, 500000, 3.12903E-14, -6.63876E-09, 9.9650636942675155E-11, -4.2277494028662409E-05
DataValue, -7.355, 500000, 3.4452899999999996E-14, -4.68046E-09, 1.0972261146496815E-10, -4.3258931130573217E-05
DataValue, -7.34, 500000, 2.93596E-14, 9.81701E-09, 9.3501910828025465E-11, -4.4211546078821662E-05
DataValue, -7.325, 500000, 3.1232699999999997E-14, 1.41432E-08, 9.9467197452229293E-11, -4.5116088773885337E-05
DataValue, -7.3100000000000005, 500000, 2.97496E-14, 2.24626E-09, 9.474394904458599E-11, -4.6026453523089136E-05
DataValue, -7.295, 500000, 3.49849E-14, -1.97992E-09, 1.1141687898089172E-10, -4.6992832404458608E-05
DataValue, -7.28, 500000, 3.05583E-14, -7.3608E-10, 9.7319426751592368E-11, -4.7971283837579605E-05
DataValue, -7.2650000000000006, 500000, 3.51828E-14, 4.67526E-09, 1.1204713375796179E-10, -4.8952689589968124E-05
DataValue, -7.25, 500000, 3.3327E-14, -5.45222E-09, 1.0613694267515923E-10, -4.9975427448248423E-05
DataValue, -7.235, 500000, 3.29878E-14, 3.07198E-09, 1.0505668789808916E-10, -5.0965397591560495E-05
DataValue, -7.22, 500000, 3.09324E-14, 2.68018E-09, 9.85108280254777E-11, -5.1919620322452254E-05
DataValue, -7.205, 500000, 3.24688E-14, 1.54356E-09, 1.0340382165605096E-10, -5.286609524283439E-05
DataValue, -7.19, 500000, 3.8154299999999996E-14, 1.66695E-09, 1.2151050955414011E-10, -5.3920381170382142E-05
DataValue, -7.175, 500000, 3.36009E-14, 1.73916E-09, 1.0700923566878981E-10, -5.4991567476114658E-05
DataValue, -7.16, 500000, 3.1271399999999996E-14, -6.38043E-09, 9.95904458598726E-11, -5.5960003483280246E-05
DataValue, -7.1450000000000005, 500000, 3.4085899999999996E-14, -5.39469E-09, 1.0855382165605093E-10, -5.6935679737261116E-05
DataValue, -7.13, 500000, 3.24537E-14, -7.57568E-09, 1.0335573248407643E-10, -5.7929005772293E-05
DataValue, -7.115, 500000, 3.32251E-14, 1.49127E-08, 1.0581242038216559E-10, -5.8909481488853489E-05
DataValue, -7.1000000000000005, 500000, 3.45484E-14, -2.25686E-09, 1.1002675159235669E-10, -5.9921227607484039E-05
DataValue, -7.085, 500000, 3.3105799999999996E-14, -4.91519E-09, 1.0543248407643311E-10, -6.0931192774681536E-05
DataValue, -7.07, 500000, 3.52938E-14, -5.17946E-09, 1.1240063694267514E-10, -6.195228552945859E-05
DataValue, -7.055, 500000, 3.1487599999999997E-14, -1.99025E-09, 1.0027898089171973E-10, -6.2949221238057344E-05
DataValue, -7.04, 500000, 3.62042E-14, -6.41377E-09, 1.1529999999999999E-10, -6.3959747710987271E-05
DataValue, -7.025, 500000, 3.29636E-14, 6.96616E-09, 1.049796178343949E-10, -6.4992308419585976E-05
DataValue, -7.01, 500000, 3.24839E-14, 1.0504000000000001E-08, 1.0345191082802547E-10, -6.59693312101911E-05
DataValue, -6.995, 500000, 3.18092E-14, -5.3885E-09, 1.0130318471337579E-10, -6.69291207205414E-05
DataValue, -6.98, 500000, 3.24E-14, 4.22591E-09, 1.0318471337579618E-10, -6.7887657742834369E-05
DataValue, -6.965, 500000, 3.6759699999999997E-14, -9.99147E-09, 1.1706910828025475E-10, -6.8920097531847139E-05
DataValue, -6.95, 500000, 3.73753E-14, -2.04614E-09, 1.190296178343949E-10, -7.0026810310509538E-05
DataValue, -6.9350000000000005, 500000, 3.75077E-14, -3.7154E-09, 1.1945127388535032E-10, -7.1144689490445825E-05
DataValue, -6.92, 500000, 3.17034E-14, 8.5026E-10, 1.0096624203821656E-10, -7.217789659633759E-05
DataValue, -6.905, 500000, 2.8346699999999998E-14, 5.9057E-09, 9.0276114649681524E-11, -7.3074345143312082E-05
DataValue, -6.8900000000000006, 500000, 3.44317E-14, 1.01609E-08, 1.0965509554140127E-10, -7.4011522691082765E-05
DataValue, -6.875, 500000, 3.46076E-14, 5.98813E-09, 1.1021528662420383E-10, -7.5042165107484072E-05
DataValue, -6.86, 500000, 3.52619E-14, -6.23236E-09, 1.1229904458598725E-10, -7.608520103503183E-05
DataValue, -6.845, 500000, 3.35562E-14, 3.08794E-10, 1.0686687898089172E-10, -7.7112541301751608E-05
DataValue, -6.83, 500000, 3.33928E-14, 3.74638E-09, 1.0634649681528662E-10, -7.8111979000796173E-05
DataValue, -6.815, 500000, 3.34986E-14, -2.45267E-09, 1.0668343949044586E-10, -7.911055682722927E-05
DataValue, -6.8, 500000, 3.29381E-14, 6.23111E-09, 1.0489840764331209E-10, -8.0102346735668809E-05
DataValue, -6.785, 500000, 3.35697E-14, 3.1896E-09, 1.0690987261146496E-10, -8.1095198049363051E-05
DataValue, -6.7700000000000005, 500000, 3.45986E-14, -3.72721E-09, 1.1018662420382166E-10, -8.2112837878184683E-05
DataValue, -6.755, 500000, 3.33405E-14, -2.19396E-09, 1.0617993630573247E-10, -8.3127056130573258E-05
DataValue, -6.74, 500000, 3.2365699999999997E-14, -5.42974E-09, 1.0307547770700635E-10, -8.4107940883757949E-05
DataValue, -6.7250000000000005, 500000, 3.2605E-14, -9.18536E-09, 1.0383757961783439E-10, -8.50778458399681E-05
DataValue, -6.71, 500000, 3.06596E-14, -4.5820300000000006E-10, 9.764203821656051E-11, -8.6022281548566874E-05
DataValue, -6.695, 500000, 3.35905E-14, 9.88506E-09, 1.0697611464968152E-10, -8.698142914012735E-05
DataValue, -6.68, 500000, 3.44058E-14, 7.85628E-09, 1.0957261146496815E-10, -8.79965012937898E-05
DataValue, -6.665, 500000, 3.57843E-14, 7.41538E-09, 1.139627388535032E-10, -8.9044323248407625E-05
DataValue, -6.65, 500000, 3.293E-14, -3.054E-10, 1.0487261146496815E-10, -9.0070113953025438E-05
DataValue, -6.635, 500000, 3.21427E-14, -1.1409300000000001E-08, 1.0236528662420383E-10, -9.1041541600318478E-05
DataValue, -6.62, 500000, 3.12219E-14, -2.30742E-09, 9.9432802547770687E-11, -9.1987470143312084E-05
DataValue, -6.605, 500000, 3.34843E-14, 1.46934E-08, 1.0663789808917199E-10, -9.2953426552547735E-05
DataValue, -6.59, 500000, 3.59895E-14, -5.04231E-09, 1.1461624203821656E-10, -9.3990555334394911E-05
DataValue, -6.575, 500000, 3.46785E-14, 1.07761E-08, 1.1044108280254777E-10, -9.5045511544585956E-05
DataValue, -6.5600000000000005, 500000, 3.42786E-14, 5.393E-09, 1.0916751592356687E-10, -9.60749268511146E-05
DataValue, -6.545, 500000, 3.26656E-14, 4.18546E-09, 1.0403057324840764E-10, -9.7074292894108272E-05
DataValue, -6.53, 500000, 3.57498E-14, -2.99528E-09, 1.1385286624203819E-10, -9.8095621516719724E-05
DataValue, -6.5150000000000006, 500000, 3.51443E-14, 2.78792E-09, 1.1192452229299363E-10, -9.9153953025477671E-05
DataValue, -6.5, 500000, 3.17652E-14, -4.33539E-09, 1.0116305732484074E-10, -0.0001001528010549363
DataValue, -6.485, 500000, 3.62904E-14, 7.83121E-09, 1.1557452229299362E-10, -0.00010116875845939486
DataValue, -6.47, 500000, 3.7471299999999997E-14, 1.98675E-09, 1.1933535031847135E-10, -0.00010226989848726116
DataValue, -6.455, 500000, 3.5055E-14, 4.64025E-11, 1.1164012738853502E-10, -0.00010335259603901272
DataValue, -6.44, 500000, 3.57298E-14, -6.71047E-09, 1.137891719745223E-10, -0.00010440929587977704
DataValue, -6.425, 500000, 3.33931E-14, 5.13714E-09, 1.0634745222929935E-10, -0.00010544118630573247
DataValue, -6.41, 500000, 3.37686E-14, 1.33615E-08, 1.0754331210191081E-10, -0.00010644379926353502
DataValue, -6.3950000000000005, 500000, 3.4615E-14, 9.94185E-09, 1.1023885350318471E-10, -0.00010746465316480889
DataValue, -6.38, 500000, 3.7707099999999996E-14, 8.14515E-09, 1.2008630573248407E-10, -0.00010854430234872612
DataValue, -6.365, 500000, 3.82553E-14, 1.15011E-09, 1.2183216560509553E-10, -0.000109678295183121
DataValue, -6.3500000000000005, 500000, 3.41135E-14, 3.10864E-09, 1.0864171974522294E-10, -0.0001107586415207006
DataValue, -6.335, 500000, 3.64422E-14, 7.89039E-09, 1.1605796178343949E-10, -0.00011181192127786626
DataValue, -6.32, 500000, 3.62067E-14, 2.48696E-09, 1.1530796178343948E-10, -0.00011289644904458596
DataValue, -6.305, 500000, 3.14452E-14, 4.7252E-09, 1.0014394904458598E-10, -0.00011390637987659237
DataValue, -6.29, 500000, 3.53909E-14, 2.82697E-09, 1.1270987261146495E-10, -0.00011490413216560509
DataValue, -6.275, 500000, 3.48959E-14, -3.50949E-09, 1.1113343949044586E-10, -0.00011595339769108278
DataValue, -6.26, 500000, 3.2574E-14, -7.11905E-09, 1.0373885350318471E-10, -0.00011696061156449046
DataValue, -6.245, 500000, 3.22647E-14, -5.01224E-09, 1.0275382165605095E-10, -0.00011792854597929934
DataValue, -6.23, 500000, 3.4265E-14, 1.83668E-09, 1.0912420382165605E-10, -0.0001189217242237261
DataValue, -6.215, 500000, 3.41881E-14, -1.83865E-09, 1.0887929936305731E-10, -0.00011994361564490447
DataValue, -6.2, 500000, 3.56799E-14, -4.00834E-09, 1.1363025477707007E-10, -0.00012098662917993628
DataValue, -6.1850000000000005, 500000, 3.51172E-14, -3.76837E-09, 1.1183821656050954E-10, -0.00012204351263933117
DataValue, -6.17, 500000, 3.68842E-14, 5.4454E-09, 1.174656050955414E-10, -0.00012311837430334396
DataValue, -6.155, 500000, 3.88432E-14, 1.35199E-10, 1.2370445859872612E-10, -0.00012424885897691082
DataValue, -6.1400000000000006, 500000, 3.5674899999999996E-14, 7.5993300000000011E-10, 1.1361433121019106E-10, -0.00012536129080414007
DataValue, -6.125, 500000, 3.51048E-14, -2.87429E-09, 1.1179872611464966E-10, -0.00012641791451035032
DataValue, -6.11, 500000, 3.33439E-14, 1.00645E-08, 1.0619076433121019E-10, -0.00012743974024681523
DataValue, -6.095, 500000, 3.3260099999999996E-14, 4.18384E-09, 1.0592388535031844E-10, -0.00012843402766719744
DataValue, -6.08, 500000, 3.67362E-14, -3.63378E-09, 1.1699426751592355E-10, -0.00012947895650875795
DataValue, -6.065, 500000, 3.59226E-14, 4.23613E-09, 1.1440318471337579E-10, -0.00013056363206608276
DataValue, -6.05, 500000, 3.55678E-14, 2.0119E-09, 1.1327324840764332E-10, -0.00013163086534633759
DataValue, -6.035, 500000, 3.72321E-14, 5.80205E-09, 1.1857356687898087E-10, -0.00013271764729299362
DataValue, -6.0200000000000005, 500000, 3.87257E-14, -1.2619500000000001E-08, 1.2333025477707004E-10, -0.00013385157145700633
