
SetupTitle, MOS cap measurement
PrimitiveTest, C-V Sweep
TestParameter, Channel.UnitTyp, CMU
TestParameter, Channel.Unit, CMU1:MF
TestParameter, Channel.IName, 
TestParameter, Channel.VName, VBias
TestParameter, Channel.Mode, 
TestParameter, Channel.Func, VAR1
TestParameter, Channel.Index, 
TestParameter, Channel.Time, 
TestParameter, Measurement.Primary.Locus, Single
TestParameter, Measurement.Primary.Scale, LINEAR
TestParameter, Measurement.Primary.Start, -10
TestParameter, Measurement.Primary.Stop, 0
TestParameter, Measurement.Primary.Step, 0.025
TestParameter, Measurement.Aborting.Condition, CONTINUE AT ANY
TestParameter, Measurement.PostOutput.Value, START
TestParameter, Measurement.PostOutput.Retention, OFF
TestParameter, Measurement.Secondary.ACLevel, 0.1
TestParameter, Measurement.Secondary.FName, Freq
TestParameter, Measurement.Secondary.Frequency, 1000000
TestParameter, Measurement.Bias.Source, 0
TestParameter, Measurement.ImpedanceMode.Model, Cp-G
TestParameter, Measurement.ImpedanceMode.CName, C
TestParameter, Measurement.ImpedanceMode.LName, L
TestParameter, Measurement.ImpedanceMode.GName, G
TestParameter, Measurement.ImpedanceMode.RName, R
TestParameter, Measurement.ImpedanceMode.QName, Q
TestParameter, Measurement.ImpedanceMode.DName, D
TestParameter, Measurement.ImpedanceMode.YName, Y
TestParameter, Measurement.ImpedanceMode.ZName, Z
TestParameter, Measurement.ImpedanceMode.ThName, Theta
TestParameter, Measurement.ImpedanceMode.BName, B
TestParameter, Measurement.ImpedanceMode.XName, X
TestParameter, Measurement.Monitor.Unit, CMU1:MF
TestParameter, Measurement.Monitor.RangingMode, AUTO
TestParameter, Measurement.Monitor.RangeBoundary, 50
TestParameter, Measurement.Monitor.AcMonitorSymbol, 
TestParameter, Measurement.Monitor.DcMonitorSymbol, 
TestParameter, Measurement.Timing.Hold, 0
TestParameter, Measurement.Timing.Delay, 0
TestParameter, Measurement.Adc.UnitType, Cmu, Smu
TestParameter, Measurement.Adc.HighResolution.Mode, PLC, AUTO
TestParameter, Measurement.Adc.HighResolution.Coeff, 1, 10
TestParameter, Measurement.WaitTime.Source.Coeff, 1
TestParameter, Measurement.WaitTime.Source.Offset, 0
TestParameter, Measurement.WaitTime.Monitor.Coeff, 1
TestParameter, Measurement.WaitTime.Monitor.Offset, 0
TestParameter, Function.User.Name, C_density, Q_density
TestParameter, Function.User.Unit, F/cm^2, e13/cm2
TestParameter, Function.User.Definition, C/25/3.14*1e6, integ(C_density,abs(VBias))/1.6*1e6
TestParameter, Output.Graph.Enabled, true
TestParameter, Output.Graph.XAxis.Data, VBias
TestParameter, Output.Graph.XAxis.Scale, Linear
TestParameter, Output.Graph.XAxis.Left, -15
TestParameter, Output.Graph.XAxis.Right, 6
TestParameter, Output.Graph.YAxis.Data, C, G, C_density, Q_density
TestParameter, Output.Graph.YAxis.Scale, Linear, Linear, Linear, Linear
TestParameter, Output.Graph.YAxis.Bottom, 0, 0, 0, 0
TestParameter, Output.Graph.YAxis.Top, 6.9999999999999991E-11, 0.001, 1, 1
TestParameter, Output.Graph.YAxis.Group, , , , 
TestParameter, Output.List.Data, VBias, C, G, Freq
TestParameter, AutoAnalysis.Interpolation, false
TestParameter, AutoAnalysis.Line1.Enabled, false
TestParameter, AutoAnalysis.Line1.Type, 1
TestParameter, AutoAnalysis.Line1.Fix, True
TestParameter, AutoAnalysis.Line1.YAxis, 0
TestParameter, AutoAnalysis.Line1.Point1.Type, 0
TestParameter, AutoAnalysis.Line1.Point1.XY.X, 
TestParameter, AutoAnalysis.Line1.Point1.XY.Y, 
TestParameter, AutoAnalysis.Line1.Point1.Data.Var, 
TestParameter, AutoAnalysis.Line1.Point1.Data.Condition, 
TestParameter, AutoAnalysis.Line1.Point1.Data.Start, false
TestParameter, AutoAnalysis.Line1.Point1.Data.StartVar, 
TestParameter, AutoAnalysis.Line1.Point1.Data.StartCondition, 
TestParameter, AutoAnalysis.Line1.Point2.Type, 0
TestParameter, AutoAnalysis.Line1.Point2.XY.X, 
TestParameter, AutoAnalysis.Line1.Point2.XY.Y, 
TestParameter, AutoAnalysis.Line1.Point2.Data.Var, 
TestParameter, AutoAnalysis.Line1.Point2.Data.Condition, 
TestParameter, AutoAnalysis.Line1.Point2.Data.Start, false
TestParameter, AutoAnalysis.Line1.Point2.Data.StartVar, 
TestParameter, AutoAnalysis.Line1.Point2.Data.StartCondition, 
TestParameter, AutoAnalysis.Line1.GradientExpr, 0
TestParameter, AutoAnalysis.Line2.Enabled, false
TestParameter, AutoAnalysis.Line2.Type, 1
TestParameter, AutoAnalysis.Line2.Fix, True
TestParameter, AutoAnalysis.Line2.YAxis, 0
TestParameter, AutoAnalysis.Line2.Point1.Type, 0
TestParameter, AutoAnalysis.Line2.Point1.XY.X, 
TestParameter, AutoAnalysis.Line2.Point1.XY.Y, 
TestParameter, AutoAnalysis.Line2.Point1.Data.Var, 
TestParameter, AutoAnalysis.Line2.Point1.Data.Condition, 
TestParameter, AutoAnalysis.Line2.Point1.Data.Start, false
TestParameter, AutoAnalysis.Line2.Point1.Data.StartVar, 
TestParameter, AutoAnalysis.Line2.Point1.Data.StartCondition, 
TestParameter, AutoAnalysis.Line2.Point2.Type, 0
TestParameter, AutoAnalysis.Line2.Point2.XY.X, 
TestParameter, AutoAnalysis.Line2.Point2.XY.Y, 
TestParameter, AutoAnalysis.Line2.Point2.Data.Var, 
TestParameter, AutoAnalysis.Line2.Point2.Data.Condition, 
TestParameter, AutoAnalysis.Line2.Point2.Data.Start, false
TestParameter, AutoAnalysis.Line2.Point2.Data.StartVar, 
TestParameter, AutoAnalysis.Line2.Point2.Data.StartCondition, 
TestParameter, AutoAnalysis.Line2.GradientExpr, 0
TestParameter, AutoAnalysis.Marker.Enabled, false
TestParameter, AutoAnalysis.Marker.Data.Var, 
TestParameter, AutoAnalysis.Marker.Data.Condition, 
TestParameter, AutoAnalysis.Marker.Data.Start, false
TestParameter, AutoAnalysis.Marker.Data.StartVar, 
TestParameter, AutoAnalysis.Marker.Data.StartCondition, 
MetaData, TestRecord.EntryPoint, true
MetaData, TestRecord.RecordTime, 03/01/2019 08:58:09
MetaData, TestRecord.TestTarget, 
MetaData, TestRecord.IterationIndex, 3
MetaData, TestRecord.Preservation, true
MetaData, TestRecord.Flag, #
MetaData, TestRecord.Remarks, #188_Diode_bridge_capacitance_diode_W200_S100_L15_R6
MetaData, TestRecord.LinkKey, 509a9676-e17f-4334-82fd-85748f1f7b86
Dimension1, 401, 401, 401, 401, 401, 401
Dimension2, 1, 1, 1, 1, 1, 1
DataName, VBias, Freq, C, G, C_density, Q_density
DataValue, -10, 1000000, 6.93339E-12, 8.36665E-07, 8.8323439490445861E-08, 0
DataValue, -9.975, 1000000, 6.9222200000000008E-12, 8.25447E-07, 8.8181146496815291E-08, -0.0013789420780254971
DataValue, -9.9500000000000011, 1000000, 6.9143300000000005E-12, 8.17377E-07, 8.8080636942675166E-08, -0.0027559872611464383
DataValue, -9.925, 1000000, 6.90919E-12, 8.12746E-07, 8.8015159235668778E-08, -0.0041317356687897693
DataValue, -9.9, 1000000, 6.9046300000000006E-12, 8.06118E-07, 8.7957070063694271E-08, -0.0055065187101910633
DataValue, -9.875, 1000000, 6.90151E-12, 8.01397E-07, 8.7917324840764337E-08, -0.0068805374203821656
DataValue, -9.85, 1000000, 6.8983400000000007E-12, 8.00128E-07, 8.787694267515923E-08, -0.0082539301353503382
DataValue, -9.8250000000000011, 1000000, 6.89604E-12, 7.98512E-07, 8.7847643312101911E-08, -0.0096267784633757379
DataValue, -9.8, 1000000, 6.8937700000000008E-12, 7.96563E-07, 8.78187261146497E-08, -0.010999171974522253
DataValue, -9.775, 1000000, 6.89241E-12, 7.93303E-07, 8.7801401273885356E-08, -0.012371204219745205
DataValue, -9.75, 1000000, 6.89004E-12, 7.91968E-07, 8.77712101910828E-08, -0.013742865246815287
DataValue, -9.725, 1000000, 6.8888900000000005E-12, 7.90031E-07, 8.7756560509554151E-08, -0.015114175955414033
DataValue, -9.7000000000000011, 1000000, 6.8874000000000007E-12, 7.9006099999999994E-07, 8.77375796178344E-08, -0.016485223925159175
DataValue, -9.675, 1000000, 6.88627E-12, 7.83802E-07, 8.77231847133758E-08, -0.017856011146496778
DataValue, -9.65, 1000000, 6.88572E-12, 7.86216E-07, 8.7716178343949057E-08, -0.019226631170382147
DataValue, -9.625, 1000000, 6.88448E-12, 7.84696E-07, 8.77003821656051E-08, -0.020597073049363059
DataValue, -9.6, 1000000, 6.8839700000000006E-12, 7.8144199999999994E-07, 8.7693885350318478E-08, -0.021967340764331232
DataValue, -9.5750000000000011, 1000000, 6.88305E-12, 7.8200199999999994E-07, 8.7682165605095555E-08, -0.023337466162420328
DataValue, -9.55, 1000000, 6.88196E-12, 7.84517E-07, 8.7668280254777066E-08, -0.0247073915207006
DataValue, -9.525, 1000000, 6.8819900000000006E-12, 7.83087E-07, 8.7668662420382181E-08, -0.0260772113853503
DataValue, -9.5, 1000000, 6.8814600000000009E-12, 7.8260399999999993E-07, 8.7661910828025474E-08, -0.027446981488853505
DataValue, -9.475, 1000000, 6.8814500000000007E-12, 7.8281899999999994E-07, 8.7661783439490458E-08, -0.028816697850318495
DataValue, -9.4500000000000011, 1000000, 6.88058E-12, 7.80846E-07, 8.7650700636942669E-08, -0.030186326632165552
DataValue, -9.425, 1000000, 6.8804100000000006E-12, 7.79016E-07, 8.7648535031847142E-08, -0.031555851910827992
DataValue, -9.4, 1000000, 6.8805700000000008E-12, 7.77699E-07, 8.765057324840764E-08, -0.032925376194267504
DataValue, -9.375, 1000000, 6.8800000000000006E-12, 7.77419E-07, 8.7643312101910841E-08, -0.03429485967356688
DataValue, -9.35, 1000000, 6.87943E-12, 7.79541E-07, 8.7636050955414E-08, -0.035664229697452254
DataValue, -9.3250000000000011, 1000000, 6.87916E-12, 7.77228E-07, 8.7632611464968155E-08, -0.03703351612261141
DataValue, -9.3, 1000000, 6.8797200000000005E-12, 7.78074E-07, 8.7639745222929937E-08, -0.038402831409235637
DataValue, -9.275, 1000000, 6.87957E-12, 7.7828899999999994E-07, 8.7637834394904455E-08, -0.039772187499999993
DataValue, -9.25, 1000000, 6.8798900000000009E-12, 7.7591099999999994E-07, 8.7641910828025478E-08, -0.04114156050955415
DataValue, -9.225, 1000000, 6.8800200000000008E-12, 7.75499E-07, 8.76435668789809E-08, -0.042510978304140155
DataValue, -9.2000000000000011, 1000000, 6.8798800000000008E-12, 7.7768699999999994E-07, 8.7641783439490461E-08, -0.043880395103503132
DataValue, -9.175, 1000000, 6.8794400000000004E-12, 7.75684E-07, 8.7636178343949046E-08, -0.045249754179936277
DataValue, -9.15, 1000000, 6.8799E-12, 7.75607E-07, 8.76420382165605E-08, -0.046619115246815279
DataValue, -9.125, 1000000, 6.8804000000000004E-12, 7.77794E-07, 8.76484076433121E-08, -0.047988571855095558
DataValue, -9.1, 1000000, 6.87964E-12, 7.76304E-07, 8.7638726114649688E-08, -0.049358002587579657
DataValue, -9.0750000000000011, 1000000, 6.8805700000000008E-12, 7.78104E-07, 8.765057324840764E-08, -0.050727450238853465
DataValue, -9.05, 1000000, 6.8809000000000007E-12, 7.76983E-07, 8.76547770700637E-08, -0.052097023288216533
DataValue, -9.025, 1000000, 6.8808100000000004E-12, 7.76465E-07, 8.7653630573248413E-08, -0.053466620222929938
DataValue, -9, 1000000, 6.88121E-12, 7.72579E-07, 8.7658726114649684E-08, -0.054836248009554153
DataValue, -8.975, 1000000, 6.88108E-12, 7.74689E-07, 8.7657070063694275E-08, -0.056205902667197494
DataValue, -8.9500000000000011, 1000000, 6.8816400000000006E-12, 7.78897E-07, 8.7664203821656057E-08, -0.057575600119426716
DataValue, -8.925, 1000000, 6.8816400000000006E-12, 7.7691199999999994E-07, 8.7664203821656057E-08, -0.0589453533041401
DataValue, -8.9, 1000000, 6.88188E-12, 7.7808E-07, 8.7667261146496817E-08, -0.060315130374203822
DataValue, -8.875, 1000000, 6.8825E-12, 7.7696E-07, 8.7675159235668776E-08, -0.061684993033439509
DataValue, -8.85, 1000000, 6.88354E-12, 7.76787E-07, 8.76884076433121E-08, -0.063055020899681555
DataValue, -8.8250000000000011, 1000000, 6.88338E-12, 7.75809E-07, 8.76863694267516E-08, -0.064425136345541353
DataValue, -8.8, 1000000, 6.8836300000000006E-12, 7.77836E-07, 8.76895541401274E-08, -0.065795260748407622
DataValue, -8.775, 1000000, 6.88393E-12, 7.76811E-07, 8.7693375796178333E-08, -0.067165439888535031
DataValue, -8.75, 1000000, 6.8847400000000008E-12, 7.79189E-07, 8.7703694267515918E-08, -0.068535729498407652
DataValue, -8.725, 1000000, 6.8855600000000008E-12, 7.78885E-07, 8.7714140127388533E-08, -0.069906181329617872
DataValue, -8.7000000000000011, 1000000, 6.8864200000000005E-12, 7.77794E-07, 8.7725095541401292E-08, -0.071276800358280212
DataValue, -8.675, 1000000, 6.8866E-12, 7.78313E-07, 8.7727388535031848E-08, -0.072647522890127367
DataValue, -8.65, 1000000, 6.88769E-12, 7.74522E-07, 8.7741273885350311E-08, -0.074018371815286615
DataValue, -8.625, 1000000, 6.88769E-12, 7.78509E-07, 8.7741273885350311E-08, -0.075389329219745227
DataValue, -8.6, 1000000, 6.8881500000000007E-12, 7.80798E-07, 8.77471337579618E-08, -0.07676033240445862
DataValue, -8.5750000000000011, 1000000, 6.88859E-12, 7.7991E-07, 8.7752738853503188E-08, -0.078131425159235615
DataValue, -8.55, 1000000, 6.8892200000000004E-12, 7.79308E-07, 8.776076433121019E-08, -0.07950262440286622
DataValue, -8.525, 1000000, 6.8901200000000005E-12, 7.8199E-07, 8.7772229299363053E-08, -0.080873975915605079
DataValue, -8.5, 1000000, 6.8913600000000006E-12, 7.7786E-07, 8.7788025477707011E-08, -0.082245540406050949
DataValue, -8.475, 1000000, 6.8914300000000007E-12, 7.7808E-07, 8.7788917197452217E-08, -0.083617235270700654
DataValue, -8.45, 1000000, 6.89249E-12, 7.8100099999999994E-07, 8.78024203821656E-08, -0.084989042595541436
DataValue, -8.425, 1000000, 6.8934200000000007E-12, 7.8010699999999993E-07, 8.781426751592357E-08, -0.0863610479697452
DataValue, -8.4, 1000000, 6.89399E-12, 7.78932E-07, 8.7821528662420368E-08, -0.087733202627388526
DataValue, -8.375, 1000000, 6.8950400000000005E-12, 7.8337899999999994E-07, 8.7834904458598727E-08, -0.089105518511146523
DataValue, -8.35, 1000000, 6.89556E-12, 7.82449E-07, 8.7841528662420378E-08, -0.0904779906449045
DataValue, -8.325, 1000000, 6.89673E-12, 7.83808E-07, 8.7856433121019116E-08, -0.091850630971337638
DataValue, -8.3, 1000000, 6.8977200000000006E-12, 7.82753E-07, 8.7869044585987284E-08, -0.093223486265923555
DataValue, -8.275, 1000000, 6.8986100000000006E-12, 7.86514E-07, 8.78803821656051E-08, -0.094596528662420382
DataValue, -8.25, 1000000, 6.89941E-12, 7.80709E-07, 8.7890573248407634E-08, -0.095969739251592384
DataValue, -8.225, 1000000, 6.9004700000000008E-12, 7.82264E-07, 8.7904076433121022E-08, -0.097343134952229335
DataValue, -8.2, 1000000, 6.9013500000000007E-12, 7.85209E-07, 8.7915286624203826E-08, -0.0987167237261147
DataValue, -8.175, 1000000, 6.9024500000000007E-12, 7.87778E-07, 8.7929299363057319E-08, -0.1000905095541401
DataValue, -8.15, 1000000, 6.90363E-12, 7.8838E-07, 8.7944331210191073E-08, -0.10146452229299362
DataValue, -8.125, 1000000, 6.9047000000000007E-12, 7.87843E-07, 8.795796178343949E-08, -0.10283875895700639
DataValue, -8.1, 1000000, 6.9058700000000007E-12, 7.87617E-07, 8.7972866242038215E-08, -0.10421321855095544
DataValue, -8.075, 1000000, 6.9075200000000008E-12, 7.87599E-07, 8.7993885350318487E-08, -0.10558795879777076
DataValue, -8.05, 1000000, 6.9085E-12, 7.90096E-07, 8.80063694267516E-08, -0.10696296078821654
DataValue, -8.025, 1000000, 6.9098200000000005E-12, 7.93625E-07, 8.8023184713375793E-08, -0.10833819167993632
DataValue, -8, 1000000, 6.91097E-12, 7.92123E-07, 8.8037834394904459E-08, -0.10971366839171978
DataValue, -7.9750000000000005, 1000000, 6.9123800000000009E-12, 7.93893E-07, 8.8055796178343957E-08, -0.11108939988057326
DataValue, -7.95, 1000000, 6.9143300000000005E-12, 7.95764E-07, 8.8080636942675166E-08, -0.11246546576433124
DataValue, -7.925, 1000000, 6.9158000000000009E-12, 7.94024E-07, 8.8099363057324854E-08, -0.11384187201433126
DataValue, -7.9, 1000000, 6.91691E-12, 7.96569E-07, 8.8113503184713376E-08, -0.11521853503184716
DataValue, -7.875, 1000000, 6.9189900000000006E-12, 7.97857E-07, 8.814000000000002E-08, -0.11659551552547776
DataValue, -7.8500000000000005, 1000000, 6.9206900000000005E-12, 7.9589E-07, 8.8161656050955426E-08, -0.11797287221337582
DataValue, -7.825, 1000000, 6.9224300000000008E-12, 7.99829E-07, 8.818382165605095E-08, -0.11935057125796182
DataValue, -7.8, 1000000, 6.92444E-12, 7.99096E-07, 8.8209426751592361E-08, -0.12072864351114658
DataValue, -7.775, 1000000, 6.92627E-12, 8.0371599999999994E-07, 8.823273885350319E-08, -0.12210709792993635
DataValue, -7.75, 1000000, 6.9282800000000004E-12, 8.0491999999999993E-07, 8.82583439490446E-08, -0.12348593451433126
DataValue, -7.7250000000000005, 1000000, 6.93026E-12, 8.05468E-07, 8.82835668789809E-08, -0.12486516819267519
DataValue, -7.7, 1000000, 6.9328900000000008E-12, 8.05367E-07, 8.8317070063694269E-08, -0.12624486066878984
DataValue, -7.675, 1000000, 6.9352900000000008E-12, 8.08228E-07, 8.8347643312101922E-08, -0.12762505374203828
DataValue, -7.65, 1000000, 6.9376100000000008E-12, 8.10057E-07, 8.8377197452229313E-08, -0.12900571656050958
DataValue, -7.625, 1000000, 6.94038E-12, 8.0863299999999993E-07, 8.8412484076433136E-08, -0.13038688594745229
DataValue, -7.6000000000000005, 1000000, 6.9427900000000006E-12, 8.1569E-07, 8.8443184713375793E-08, -0.13176857085987265
DataValue, -7.575, 1000000, 6.94606E-12, 8.17323E-07, 8.8484840764331208E-08, -0.13315082105891724
DataValue, -7.55, 1000000, 6.94932E-12, 8.1886699999999994E-07, 8.85263694267516E-08, -0.1345337211385351
DataValue, -7.525, 1000000, 6.9521100000000008E-12, 8.2145999999999995E-07, 8.8561910828025488E-08, -0.13591722332802553
DataValue, -7.5, 1000000, 6.9562200000000008E-12, 8.19457E-07, 8.8614267515923577E-08, -0.13730141222133763
DataValue, -7.4750000000000005, 1000000, 6.96035E-12, 8.26812E-07, 8.8666878980891724E-08, -0.138686421178344
DataValue, -7.45, 1000000, 6.9643E-12, 8.31157E-07, 8.8717197452229289E-08, -0.14007223427547777
DataValue, -7.425, 1000000, 6.96842E-12, 8.3396399999999994E-07, 8.876968152866242E-08, -0.14145885051751603
DataValue, -7.4, 1000000, 6.9724300000000008E-12, 8.33827E-07, 8.88207643312102E-08, -0.14284627587579624
DataValue, -7.375, 1000000, 6.9772200000000008E-12, 8.41838E-07, 8.8881783439490451E-08, -0.14423457703025486
DataValue, -7.3500000000000005, 1000000, 6.9826200000000008E-12, 8.45325E-07, 8.8950573248407645E-08, -0.145623892316879
DataValue, -7.325, 1000000, 6.9882100000000006E-12, 8.49199E-07, 8.9021783439490451E-08, -0.14701430135350324
DataValue, -7.3, 1000000, 6.9937600000000007E-12, 8.5504E-07, 8.9092484076433126E-08, -0.14840581906847142
DataValue, -7.275, 1000000, 7.0002400000000005E-12, 8.58581E-07, 8.9175031847133754E-08, -0.14979853403662424
DataValue, -7.25, 1000000, 7.0069500000000006E-12, 8.6362899999999993E-07, 8.9260509554140124E-08, -0.15119256170382173
DataValue, -7.2250000000000005, 1000000, 7.0137500000000009E-12, 8.69315E-07, 8.93471337579618E-08, -0.15258793391719747
DataValue, -7.2, 1000000, 7.02115E-12, 8.76348E-07, 8.9441401273885349E-08, -0.15398471934713381
DataValue, -7.175, 1000000, 7.0287200000000008E-12, 8.83817E-07, 8.9537834394904466E-08, -0.15538299462579627
DataValue, -7.15, 1000000, 7.0379E-12, 8.87143E-07, 8.96547770700637E-08, -0.15678293690286629
DataValue, -7.125, 1000000, 7.0470400000000006E-12, 8.97389E-07, 8.97712101910828E-08, -0.158184702428344
DataValue, -7.1000000000000005, 1000000, 7.0566000000000004E-12, 9.04547E-07, 8.9892993630573252E-08, -0.15958832902070072
DataValue, -7.075, 1000000, 7.0672700000000004E-12, 9.1374999999999993E-07, 9.0028917197452229E-08, -0.16099396894904469
DataValue, -7.05, 1000000, 7.0781000000000007E-12, 9.20688E-07, 9.0166878980891731E-08, -0.16240174860668802
DataValue, -7.025, 1000000, 7.0900500000000005E-12, 9.30963E-07, 9.0319108280254771E-08, -0.16381179538216567
DataValue, -7, 1000000, 7.1030500000000005E-12, 9.43563E-07, 9.048471337579617E-08, -0.16522432523885358
DataValue, -6.9750000000000005, 1000000, 7.1167E-12, 9.53976E-07, 9.0658598726114642E-08, -0.16663950736464975
DataValue, -6.95, 1000000, 7.1313800000000007E-12, 9.63107E-07, 9.0845605095541414E-08, -0.16805750895700647
DataValue, -6.925, 1000000, 7.1475700000000004E-12, 9.8051199999999988E-07, 9.1051847133757965E-08, -0.16947858280254788
DataValue, -6.9, 1000000, 7.16438E-12, 9.91991E-07, 9.12659872611465E-08, -0.17090294088375804
DataValue, -6.875, 1000000, 7.1829500000000006E-12, 1.00696E-06, 9.1502547770700648E-08, -0.17233082006369438
DataValue, -6.8500000000000005, 1000000, 7.2037700000000009E-12, 1.02406E-06, 9.1767770700636952E-08, -0.17376261942675167
