
SetupTitle, MOS cap measurement
PrimitiveTest, C-V Sweep
TestParameter, Channel.UnitTyp, CMU
TestParameter, Channel.Unit, CMU1:MF
TestParameter, Channel.IName, 
TestParameter, Channel.VName, VBias
TestParameter, Channel.Mode, 
TestParameter, Channel.Func, VAR1
TestParameter, Channel.Index, 
TestParameter, Channel.Time, 
TestParameter, Measurement.Primary.Locus, Single
TestParameter, Measurement.Primary.Scale, LINEAR
TestParameter, Measurement.Primary.Start, -8
TestParameter, Measurement.Primary.Stop, 7
TestParameter, Measurement.Primary.Step, 0.015
TestParameter, Measurement.Aborting.Condition, CONTINUE AT ANY
TestParameter, Measurement.PostOutput.Value, START
TestParameter, Measurement.PostOutput.Retention, OFF
TestParameter, Measurement.Secondary.ACLevel, 0.1
TestParameter, Measurement.Secondary.FName, Freq
TestParameter, Measurement.Secondary.Frequency, 500000
TestParameter, Measurement.Bias.Source, 0
TestParameter, Measurement.ImpedanceMode.Model, Cp-G
TestParameter, Measurement.ImpedanceMode.CName, C
TestParameter, Measurement.ImpedanceMode.LName, L
TestParameter, Measurement.ImpedanceMode.GName, G
TestParameter, Measurement.ImpedanceMode.RName, R
TestParameter, Measurement.ImpedanceMode.QName, Q
TestParameter, Measurement.ImpedanceMode.DName, D
TestParameter, Measurement.ImpedanceMode.YName, Y
TestParameter, Measurement.ImpedanceMode.ZName, Z
TestParameter, Measurement.ImpedanceMode.ThName, Theta
TestParameter, Measurement.ImpedanceMode.BName, B
TestParameter, Measurement.ImpedanceMode.XName, X
TestParameter, Measurement.Monitor.Unit, CMU1:MF
TestParameter, Measurement.Monitor.RangingMode, AUTO
TestParameter, Measurement.Monitor.RangeBoundary, 50
TestParameter, Measurement.Monitor.AcMonitorSymbol, 
TestParameter, Measurement.Monitor.DcMonitorSymbol, 
TestParameter, Measurement.Timing.Hold, 0
TestParameter, Measurement.Timing.Delay, 0
TestParameter, Measurement.Adc.UnitType, Cmu, Smu
TestParameter, Measurement.Adc.HighResolution.Mode, PLC, PLC
TestParameter, Measurement.Adc.HighResolution.Coeff, 1, 20
TestParameter, Measurement.WaitTime.Source.Coeff, 1
TestParameter, Measurement.WaitTime.Source.Offset, 0
TestParameter, Measurement.WaitTime.Monitor.Coeff, 1
TestParameter, Measurement.WaitTime.Monitor.Offset, 0
TestParameter, Function.User.Name, C_density, Q_density
TestParameter, Function.User.Unit, F/cm^2, e13/cm2
TestParameter, Function.User.Definition, C/100/3.14*1e6, integ(C_density,abs(VBias))/1.6*1e6
TestParameter, Output.Graph.Enabled, true
TestParameter, Output.Graph.XAxis.Data, VBias
TestParameter, Output.Graph.XAxis.Scale, Linear
TestParameter, Output.Graph.XAxis.Left, -15
TestParameter, Output.Graph.XAxis.Right, 6
TestParameter, Output.Graph.YAxis.Data, C, G, C_density, Q_density
TestParameter, Output.Graph.YAxis.Scale, Linear, Linear, Linear, Linear
TestParameter, Output.Graph.YAxis.Bottom, 0, 0, 0, 0
TestParameter, Output.Graph.YAxis.Top, 6.9999999999999991E-11, 0.001, 1, 1
TestParameter, Output.Graph.YAxis.Group, , , , 
TestParameter, Output.List.Data, VBias, C, G, Freq
TestParameter, AutoAnalysis.Interpolation, false
TestParameter, AutoAnalysis.Line1.Enabled, false
TestParameter, AutoAnalysis.Line1.Type, 1
TestParameter, AutoAnalysis.Line1.Fix, True
TestParameter, AutoAnalysis.Line1.YAxis, 0
TestParameter, AutoAnalysis.Line1.Point1.Type, 0
TestParameter, AutoAnalysis.Line1.Point1.XY.X, 
TestParameter, AutoAnalysis.Line1.Point1.XY.Y, 
TestParameter, AutoAnalysis.Line1.Point1.Data.Var, 
TestParameter, AutoAnalysis.Line1.Point1.Data.Condition, 
TestParameter, AutoAnalysis.Line1.Point1.Data.Start, false
TestParameter, AutoAnalysis.Line1.Point1.Data.StartVar, 
TestParameter, AutoAnalysis.Line1.Point1.Data.StartCondition, 
TestParameter, AutoAnalysis.Line1.Point2.Type, 0
TestParameter, AutoAnalysis.Line1.Point2.XY.X, 
TestParameter, AutoAnalysis.Line1.Point2.XY.Y, 
TestParameter, AutoAnalysis.Line1.Point2.Data.Var, 
TestParameter, AutoAnalysis.Line1.Point2.Data.Condition, 
TestParameter, AutoAnalysis.Line1.Point2.Data.Start, false
TestParameter, AutoAnalysis.Line1.Point2.Data.StartVar, 
TestParameter, AutoAnalysis.Line1.Point2.Data.StartCondition, 
TestParameter, AutoAnalysis.Line1.GradientExpr, 0
TestParameter, AutoAnalysis.Line2.Enabled, false
TestParameter, AutoAnalysis.Line2.Type, 1
TestParameter, AutoAnalysis.Line2.Fix, True
TestParameter, AutoAnalysis.Line2.YAxis, 0
TestParameter, AutoAnalysis.Line2.Point1.Type, 0
TestParameter, AutoAnalysis.Line2.Point1.XY.X, 
TestParameter, AutoAnalysis.Line2.Point1.XY.Y, 
TestParameter, AutoAnalysis.Line2.Point1.Data.Var, 
TestParameter, AutoAnalysis.Line2.Point1.Data.Condition, 
TestParameter, AutoAnalysis.Line2.Point1.Data.Start, false
TestParameter, AutoAnalysis.Line2.Point1.Data.StartVar, 
TestParameter, AutoAnalysis.Line2.Point1.Data.StartCondition, 
TestParameter, AutoAnalysis.Line2.Point2.Type, 0
TestParameter, AutoAnalysis.Line2.Point2.XY.X, 
TestParameter, AutoAnalysis.Line2.Point2.XY.Y, 
TestParameter, AutoAnalysis.Line2.Point2.Data.Var, 
TestParameter, AutoAnalysis.Line2.Point2.Data.Condition, 
TestParameter, AutoAnalysis.Line2.Point2.Data.Start, false
TestParameter, AutoAnalysis.Line2.Point2.Data.StartVar, 
TestParameter, AutoAnalysis.Line2.Point2.Data.StartCondition, 
TestParameter, AutoAnalysis.Line2.GradientExpr, 0
TestParameter, AutoAnalysis.Marker.Enabled, false
TestParameter, AutoAnalysis.Marker.Data.Var, 
TestParameter, AutoAnalysis.Marker.Data.Condition, 
TestParameter, AutoAnalysis.Marker.Data.Start, false
TestParameter, AutoAnalysis.Marker.Data.StartVar, 
TestParameter, AutoAnalysis.Marker.Data.StartCondition, 
MetaData, TestRecord.EntryPoint, true
MetaData, TestRecord.RecordTime, 10/30/2018 13:21:50
MetaData, TestRecord.TestTarget, 
MetaData, TestRecord.IterationIndex, 7
MetaData, TestRecord.Preservation, true
MetaData, TestRecord.Flag, #
MetaData, TestRecord.Remarks, #144_Noff_trigate_W20_S50_3qt4
MetaData, TestRecord.LinkKey, 530cbceb-7449-4a27-8072-d4520fae1658
Dimension1, 1001, 1001, 1001, 1001, 1001, 1001
Dimension2, 1, 1, 1, 1, 1, 1
DataName, VBias, Freq, C, G, C_density, Q_density
DataValue, -8, 500000, 3.8948199999999997E-14, -8.66646E-09, 1.2403885350318469E-10, 0
DataValue, -7.985, 500000, 3.69925E-14, 8.40543E-09, 1.1781050955414011E-10, -1.1336688893311858E-06
DataValue, -7.97, 500000, 3.75301E-14, 8.4834E-09, 1.1952261146496815E-10, -2.2461678941082978E-06
DataValue, -7.955, 500000, 3.85369E-14, -9.2216E-09, 1.2272898089171976E-10, -3.3817222332802487E-06
DataValue, -7.94, 500000, 3.93865E-14, -1.59483E-09, 1.2543471337579617E-10, -4.5449895501592042E-06
DataValue, -7.925, 500000, 3.72992E-14, -3.03932E-09, 1.1878726114649681E-10, -5.6897800557324966E-06
DataValue, -7.91, 500000, 3.73208E-14, 6.39785E-09, 1.1885605095541403E-10, -6.8037330812101792E-06
DataValue, -7.8950000000000005, 500000, 3.9298899999999997E-14, 1.48493E-09, 1.2515573248407644E-10, -7.9475383160827655E-06
DataValue, -7.88, 500000, 3.63771E-14, 1.25468E-09, 1.1585063694267515E-10, -9.0772556727707064E-06
DataValue, -7.865, 500000, 3.60682E-14, 4.73242E-09, 1.1486687898089173E-10, -1.0158744028662403E-05
DataValue, -7.8500000000000005, 500000, 3.88369E-14, 5.12704E-10, 1.2368439490445859E-10, -1.1276953124999958E-05
DataValue, -7.835, 500000, 3.80101E-14, 6.21711E-09, 1.2105127388535032E-10, -1.2424151572452231E-05
DataValue, -7.82, 500000, 3.6230899999999996E-14, -1.22838E-09, 1.1538503184713373E-10, -1.3532446755573225E-05
DataValue, -7.8050000000000006, 500000, 3.6073E-14, -4.33236E-10, 1.1488216560509554E-10, -1.4611824243630528E-05
DataValue, -7.79, 500000, 3.6973E-14, 6.29948E-09, 1.1774840764331209E-10, -1.5702280055732483E-05
DataValue, -7.775, 500000, 3.48656E-14, 1.23899E-09, 1.1103694267515923E-10, -1.6774711385350291E-05
DataValue, -7.76, 500000, 3.53544E-14, 7.93314E-09, 1.1259363057324839E-10, -1.7822979697452243E-05
DataValue, -7.745, 500000, 3.61294E-14, -2.28109E-09, 1.1506178343949046E-10, -1.8890114450636933E-05
DataValue, -7.73, 500000, 3.59313E-14, 1.2819100000000001E-08, 1.144308917197452E-10, -1.9965861365445827E-05
DataValue, -7.715, 500000, 3.5745E-14, 2.34917E-09, 1.1383757961783437E-10, -2.103586982484077E-05
DataValue, -7.7, 500000, 3.61005E-14, 7.27543E-09, 1.1496974522292991E-10, -2.210840416003183E-05
DataValue, -7.6850000000000005, 500000, 3.74575E-14, -2.26492E-09, 1.1929140127388535E-10, -2.3206503284235628E-05
DataValue, -7.67, 500000, 3.47443E-14, -2.85343E-09, 1.1065063694267516E-10, -2.4284356588375794E-05
DataValue, -7.655, 500000, 3.62502E-14, -2.54917E-10, 1.1544649681528663E-10, -2.5344186902866217E-05
DataValue, -7.6400000000000006, 500000, 3.34054E-14, 3.62714E-09, 1.0638662420382166E-10, -2.6384029657643264E-05
DataValue, -7.625, 500000, 3.3859599999999997E-14, -5.26482E-10, 1.0783312101910826E-10, -2.7388184713375782E-05
DataValue, -7.61, 500000, 3.36249E-14, -2.96957E-09, 1.0708566878980892E-10, -2.839561654060506E-05
DataValue, -7.595, 500000, 3.51322E-14, 4.83435E-09, 1.1188598726114649E-10, -2.9422046178343952E-05
DataValue, -7.58, 500000, 3.49791E-14, 1.2608300000000002E-10, 1.113984076433121E-10, -3.046869177945858E-05
DataValue, -7.565, 500000, 3.74711E-14, 1.13243E-09, 1.1933471337579616E-10, -3.155025328423562E-05
DataValue, -7.55, 500000, 3.64397E-14, -9.1107900000000012E-10, 1.1604999999999998E-10, -3.2653619128184708E-05
DataValue, -7.535, 500000, 3.63755E-14, -4.14934E-09, 1.1584554140127388E-10, -3.3740629478503162E-05
DataValue, -7.5200000000000005, 500000, 3.71988E-14, -3.1715700000000005E-10, 1.1846751592356688E-10, -3.4838971934713329E-05
DataValue, -7.505, 500000, 3.63946E-14, -3.85138E-09, 1.159063694267516E-10, -3.5937599522292987E-05
DataValue, -7.49, 500000, 3.27141E-14, -3.38431E-09, 1.0418503184713376E-10, -3.6969277965764309E-05
DataValue, -7.4750000000000005, 500000, 3.67442E-14, 2.44574E-09, 1.1701974522292993E-10, -3.8006175358280205E-05
DataValue, -7.46, 500000, 3.86166E-14, 4.16901E-09, 1.2298280254777066E-10, -3.91311873009554E-05
DataValue, -7.445, 500000, 3.59532E-14, 7.988990000000001E-10, 1.1450063694267513E-10, -4.0244390923566843E-05
DataValue, -7.43, 500000, 3.5478499999999996E-14, -7.29609E-10, 1.129888535031847E-10, -4.1310747910031849E-05
DataValue, -7.415, 500000, 3.46121E-14, -5.08677E-10, 1.1022961783439489E-10, -4.2357084494426729E-05
DataValue, -7.4, 500000, 3.51872E-14, -2.17915E-09, 1.1206114649681528E-10, -4.339907245222925E-05
DataValue, -7.385, 500000, 3.3659099999999997E-14, 6.26888E-09, 1.0719458598726114E-10, -4.44268336982484E-05
DataValue, -7.37, 500000, 3.62953E-14, 2.94368E-09, 1.1559012738853503E-10, -4.547113704219742E-05
DataValue, -7.355, 500000, 3.43214E-14, 2.66964E-10, 1.0930382165605094E-10, -4.65253274283439E-05
DataValue, -7.34, 500000, 3.64952E-14, -6.05696E-09, 1.1622675159235669E-10, -4.7582501990445847E-05
DataValue, -7.325, 500000, 3.60931E-14, 3.59988E-09, 1.1494617834394903E-10, -4.8666125099522258E-05
DataValue, -7.3100000000000005, 500000, 3.2859E-14, -5.37147E-09, 1.0464649681528664E-10, -4.9695465764331154E-05
DataValue, -7.295, 500000, 3.49794E-14, 1.31815E-09, 1.1139936305732482E-10, -5.0708180732484062E-05
DataValue, -7.28, 500000, 3.76292E-14, 1.05252E-09, 1.1983821656050955E-10, -5.1792106886942631E-05
DataValue, -7.2650000000000006, 500000, 3.5058499999999996E-14, 1.27023E-08, 1.1165127388535031E-10, -5.2877213873407573E-05
DataValue, -7.25, 500000, 3.52378E-14, -1.88127E-09, 1.1222229299363058E-10, -5.3926621218152838E-05
DataValue, -7.235, 500000, 3.81728E-14, 3.1589000000000003E-10, 1.2156942675159232E-10, -5.5022519904458551E-05
DataValue, -7.22, 500000, 3.9939099999999996E-14, 6.66864E-09, 1.2719458598726113E-10, -5.6188601214171971E-05
DataValue, -7.205, 500000, 3.52137E-14, 2.25129E-09, 1.1214554140127388E-10, -5.7310508061305705E-05
DataValue, -7.19, 500000, 3.51755E-14, 1.27787E-09, 1.1202388535031847E-10, -5.8361302249203766E-05
DataValue, -7.175, 500000, 3.65939E-14, 7.53235E-09, 1.1654108280254775E-10, -5.9432700537420373E-05
DataValue, -7.16, 500000, 3.8502999999999996E-14, 4.8647E-09, 1.2262101910828023E-10, -6.0553772890127361E-05
DataValue, -7.1450000000000005, 500000, 3.47124E-14, -3.74739E-09, 1.1054904458598726E-10, -6.16467575636942E-05
DataValue, -7.13, 500000, 3.75662E-14, 1.90701E-09, 1.1963757961783437E-10, -6.2725757364649667E-05
DataValue, -7.115, 500000, 3.61681E-14, 2.81741E-10, 1.1518503184713375E-10, -6.3826488355891677E-05
DataValue, -7.1000000000000005, 500000, 3.7503899999999996E-14, 5.3642E-09, 1.1943917197452229E-10, -6.4926289311305674E-05
DataValue, -7.085, 500000, 3.4195E-14, 4.85857E-10, 1.0890127388535032E-10, -6.5996635151273871E-05
DataValue, -7.07, 500000, 3.65473E-14, -4.94155E-10, 1.1639267515923565E-10, -6.7052700537420344E-05
DataValue, -7.055, 500000, 3.50369E-14, 3.30478E-09, 1.1158248407643311E-10, -6.8121334096337584E-05
DataValue, -7.04, 500000, 4.0095399999999996E-14, 4.0981400000000004E-10, 1.2769235668789807E-10, -6.9242934912420361E-05
DataValue, -7.025, 500000, 3.2981499999999997E-14, 3.09186E-09, 1.0503662420382164E-10, -7.0333852010350271E-05
DataValue, -7.01, 500000, 3.58648E-14, 1.35544E-09, 1.1421910828025477E-10, -7.1361613256369416E-05
DataValue, -6.995, 500000, 3.534E-14, 1.67478E-09, 1.1254777070063693E-10, -7.2424583001592325E-05
DataValue, -6.98, 500000, 3.5852E-14, 8.1904700000000006E-10, 1.1417834394904459E-10, -7.3487361664012686E-05
DataValue, -6.965, 500000, 3.71413E-14, -2.1647E-09, 1.1828439490445859E-10, -7.4577030752388511E-05
DataValue, -6.95, 500000, 3.44865E-14, 2.69039E-09, 1.098296178343949E-10, -7.5646315187101869E-05
DataValue, -6.9350000000000005, 500000, 3.54275E-14, -1.96127E-09, 1.1282643312101911E-10, -7.6690015425955366E-05
DataValue, -6.92, 500000, 3.65479E-14, 1.55223E-09, 1.1639458598726114E-10, -7.7764488953025457E-05
DataValue, -6.905, 500000, 3.82438E-14, 5.14358E-09, 1.2179554140127388E-10, -7.8881005175159189E-05
DataValue, -6.8900000000000006, 500000, 3.49364E-14, 5.66934E-09, 1.112624203821656E-10, -7.9973464371019043E-05
DataValue, -6.875, 500000, 3.69843E-14, 1.78943E-09, 1.1778439490445861E-10, -8.1047121317675129E-05
DataValue, -6.86, 500000, 3.25916E-14, 1.09607E-08, 1.0379490445859871E-10, -8.2085774283439432E-05
DataValue, -6.845, 500000, 3.64462E-14, -2.1572500000000002E-10, 1.1607070063694267E-10, -8.3116394307324823E-05
DataValue, -6.83, 500000, 3.61475E-14, -5.3209E-09, 1.1511942675159234E-10, -8.4200098029458561E-05
DataValue, -6.815, 500000, 3.64456E-14, -2.30184E-09, 1.1606878980891721E-10, -8.5283792794585924E-05
DataValue, -6.8, 500000, 3.37089E-14, 3.54684E-09, 1.073531847133758E-10, -8.6331083300159207E-05
DataValue, -6.785, 500000, 3.53591E-14, 2.01248E-09, 1.1260859872611463E-10, -8.7362154160031808E-05
DataValue, -6.7700000000000005, 500000, 3.8937E-14, -3.52073E-09, 1.2400318471337577E-10, -8.8471271894904378E-05
DataValue, -6.755, 500000, 3.62307E-14, -2.12243E-09, 1.153843949044586E-10, -8.9593401174363024E-05
DataValue, -6.74, 500000, 3.59865E-14, 6.81878E-09, 1.1460668789808917E-10, -9.0671484374999935E-05
DataValue, -6.7250000000000005, 500000, 3.80991E-14, 7.82617E-09, 1.2133471337579618E-10, -9.1777459693471249E-05
DataValue, -6.71, 500000, 3.78191E-14, 1.66789E-09, 1.2044299363057326E-10, -9.2910792695063659E-05
DataValue, -6.695, 500000, 3.7035E-14, 1.98797E-09, 1.1794585987261148E-10, -9.4028240445859825E-05
DataValue, -6.68, 500000, 3.65351E-14, 1.13504E-09, 1.1635382165605095E-10, -9.5126520203025482E-05
DataValue, -6.665, 500000, 3.78595E-14, 1.04693E-08, 1.2057165605095541E-10, -9.6237108379777043E-05
DataValue, -6.65, 500000, 3.68566E-14, -2.7202E-09, 1.1737770700636943E-10, -9.7352496019108232E-05
DataValue, -6.635, 500000, 3.56358E-14, -3.39232E-09, 1.1348980891719745E-10, -9.84346875E-05
DataValue, -6.62, 500000, 3.51055E-14, -3.31225E-10, 1.1180095541401273E-10, -9.949073795780253E-05
DataValue, -6.605, 500000, 3.64037E-14, 6.02291E-09, 1.1593535031847133E-10, -0.00010055825189092353
DataValue, -6.59, 500000, 3.6907799999999996E-14, -5.1502400000000008E-10, 1.1754076433121017E-10, -0.00010165267117834395
DataValue, -6.575, 500000, 3.57595E-14, 9.0645E-09, 1.1388375796178343E-10, -0.00010273747362659233
DataValue, -6.5600000000000005, 500000, 3.7514099999999996E-14, -3.31806E-09, 1.1947165605095539E-10, -0.00010383132712977702
DataValue, -6.545, 500000, 3.5952899999999996E-14, -2.14358E-10, 1.144996815286624E-10, -0.00010492806777468151
DataValue, -6.53, 500000, 3.83431E-14, -1.59189E-09, 1.2211178343949045E-10, -0.00010603718401671971
DataValue, -6.5150000000000006, 500000, 3.65045E-14, 4.75108E-09, 1.162563694267516E-10, -0.0001071545347332802
DataValue, -6.5, 500000, 3.8420099999999997E-14, 2.36158E-09, 1.2235700636942674E-10, -0.00010827303493232483
DataValue, -6.485, 500000, 3.88201E-14, 7.90361E-09, 1.236308917197452E-10, -0.0001094261032046178
DataValue, -6.47, 500000, 3.73756E-14, -1.01302E-09, 1.1903057324840763E-10, -0.00011056357882165606
DataValue, -6.455, 500000, 3.75337E-14, -1.1128E-09, 1.1953407643312102E-10, -0.0001116818506170382
DataValue, -6.44, 500000, 3.84022E-14, 6.29548E-09, 1.223E-10, -0.00011281544785031842
DataValue, -6.425, 500000, 3.73119E-14, -2.68173E-09, 1.1882770700636941E-10, -0.00011394573397691083
DataValue, -6.41, 500000, 3.79454E-14, 1.13111E-09, 1.2084522292993629E-10, -0.00011506920083598724
DataValue, -6.3950000000000005, 500000, 3.79252E-14, -3.18014E-09, 1.2078089171974523E-10, -0.00011620182324840759
DataValue, -6.38, 500000, 3.80603E-14, 4.74674E-09, 1.2121114649681529E-10, -0.00011733616092754775
DataValue, -6.365, 500000, 3.94057E-14, -1.05845E-09, 1.2549585987261147E-10, -0.00011849260001990443
DataValue, -6.3500000000000005, 500000, 3.91889E-14, -7.25655E-09, 1.2480541401273885E-10, -0.00011966588724124197
DataValue, -6.335, 500000, 3.71441E-14, 7.82884E-09, 1.1829331210191083E-10, -0.00012080541251990443
DataValue, -6.32, 500000, 3.65737E-14, 3.41974E-09, 1.1647675159235666E-10, -0.00012190589719347128
DataValue, -6.305, 500000, 3.81983E-14, 8.3238200000000009E-10, 1.2165063694267513E-10, -0.00012302211932722931
DataValue, -6.29, 500000, 3.86149E-14, -1.95027E-09, 1.2297738853503184E-10, -0.00012416881319665603
DataValue, -6.275, 500000, 3.54089E-14, -8.48623E-10, 1.1276719745222929E-10, -0.0001252738659434713
DataValue, -6.26, 500000, 3.61732E-14, -4.04944E-09, 1.1520127388535031E-10, -0.00012634246815286624
DataValue, -6.245, 500000, 3.93249E-14, 3.96834E-09, 1.2523853503184711E-10, -0.00012746952975716558
DataValue, -6.23, 500000, 3.66124E-14, 6.14153E-09, 1.166E-10, -0.00012860314789012731
DataValue, -6.215, 500000, 3.77501E-14, 3.79395E-09, 1.2022324840764331E-10, -0.00012971325686703822
DataValue, -6.2, 500000, 3.96211E-14, 3.1181700000000004E-10, 1.2618184713375793E-10, -0.00013086828075238848
DataValue, -6.1850000000000005, 500000, 3.31447E-14, -1.23977E-09, 1.0555636942675159E-10, -0.00013195455364251586
DataValue, -6.17, 500000, 3.66804E-14, 5.98204E-10, 1.1681656050955414E-10, -0.00013299692675159232
DataValue, -6.155, 500000, 3.7041099999999997E-14, 1.2131E-09, 1.1796528662420379E-10, -0.00013409746666003181
DataValue, -6.1400000000000006, 500000, 3.79009E-14, 3.3652000000000004E-10, 1.2070350318471335E-10, -0.00013521622661226109
DataValue, -6.125, 500000, 3.87881E-14, 6.7911E-09, 1.2352898089171974E-10, -0.00013636106638136941
DataValue, -6.11, 500000, 3.91095E-14, 2.55832E-09, 1.2455254777070065E-10, -0.00013752394854697446
DataValue, -6.095, 500000, 3.96369E-14, 1.14974E-08, 1.2623216560509556E-10, -0.00013869950189092356
DataValue, -6.08, 500000, 3.83942E-14, 3.3513800000000003E-10, 1.2227452229299365E-10, -0.00013986437699044585
DataValue, -6.065, 500000, 3.64643E-14, -3.39461E-09, 1.1612834394904457E-10, -0.00014098189042595534
DataValue, -6.05, 500000, 4.08679E-14, 3.64608E-09, 1.3015254777070063E-10, -0.00014213633210589171
DataValue, -6.035, 500000, 3.6561E-14, 3.22109E-09, 1.1643630573248407E-10, -0.00014329221735668787
