
SetupTitle, MOS cap measurement
PrimitiveTest, C-V Sweep
TestParameter, Channel.UnitTyp, CMU
TestParameter, Channel.Unit, CMU1:MF
TestParameter, Channel.IName, 
TestParameter, Channel.VName, VBias
TestParameter, Channel.Mode, 
TestParameter, Channel.Func, VAR1
TestParameter, Channel.Index, 
TestParameter, Channel.Time, 
TestParameter, Measurement.Primary.Locus, Single
TestParameter, Measurement.Primary.Scale, LINEAR
TestParameter, Measurement.Primary.Start, -25
TestParameter, Measurement.Primary.Stop, 0
TestParameter, Measurement.Primary.Step, 0.062
TestParameter, Measurement.Aborting.Condition, CONTINUE AT ANY
TestParameter, Measurement.PostOutput.Value, START
TestParameter, Measurement.PostOutput.Retention, OFF
TestParameter, Measurement.Secondary.ACLevel, 0.1
TestParameter, Measurement.Secondary.FName, Freq
TestParameter, Measurement.Secondary.Frequency, 1000000
TestParameter, Measurement.Bias.Source, 0
TestParameter, Measurement.ImpedanceMode.Model, Cp-G
TestParameter, Measurement.ImpedanceMode.CName, C
TestParameter, Measurement.ImpedanceMode.LName, L
TestParameter, Measurement.ImpedanceMode.GName, G
TestParameter, Measurement.ImpedanceMode.RName, R
TestParameter, Measurement.ImpedanceMode.QName, Q
TestParameter, Measurement.ImpedanceMode.DName, D
TestParameter, Measurement.ImpedanceMode.YName, Y
TestParameter, Measurement.ImpedanceMode.ZName, Z
TestParameter, Measurement.ImpedanceMode.ThName, Theta
TestParameter, Measurement.ImpedanceMode.BName, B
TestParameter, Measurement.ImpedanceMode.XName, X
TestParameter, Measurement.Monitor.Unit, CMU1:MF
TestParameter, Measurement.Monitor.RangingMode, AUTO
TestParameter, Measurement.Monitor.RangeBoundary, 50
TestParameter, Measurement.Monitor.AcMonitorSymbol, 
TestParameter, Measurement.Monitor.DcMonitorSymbol, 
TestParameter, Measurement.Timing.Hold, 0
TestParameter, Measurement.Timing.Delay, 0
TestParameter, Measurement.Adc.UnitType, Cmu, Smu
TestParameter, Measurement.Adc.HighResolution.Mode, PLC, AUTO
TestParameter, Measurement.Adc.HighResolution.Coeff, 1, 10
TestParameter, Measurement.WaitTime.Source.Coeff, 1
TestParameter, Measurement.WaitTime.Source.Offset, 0
TestParameter, Measurement.WaitTime.Monitor.Coeff, 1
TestParameter, Measurement.WaitTime.Monitor.Offset, 0
TestParameter, Function.User.Name, C_density, Q_density
TestParameter, Function.User.Unit, F/cm^2, e13/cm2
TestParameter, Function.User.Definition, C/25/3.14*1e6, integ(C_density,abs(VBias))/1.6*1e6
TestParameter, Output.Graph.Enabled, true
TestParameter, Output.Graph.XAxis.Data, VBias
TestParameter, Output.Graph.XAxis.Scale, Linear
TestParameter, Output.Graph.XAxis.Left, -15
TestParameter, Output.Graph.XAxis.Right, 6
TestParameter, Output.Graph.YAxis.Data, C, G, C_density, Q_density
TestParameter, Output.Graph.YAxis.Scale, Linear, Linear, Linear, Linear
TestParameter, Output.Graph.YAxis.Bottom, 0, 0, 0, 0
TestParameter, Output.Graph.YAxis.Top, 6.9999999999999991E-11, 0.001, 1, 1
TestParameter, Output.Graph.YAxis.Group, , , , 
TestParameter, Output.List.Data, VBias, C, G, Freq
TestParameter, AutoAnalysis.Interpolation, false
TestParameter, AutoAnalysis.Line1.Enabled, false
TestParameter, AutoAnalysis.Line1.Type, 1
TestParameter, AutoAnalysis.Line1.Fix, True
TestParameter, AutoAnalysis.Line1.YAxis, 0
TestParameter, AutoAnalysis.Line1.Point1.Type, 0
TestParameter, AutoAnalysis.Line1.Point1.XY.X, 
TestParameter, AutoAnalysis.Line1.Point1.XY.Y, 
TestParameter, AutoAnalysis.Line1.Point1.Data.Var, 
TestParameter, AutoAnalysis.Line1.Point1.Data.Condition, 
TestParameter, AutoAnalysis.Line1.Point1.Data.Start, false
TestParameter, AutoAnalysis.Line1.Point1.Data.StartVar, 
TestParameter, AutoAnalysis.Line1.Point1.Data.StartCondition, 
TestParameter, AutoAnalysis.Line1.Point2.Type, 0
TestParameter, AutoAnalysis.Line1.Point2.XY.X, 
TestParameter, AutoAnalysis.Line1.Point2.XY.Y, 
TestParameter, AutoAnalysis.Line1.Point2.Data.Var, 
TestParameter, AutoAnalysis.Line1.Point2.Data.Condition, 
TestParameter, AutoAnalysis.Line1.Point2.Data.Start, false
TestParameter, AutoAnalysis.Line1.Point2.Data.StartVar, 
TestParameter, AutoAnalysis.Line1.Point2.Data.StartCondition, 
TestParameter, AutoAnalysis.Line1.GradientExpr, 0
TestParameter, AutoAnalysis.Line2.Enabled, false
TestParameter, AutoAnalysis.Line2.Type, 1
TestParameter, AutoAnalysis.Line2.Fix, True
TestParameter, AutoAnalysis.Line2.YAxis, 0
TestParameter, AutoAnalysis.Line2.Point1.Type, 0
TestParameter, AutoAnalysis.Line2.Point1.XY.X, 
TestParameter, AutoAnalysis.Line2.Point1.XY.Y, 
TestParameter, AutoAnalysis.Line2.Point1.Data.Var, 
TestParameter, AutoAnalysis.Line2.Point1.Data.Condition, 
TestParameter, AutoAnalysis.Line2.Point1.Data.Start, false
TestParameter, AutoAnalysis.Line2.Point1.Data.StartVar, 
TestParameter, AutoAnalysis.Line2.Point1.Data.StartCondition, 
TestParameter, AutoAnalysis.Line2.Point2.Type, 0
TestParameter, AutoAnalysis.Line2.Point2.XY.X, 
TestParameter, AutoAnalysis.Line2.Point2.XY.Y, 
TestParameter, AutoAnalysis.Line2.Point2.Data.Var, 
TestParameter, AutoAnalysis.Line2.Point2.Data.Condition, 
TestParameter, AutoAnalysis.Line2.Point2.Data.Start, false
TestParameter, AutoAnalysis.Line2.Point2.Data.StartVar, 
TestParameter, AutoAnalysis.Line2.Point2.Data.StartCondition, 
TestParameter, AutoAnalysis.Line2.GradientExpr, 0
TestParameter, AutoAnalysis.Marker.Enabled, false
TestParameter, AutoAnalysis.Marker.Data.Var, 
TestParameter, AutoAnalysis.Marker.Data.Condition, 
TestParameter, AutoAnalysis.Marker.Data.Start, false
TestParameter, AutoAnalysis.Marker.Data.StartVar, 
TestParameter, AutoAnalysis.Marker.Data.StartCondition, 
MetaData, TestRecord.EntryPoint, true
MetaData, TestRecord.RecordTime, 03/01/2019 09:03:32
MetaData, TestRecord.TestTarget, 
MetaData, TestRecord.IterationIndex, 4
MetaData, TestRecord.Preservation, true
MetaData, TestRecord.Flag, #
MetaData, TestRecord.Remarks, #188_Diode_bridge_capacitance_diode_W200_S100_L15_R6_1
MetaData, TestRecord.LinkKey, c503fd88-e0aa-4954-a732-2de6ffe97d51
Dimension1, 401, 401, 401, 401, 401, 401
Dimension2, 1, 1, 1, 1, 1, 1
DataName, VBias, Freq, C, G, C_density, Q_density
DataValue, -25, 1000000, 6.6956500000000005E-12, 7.27317E-07, 8.5294904458598718E-08, 0
DataValue, -24.937, 1000000, 6.6856200000000007E-12, 7.19425E-07, 8.5167133757961785E-08, -0.003355971377388473
DataValue, -24.875, 1000000, 6.67811E-12, 7.1594399999999994E-07, 8.5071464968152859E-08, -0.0066543442277070056
DataValue, -24.812, 1000000, 6.6720100000000008E-12, 7.09614E-07, 8.4993757961783457E-08, -0.010002503304140065
DataValue, -24.75, 1000000, 6.6659100000000006E-12, 7.03487E-07, 8.4916050955414016E-08, -0.013294505851910828
DataValue, -24.687, 1000000, 6.6619400000000006E-12, 7.00853E-07, 8.4865477707006366E-08, -0.016637079697452168
DataValue, -24.625, 1000000, 6.6572300000000007E-12, 6.97724E-07, 8.4805477707006364E-08, -0.01992445445859873
DataValue, -24.562, 1000000, 6.65343E-12, 6.95065E-07, 8.4757070063694269E-08, -0.023262717117834338
DataValue, -24.5, 1000000, 6.6506500000000005E-12, 6.92914E-07, 8.472165605095543E-08, -0.026546367436305736
DataValue, -24.437, 1000000, 6.6477100000000006E-12, 6.91793E-07, 8.4684203821656053E-08, -0.029881545302547708
DataValue, -24.375, 1000000, 6.6441500000000005E-12, 6.91286E-07, 8.4638853503184717E-08, -0.033162179538216562
DataValue, -24.312, 1000000, 6.6419000000000006E-12, 6.88932E-07, 8.4610191082802559E-08, -0.036494270103503125
DataValue, -24.25, 1000000, 6.6393900000000009E-12, 6.87519E-07, 8.4578216560509568E-08, -0.039772295501592357
DataValue, -24.187, 1000000, 6.6369000000000005E-12, 6.86548E-07, 8.4546496815286623E-08, -0.043101938296178276
DataValue, -24.125, 1000000, 6.6347700000000004E-12, 6.8467E-07, 8.4519363057324845E-08, -0.046377589331210188
DataValue, -24.062, 1000000, 6.63271E-12, 6.8430699999999993E-07, 8.4493121019108272E-08, -0.049705022611464908
DataValue, -24, 1000000, 6.6306100000000006E-12, 6.79741E-07, 8.44663694267516E-08, -0.0529786127388535
DataValue, -23.937, 1000000, 6.6287500000000004E-12, 6.7688E-07, 8.4442675159235665E-08, -0.056304009554140069
DataValue, -23.875, 1000000, 6.6270400000000004E-12, 6.80087E-07, 8.442089171974523E-08, -0.059575741162420384
DataValue, -23.812, 1000000, 6.6251500000000007E-12, 6.77739E-07, 8.43968152866242E-08, -0.06289933976910822
DataValue, -23.75, 1000000, 6.62368E-12, 6.75617E-07, 8.437808917197451E-08, -0.066169353542993636
DataValue, -23.687, 1000000, 6.62203E-12, 6.74478E-07, 8.4357070063694278E-08, -0.0694913269904458
DataValue, -23.625, 1000000, 6.6208900000000005E-12, 6.74448E-07, 8.4342547770700628E-08, -0.072759882085987271
DataValue, -23.562, 1000000, 6.6196000000000006E-12, 6.75426E-07, 8.4326114649681537E-08, -0.07608054637738848
DataValue, -23.5, 1000000, 6.6181600000000005E-12, 6.73727E-07, 8.4307770700636937E-08, -0.079347827906050952
DataValue, -23.437, 1000000, 6.6166000000000007E-12, 6.69716E-07, 8.4287898089172E-08, -0.082667055135350262
DataValue, -23.375, 1000000, 6.61559E-12, 6.69328E-07, 8.4275031847133756E-08, -0.085932961902866242
DataValue, -23.312, 1000000, 6.61443E-12, 6.72374E-07, 8.426025477707006E-08, -0.0892510003582802
DataValue, -23.25, 1000000, 6.6131000000000006E-12, 6.69412E-07, 8.4243312101910837E-08, -0.0925157569665605
DataValue, -23.187, 1000000, 6.6123600000000007E-12, 6.6909E-07, 8.4233885350318472E-08, -0.0958326517914012
DataValue, -23.125, 1000000, 6.6109900000000007E-12, 6.69972E-07, 8.4216433121019118E-08, -0.099096376711783424
DataValue, -23.062, 1000000, 6.6099000000000007E-12, 6.68196E-07, 8.4202547770700642E-08, -0.10241212539808911
DataValue, -23, 1000000, 6.6093500000000007E-12, 6.65901E-07, 8.41955414012739E-08, -0.10567483837579617
DataValue, -22.937, 1000000, 6.60827E-12, 6.6453E-07, 8.4181783439490442E-08, -0.10898976695859866
DataValue, -22.875, 1000000, 6.6072200000000006E-12, 6.63392E-07, 8.4168407643312111E-08, -0.11225155191082802
DataValue, -22.812, 1000000, 6.6066700000000006E-12, 6.64876E-07, 8.4161401273885344E-08, -0.11556554502388527
DataValue, -22.75, 1000000, 6.6052500000000008E-12, 6.66545E-07, 8.4143312101910843E-08, -0.11882644884554139
DataValue, -22.687, 1000000, 6.6043400000000005E-12, 6.64256E-07, 8.4131719745222937E-08, -0.12213936353503177
DataValue, -22.625, 1000000, 6.6041500000000007E-12, 6.61181E-07, 8.4129299363057338E-08, -0.12539942078025476
DataValue, -22.562, 1000000, 6.60302E-12, 6.66313E-07, 8.4114904458598717E-08, -0.12871172854299356
DataValue, -22.5, 1000000, 6.6027900000000008E-12, 6.63058E-07, 8.4111974522293E-08, -0.1319711243232484
DataValue, -22.437, 1000000, 6.6019500000000006E-12, 6.66789E-07, 8.4101273885350326E-08, -0.13528282265127381
DataValue, -22.375, 1000000, 6.6016800000000006E-12, 6.6133E-07, 8.4097834394904452E-08, -0.13854168037420381
DataValue, -22.312, 1000000, 6.60063E-12, 6.59375E-07, 8.408445859872612E-08, -0.14185276926751586
DataValue, -22.25, 1000000, 6.5998900000000005E-12, 6.62903E-07, 8.4075031847133754E-08, -0.14511085939490448
DataValue, -22.187, 1000000, 6.5992900000000007E-12, 6.6001199999999994E-07, 8.4067388535031867E-08, -0.1484211632961783
DataValue, -22.125, 1000000, 6.5986800000000007E-12, 6.63672E-07, 8.4059617834394911E-08, -0.15167862404458599
DataValue, -22.062, 1000000, 6.5979700000000004E-12, 6.6390499999999994E-07, 8.4050573248407634E-08, -0.15498829343152859
DataValue, -22, 1000000, 6.5973000000000006E-12, 6.61139E-07, 8.4042038216560515E-08, -0.15824508777866239
DataValue, -21.937, 1000000, 6.5976600000000008E-12, 6.5811699999999994E-07, 8.4046624203821655E-08, -0.16155433332006361
DataValue, -21.875, 1000000, 6.5970500000000009E-12, 6.5801E-07, 8.4038853503184725E-08, -0.16481098945063696
DataValue, -21.812, 1000000, 6.59617E-12, 6.59786E-07, 8.4027643312101907E-08, -0.16811979860668783
DataValue, -21.75, 1000000, 6.5956000000000007E-12, 6.57032E-07, 8.40203821656051E-08, -0.17137572910031845
DataValue, -21.687, 1000000, 6.5953100000000005E-12, 6.57771E-07, 8.4016687898089175E-08, -0.17468395891719737
DataValue, -21.625, 1000000, 6.5947600000000005E-12, 6.59202E-07, 8.4009681528662422E-08, -0.17793946982484077
DataValue, -21.562, 1000000, 6.59398E-12, 6.57742E-07, 8.3999745222929939E-08, -0.18124715541401268
DataValue, -21.5, 1000000, 6.5939600000000007E-12, 6.6171099999999994E-07, 8.399949044585988E-08, -0.18450214060509554
DataValue, -21.437, 1000000, 6.59377E-12, 6.58314E-07, 8.399707006369428E-08, -0.18780957289012731
DataValue, -21.375, 1000000, 6.59412E-12, 6.56877E-07, 8.4001528662420378E-08, -0.19106454574044582
DataValue, -21.312, 1000000, 6.5932700000000006E-12, 6.59029E-07, 8.3990700636942688E-08, -0.19437189275477698
DataValue, -21.25, 1000000, 6.59337E-12, 6.5457699999999995E-07, 8.3991974522293E-08, -0.19762655708598723
DataValue, -21.187, 1000000, 6.5926500000000006E-12, 6.52431E-07, 8.39828025477707E-08, -0.20093356050955405
DataValue, -21.125, 1000000, 6.5925700000000005E-12, 6.54457E-07, 8.3981783439490454E-08, -0.20418787436305727
DataValue, -21.062, 1000000, 6.5915000000000007E-12, 6.53992E-07, 8.3968152866242037E-08, -0.20749438873407633
DataValue, -21, 1000000, 6.59131E-12, 6.55274E-07, 8.3965732484076437E-08, -0.21074810776273881
DataValue, -20.937, 1000000, 6.5912200000000007E-12, 6.56031E-07, 8.3964585987261145E-08, -0.21405423590764325
DataValue, -20.875, 1000000, 6.59146E-12, 6.56758E-07, 8.39676433121019E-08, -0.21730792285031844
DataValue, -20.812, 1000000, 6.59091E-12, 6.55763E-07, 8.3960636942675166E-08, -0.2206140108678343
DataValue, -20.75, 1000000, 6.5914100000000005E-12, 6.55101E-07, 8.3967006369426745E-08, -0.22386760895700633
DataValue, -20.687, 1000000, 6.59083E-12, 6.57479E-07, 8.3959617834394891E-08, -0.22717366437101902
DataValue, -20.625, 1000000, 6.5903800000000004E-12, 6.53629E-07, 8.3953885350318472E-08, -0.23042698849522292
DataValue, -20.562, 1000000, 6.5902800000000009E-12, 6.52437E-07, 8.3952611464968151E-08, -0.2337326476512738
DataValue, -20.5, 1000000, 6.5900700000000008E-12, 6.56114E-07, 8.3949936305732479E-08, -0.23698575951433118
DataValue, -20.437, 1000000, 6.58989E-12, 6.56102E-07, 8.39476433121019E-08, -0.24029124311305725
DataValue, -20.375, 1000000, 6.5898000000000009E-12, 6.53224E-07, 8.3946496815286631E-08, -0.24354419207802544
DataValue, -20.312, 1000000, 6.5897000000000005E-12, 6.5581E-07, 8.39452229299363E-08, -0.24684956031050942
DataValue, -20.25, 1000000, 6.5897800000000006E-12, 6.5444E-07, 8.3946242038216572E-08, -0.25010245744426746
DataValue, -20.187, 1000000, 6.5897200000000007E-12, 6.50226E-07, 8.3945477707006369E-08, -0.25340782567675146
DataValue, -20.125, 1000000, 6.5894500000000008E-12, 6.5154299999999995E-07, 8.3942038216560507E-08, -0.25666064629777058
DataValue, -20.062, 1000000, 6.5893600000000005E-12, 6.53021E-07, 8.3940891719745229E-08, -0.25996584148089158
DataValue, -20, 1000000, 6.58941E-12, 6.4939099999999994E-07, 8.3941528662420376E-08, -0.26321856337579608
DataValue, -19.937, 1000000, 6.5895100000000007E-12, 6.5162E-07, 8.39428025477707E-08, -0.26652378614649669
DataValue, -19.875, 1000000, 6.5893200000000008E-12, 6.50577E-07, 8.3940382165605111E-08, -0.26977652285031839
DataValue, -19.812, 1000000, 6.58892E-12, 6.53188E-07, 8.3935286624203826E-08, -0.27308157507961767
DataValue, -19.75, 1000000, 6.5894500000000008E-12, 6.52413E-07, 8.3942038216560507E-08, -0.27633419824840755
DataValue, -19.687, 1000000, 6.58899E-12, 6.52258E-07, 8.3936178343949046E-08, -0.27963930063694248
DataValue, -19.625, 1000000, 6.58927E-12, 6.51334E-07, 8.3939745222929937E-08, -0.28289189665605086
DataValue, -19.562, 1000000, 6.5892500000000008E-12, 6.51143E-07, 8.3939490445859891E-08, -0.28619701910828016
DataValue, -19.5, 1000000, 6.5893100000000007E-12, 6.50851E-07, 8.3940254777070068E-08, -0.28944968917197444
DataValue, -19.437, 1000000, 6.58935E-12, 6.5076799999999994E-07, 8.3940764331210186E-08, -0.29275484673566871
DataValue, -19.375, 1000000, 6.5895700000000006E-12, 6.52771E-07, 8.39435668789809E-08, -0.29600760565286616
DataValue, -19.312, 1000000, 6.5893100000000007E-12, 6.49343E-07, 8.3940254777070068E-08, -0.29931281839171958
DataValue, -19.25, 1000000, 6.5889100000000009E-12, 6.51155E-07, 8.39351592356688E-08, -0.30256540453821651
DataValue, -19.187, 1000000, 6.58954E-12, 6.5080999999999994E-07, 8.3943184713375785E-08, -0.30587050943471333
DataValue, -19.125, 1000000, 6.5892200000000005E-12, 6.50911E-07, 8.3939108280254776E-08, -0.30912322886146493
DataValue, -19.062, 1000000, 6.5899900000000007E-12, 6.5023099999999994E-07, 8.394891719745223E-08, -0.31242852436305729
DataValue, -19, 1000000, 6.5897100000000006E-12, 6.50547E-07, 8.3945350318471339E-08, -0.31568147579617833
DataValue, -18.937, 1000000, 6.5897800000000006E-12, 6.5103E-07, 8.3946242038216572E-08, -0.31898684152070061
DataValue, -18.875, 1000000, 6.59023E-12, 6.5202599999999994E-07, 8.3951974522293E-08, -0.32223986946656052
DataValue, -18.812, 1000000, 6.59015E-12, 6.49957E-07, 8.3950955414012728E-08, -0.32554545839968146
DataValue, -18.75, 1000000, 6.59002E-12, 6.47525E-07, 8.3949299363057319E-08, -0.32879852583598729
DataValue, -18.687, 1000000, 6.59043E-12, 6.50786E-07, 8.3954522292993619E-08, -0.33210413232484071
DataValue, -18.625, 1000000, 6.5902100000000009E-12, 6.49016E-07, 8.3951719745222931E-08, -0.33535731576433125
DataValue, -18.562, 1000000, 6.59024E-12, 6.49838E-07, 8.395210191082802E-08, -0.33866292225318467
DataValue, -18.5, 1000000, 6.59042E-12, 6.50106E-07, 8.39543949044586E-08, -0.34191611062898086
DataValue, -18.437, 1000000, 6.59091E-12, 6.50822E-07, 8.3960636942675166E-08, -0.34522193781847127
DataValue, -18.375, 1000000, 6.59118E-12, 6.4948E-07, 8.3964076433121014E-08, -0.34847547914012739
DataValue, -18.312, 1000000, 6.59138E-12, 6.49773E-07, 8.3966624203821657E-08, -0.35178161480891712
DataValue, -18.25, 1000000, 6.5914E-12, 6.50136E-07, 8.3966878980891729E-08, -0.355035326433121
DataValue, -18.187, 1000000, 6.5916300000000007E-12, 6.49874E-07, 8.3969808917197459E-08, -0.35834157997611454
DataValue, -18.125, 1000000, 6.59186E-12, 6.51239E-07, 8.3972738853503177E-08, -0.361595466839172
DataValue, -18.062, 1000000, 6.5922500000000007E-12, 6.49463E-07, 8.3977707006369432E-08, -0.3649019912420382
DataValue, -18, 1000000, 6.59234E-12, 6.49796E-07, 8.3978853503184723E-08, -0.36815614960191084
DataValue, -17.937, 1000000, 6.59248E-12, 6.52437E-07, 8.3980636942675162E-08, -0.37146285207006369
DataValue, -17.875, 1000000, 6.59249E-12, 6.49379E-07, 8.3980764331210192E-08, -0.37471710421974525
DataValue, -17.812, 1000000, 6.5932100000000007E-12, 6.50225E-07, 8.3989936305732485E-08, -0.378024027388535
DataValue, -17.75, 1000000, 6.59309E-12, 6.49051E-07, 8.39884076433121E-08, -0.38127860780254785
DataValue, -17.687, 1000000, 6.5938100000000006E-12, 6.48533E-07, 8.3997579617834412E-08, -0.38458583192675161
DataValue, -17.625, 1000000, 6.59358E-12, 6.49814E-07, 8.3994649681528668E-08, -0.38784068136942684
DataValue, -17.562, 1000000, 6.59419E-12, 6.4915299999999994E-07, 8.4002420382165611E-08, -0.39114812368630575
DataValue, -17.5, 1000000, 6.59446E-12, 6.49612E-07, 8.4005859872611459E-08, -0.39440328411624215
DataValue, -17.437, 1000000, 6.5944900000000005E-12, 6.50249E-07, 8.4006242038216574E-08, -0.39771102237261152
DataValue, -17.375, 1000000, 6.5953E-12, 6.50899E-07, 8.4016560509554146E-08, -0.40096646417197462
DataValue, -17.312, 1000000, 6.5955100000000004E-12, 6.49588E-07, 8.40192356687898E-08, -0.40427466890923569
DataValue, -17.25, 1000000, 6.59578E-12, 6.49975E-07, 8.4022675159235666E-08, -0.40753048093152872
DataValue, -17.187, 1000000, 6.5958100000000008E-12, 6.5103E-07, 8.4023057324840767E-08, -0.41083888128980889
DataValue, -17.125, 1000000, 6.59632E-12, 6.47871E-07, 8.40295541401274E-08, -0.41409490063694276
DataValue, -17.062, 1000000, 6.5963400000000005E-12, 6.50011E-07, 8.4029808917197461E-08, -0.4174035693471338
DataValue, -17, 1000000, 6.5970500000000009E-12, 6.52794E-07, 8.4038853503184725E-08, -0.42065989968152878
