
SetupTitle, MOS cap measurement
PrimitiveTest, C-V Sweep
TestParameter, Channel.UnitTyp, CMU
TestParameter, Channel.Unit, CMU1:MF
TestParameter, Channel.IName, 
TestParameter, Channel.VName, VBias
TestParameter, Channel.Mode, 
TestParameter, Channel.Func, VAR1
TestParameter, Channel.Index, 
TestParameter, Channel.Time, 
TestParameter, Measurement.Primary.Locus, Single
TestParameter, Measurement.Primary.Scale, LINEAR
TestParameter, Measurement.Primary.Start, -8
TestParameter, Measurement.Primary.Stop, 7
TestParameter, Measurement.Primary.Step, 0.015
TestParameter, Measurement.Aborting.Condition, CONTINUE AT ANY
TestParameter, Measurement.PostOutput.Value, START
TestParameter, Measurement.PostOutput.Retention, OFF
TestParameter, Measurement.Secondary.ACLevel, 0.1
TestParameter, Measurement.Secondary.FName, Freq
TestParameter, Measurement.Secondary.Frequency, 500000
TestParameter, Measurement.Bias.Source, 0
TestParameter, Measurement.ImpedanceMode.Model, Cp-G
TestParameter, Measurement.ImpedanceMode.CName, C
TestParameter, Measurement.ImpedanceMode.LName, L
TestParameter, Measurement.ImpedanceMode.GName, G
TestParameter, Measurement.ImpedanceMode.RName, R
TestParameter, Measurement.ImpedanceMode.QName, Q
TestParameter, Measurement.ImpedanceMode.DName, D
TestParameter, Measurement.ImpedanceMode.YName, Y
TestParameter, Measurement.ImpedanceMode.ZName, Z
TestParameter, Measurement.ImpedanceMode.ThName, Theta
TestParameter, Measurement.ImpedanceMode.BName, B
TestParameter, Measurement.ImpedanceMode.XName, X
TestParameter, Measurement.Monitor.Unit, CMU1:MF
TestParameter, Measurement.Monitor.RangingMode, AUTO
TestParameter, Measurement.Monitor.RangeBoundary, 50
TestParameter, Measurement.Monitor.AcMonitorSymbol, 
TestParameter, Measurement.Monitor.DcMonitorSymbol, 
TestParameter, Measurement.Timing.Hold, 0
TestParameter, Measurement.Timing.Delay, 0
TestParameter, Measurement.Adc.UnitType, Cmu, Smu
TestParameter, Measurement.Adc.HighResolution.Mode, PLC, PLC
TestParameter, Measurement.Adc.HighResolution.Coeff, 1, 20
TestParameter, Measurement.WaitTime.Source.Coeff, 1
TestParameter, Measurement.WaitTime.Source.Offset, 0
TestParameter, Measurement.WaitTime.Monitor.Coeff, 1
TestParameter, Measurement.WaitTime.Monitor.Offset, 0
TestParameter, Function.User.Name, C_density, Q_density
TestParameter, Function.User.Unit, F/cm^2, e13/cm2
TestParameter, Function.User.Definition, C/100/3.14*1e6, integ(C_density,abs(VBias))/1.6*1e6
TestParameter, Output.Graph.Enabled, true
TestParameter, Output.Graph.XAxis.Data, VBias
TestParameter, Output.Graph.XAxis.Scale, Linear
TestParameter, Output.Graph.XAxis.Left, -15
TestParameter, Output.Graph.XAxis.Right, 6
TestParameter, Output.Graph.YAxis.Data, C, G, C_density, Q_density
TestParameter, Output.Graph.YAxis.Scale, Linear, Linear, Linear, Linear
TestParameter, Output.Graph.YAxis.Bottom, 0, 0, 0, 0
TestParameter, Output.Graph.YAxis.Top, 6.9999999999999991E-11, 0.001, 1, 1
TestParameter, Output.Graph.YAxis.Group, , , , 
TestParameter, Output.List.Data, VBias, C, G, Freq
TestParameter, AutoAnalysis.Interpolation, false
TestParameter, AutoAnalysis.Line1.Enabled, false
TestParameter, AutoAnalysis.Line1.Type, 1
TestParameter, AutoAnalysis.Line1.Fix, True
TestParameter, AutoAnalysis.Line1.YAxis, 0
TestParameter, AutoAnalysis.Line1.Point1.Type, 0
TestParameter, AutoAnalysis.Line1.Point1.XY.X, 
TestParameter, AutoAnalysis.Line1.Point1.XY.Y, 
TestParameter, AutoAnalysis.Line1.Point1.Data.Var, 
TestParameter, AutoAnalysis.Line1.Point1.Data.Condition, 
TestParameter, AutoAnalysis.Line1.Point1.Data.Start, false
TestParameter, AutoAnalysis.Line1.Point1.Data.StartVar, 
TestParameter, AutoAnalysis.Line1.Point1.Data.StartCondition, 
TestParameter, AutoAnalysis.Line1.Point2.Type, 0
TestParameter, AutoAnalysis.Line1.Point2.XY.X, 
TestParameter, AutoAnalysis.Line1.Point2.XY.Y, 
TestParameter, AutoAnalysis.Line1.Point2.Data.Var, 
TestParameter, AutoAnalysis.Line1.Point2.Data.Condition, 
TestParameter, AutoAnalysis.Line1.Point2.Data.Start, false
TestParameter, AutoAnalysis.Line1.Point2.Data.StartVar, 
TestParameter, AutoAnalysis.Line1.Point2.Data.StartCondition, 
TestParameter, AutoAnalysis.Line1.GradientExpr, 0
TestParameter, AutoAnalysis.Line2.Enabled, false
TestParameter, AutoAnalysis.Line2.Type, 1
TestParameter, AutoAnalysis.Line2.Fix, True
TestParameter, AutoAnalysis.Line2.YAxis, 0
TestParameter, AutoAnalysis.Line2.Point1.Type, 0
TestParameter, AutoAnalysis.Line2.Point1.XY.X, 
TestParameter, AutoAnalysis.Line2.Point1.XY.Y, 
TestParameter, AutoAnalysis.Line2.Point1.Data.Var, 
TestParameter, AutoAnalysis.Line2.Point1.Data.Condition, 
TestParameter, AutoAnalysis.Line2.Point1.Data.Start, false
TestParameter, AutoAnalysis.Line2.Point1.Data.StartVar, 
TestParameter, AutoAnalysis.Line2.Point1.Data.StartCondition, 
TestParameter, AutoAnalysis.Line2.Point2.Type, 0
TestParameter, AutoAnalysis.Line2.Point2.XY.X, 
TestParameter, AutoAnalysis.Line2.Point2.XY.Y, 
TestParameter, AutoAnalysis.Line2.Point2.Data.Var, 
TestParameter, AutoAnalysis.Line2.Point2.Data.Condition, 
TestParameter, AutoAnalysis.Line2.Point2.Data.Start, false
TestParameter, AutoAnalysis.Line2.Point2.Data.StartVar, 
TestParameter, AutoAnalysis.Line2.Point2.Data.StartCondition, 
TestParameter, AutoAnalysis.Line2.GradientExpr, 0
TestParameter, AutoAnalysis.Marker.Enabled, false
TestParameter, AutoAnalysis.Marker.Data.Var, 
TestParameter, AutoAnalysis.Marker.Data.Condition, 
TestParameter, AutoAnalysis.Marker.Data.Start, false
TestParameter, AutoAnalysis.Marker.Data.StartVar, 
TestParameter, AutoAnalysis.Marker.Data.StartCondition, 
MetaData, TestRecord.EntryPoint, true
MetaData, TestRecord.RecordTime, 10/30/2018 13:34:38
MetaData, TestRecord.TestTarget, 
MetaData, TestRecord.IterationIndex, 13
MetaData, TestRecord.Preservation, true
MetaData, TestRecord.Flag, #
MetaData, TestRecord.Remarks, #144_Noff_trigate_W30_S50_3qt5
MetaData, TestRecord.LinkKey, e7c5eab8-fcbc-4988-a41d-1c0ec4ceca18
Dimension1, 1001, 1001, 1001, 1001, 1001, 1001
Dimension2, 1, 1, 1, 1, 1, 1
DataName, VBias, Freq, C, G, C_density, Q_density
DataValue, -8, 500000, 3.85919E-14, 5.99693E-09, 1.2290414012738855E-10, 0
DataValue, -7.985, 500000, 4.02053E-14, -1.33786E-08, 1.280423566878981E-10, -1.1763117038216311E-06
DataValue, -7.97, 500000, 3.76098E-14, -4.57378E-10, 1.1977643312101911E-10, -2.3379622810509746E-06
DataValue, -7.955, 500000, 3.4796799999999996E-14, 3.94121E-09, 1.1081783439490444E-10, -3.4188729100318431E-06
DataValue, -7.94, 500000, 3.8371799999999996E-14, 1.06268E-08, 1.2220318471337579E-10, -4.5111589371018834E-06
DataValue, -7.925, 500000, 3.34023E-14, -7.63786E-09, 1.0637675159235667E-10, -5.5826273885350448E-06
DataValue, -7.91, 500000, 3.89369E-14, -3.83861E-09, 1.2400286624203822E-10, -6.6625318471337484E-06
DataValue, -7.8950000000000005, 500000, 3.65812E-14, -1.4878400000000001E-08, 1.1650063694267515E-10, -7.7898920183120675E-06
DataValue, -7.88, 500000, 3.32736E-14, 7.50175E-09, 1.0596687898089173E-10, -8.8327084992038272E-06
DataValue, -7.865, 500000, 3.66964E-14, -9.91182E-09, 1.1686751592356688E-10, -9.8772447253184543E-06
DataValue, -7.8500000000000005, 500000, 3.78029E-14, 1.1363500000000001E-08, 1.2039140127388535E-10, -1.0989395899681486E-05
DataValue, -7.835, 500000, 3.55466E-14, -6.05434E-09, 1.1320573248407643E-10, -1.2084382464171975E-05
DataValue, -7.82, 500000, 3.33237E-14, 5.39561E-09, 1.0612643312101911E-10, -1.3112501990445837E-05
DataValue, -7.8050000000000006, 500000, 3.40174E-14, -1.4011E-09, 1.0833566878980891E-10, -1.4117793093152821E-05
DataValue, -7.79, 500000, 3.9345799999999997E-14, 1.08227E-08, 1.2530509554140126E-10, -1.5212984175955409E-05
DataValue, -7.775, 500000, 3.61733E-14, -3.71169E-09, 1.1520159235668787E-10, -1.6340359275477681E-05
DataValue, -7.76, 500000, 3.61336E-14, -1.00096E-08, 1.1507515923566879E-10, -1.7419781548566892E-05
DataValue, -7.745, 500000, 3.69617E-14, -1.1223800000000001E-08, 1.1771242038216559E-10, -1.8510973328025464E-05
DataValue, -7.73, 500000, 3.42238E-14, 1.31218E-08, 1.0899299363057325E-10, -1.9573654956210161E-05
DataValue, -7.715, 500000, 3.16913E-14, 2.6384E-09, 1.0092770700636943E-10, -2.0557658240445867E-05
DataValue, -7.7, 500000, 3.93412E-14, -5.36956E-09, 1.2529044585987261E-10, -2.1618055832006352E-05
DataValue, -7.6850000000000005, 500000, 3.43823E-14, 1.4313500000000001E-08, 1.0949777070063694E-10, -2.2718625597133716E-05
DataValue, -7.67, 500000, 3.72854E-14, -7.13201E-09, 1.1874331210191082E-10, -2.37885056727707E-05
DataValue, -7.655, 500000, 3.78017E-14, 7.40977E-09, 1.2038757961783437E-10, -2.4909431727706981E-05
DataValue, -7.6400000000000006, 500000, 3.70725E-14, 3.9843500000000003E-10, 1.1806528662420382E-10, -2.6027179538216511E-05
DataValue, -7.625, 500000, 3.42781E-14, 3.44594E-09, 1.0916592356687899E-10, -2.7092325835987255E-05
DataValue, -7.61, 500000, 3.1393099999999997E-14, -5.7938500000000006E-10, 9.9978025477706992E-11, -2.8072688097133734E-05
DataValue, -7.595, 500000, 3.63769E-14, 6.586500000000001E-10, 1.1584999999999999E-10, -2.9084381966560525E-05
DataValue, -7.58, 500000, 3.51435E-14, 4.61586E-11, 1.1192197452229297E-10, -3.0152063097133748E-05
DataValue, -7.565, 500000, 3.59961E-14, -4.18802E-09, 1.1463726114649682E-10, -3.1214059514331176E-05
DataValue, -7.55, 500000, 3.1253799999999997E-14, -1.21478E-09, 9.9534394904458586E-11, -3.2217989152070067E-05
DataValue, -7.535, 500000, 3.50494E-14, 2.78818E-09, 1.1162229299363058E-10, -3.3207786126592339E-05
DataValue, -7.5200000000000005, 500000, 3.36851E-14, -1.38174E-08, 1.0727738853503183E-10, -3.4233878383757924E-05
DataValue, -7.505, 500000, 3.4947699999999996E-14, 8.8114600000000007E-10, 1.1129840764331209E-10, -3.5258452428343948E-05
DataValue, -7.49, 500000, 3.54594E-14, -1.06731E-09, 1.12928025477707E-10, -3.6309513833598704E-05
DataValue, -7.4750000000000005, 500000, 3.52602E-14, -1.25502E-08, 1.1229363057324841E-10, -3.7365240346337537E-05
DataValue, -7.46, 500000, 2.76056E-14, 1.61619E-09, 8.7915923566878969E-11, -3.8303722631369418E-05
DataValue, -7.445, 500000, 3.4584E-14, -1.06411E-08, 1.1014012738853503E-10, -3.923211037022291E-05
DataValue, -7.43, 500000, 3.6230899999999996E-14, -1.36746E-09, 1.1538503184713373E-10, -4.0289259554140144E-05
DataValue, -7.415, 500000, 3.28716E-14, -5.55032E-09, 1.0468662420382164E-10, -4.1320845441878971E-05
DataValue, -7.4, 500000, 3.6068499999999997E-14, 5.80529E-09, 1.1486783439490444E-10, -4.2350006966560479E-05
DataValue, -7.385, 500000, 3.4734299999999996E-14, -1.6124900000000002E-08, 1.1061878980891717E-10, -4.3406975517515932E-05
DataValue, -7.37, 500000, 3.5914199999999997E-14, -2.93613E-09, 1.1437643312101911E-10, -4.4461640624999988E-05
DataValue, -7.355, 500000, 3.48706E-14, -3.60875E-09, 1.110528662420382E-10, -4.55183404657643E-05
DataValue, -7.34, 500000, 3.2769399999999996E-14, 1.37417E-08, 1.0436114649681528E-10, -4.6528093650477705E-05
DataValue, -7.325, 500000, 3.84884E-14, -2.00952E-09, 1.2257452229299361E-10, -4.7591854597929917E-05
DataValue, -7.3100000000000005, 500000, 3.17331E-14, -6.3618E-09, 1.010608280254777E-10, -4.8640145302547726E-05
DataValue, -7.295, 500000, 3.92416E-14, 1.53945E-10, 1.2497324840764331E-10, -4.9699680035828016E-05
DataValue, -7.28, 500000, 3.6006599999999996E-14, 1.0673100000000001E-08, 1.1467070063694266E-10, -5.082301104697449E-05
DataValue, -7.2650000000000006, 500000, 3.68301E-14, -6.87246E-09, 1.1729331210191084E-10, -5.1910342356687842E-05
DataValue, -7.25, 500000, 3.87116E-14, 4.48663E-09, 1.2328535031847135E-10, -5.3038054836783426E-05
DataValue, -7.235, 500000, 3.54446E-14, -8.91498E-09, 1.1288089171974521E-10, -5.4145084096337544E-05
DataValue, -7.22, 500000, 3.28963E-14, -7.89476E-09, 1.0476528662420383E-10, -5.5165300557324842E-05
DataValue, -7.205, 500000, 4.13418E-14, 2.41292E-09, 1.3166178343949046E-10, -5.627355244824839E-05
DataValue, -7.19, 500000, 3.30233E-14, -5.96795E-09, 1.0516974522292993E-10, -5.7383700238853456E-05
DataValue, -7.175, 500000, 3.03095E-14, 1.4622600000000001E-08, 9.6527070063694268E-11, -5.8329154060509552E-05
DataValue, -7.16, 500000, 3.23828E-14, -1.22841E-08, 1.0312993630573248E-10, -5.9265046277866219E-05
DataValue, -7.1450000000000005, 500000, 3.7925E-14, -3.87551E-09, 1.2078025477707006E-10, -6.031462529856683E-05
DataValue, -7.13, 500000, 3.256E-14, -1.19866E-08, 1.0369426751592357E-10, -6.136684962181528E-05
DataValue, -7.115, 500000, 3.19392E-14, 7.52525E-09, 1.0171719745222929E-10, -6.2329715863853471E-05
DataValue, -7.1000000000000005, 500000, 3.4385E-14, 1.28005E-09, 1.0950636942675157E-10, -6.3319826333598682E-05
DataValue, -7.085, 500000, 3.96347E-14, 3.76878E-09, 1.2622515923566876E-10, -6.4424817874203819E-05
DataValue, -7.07, 500000, 3.78447E-14, 2.9791E-09, 1.2052452229299363E-10, -6.55814570063694E-05
DataValue, -7.055, 500000, 3.24029E-14, -8.31064E-09, 1.0319394904458597E-10, -6.6630137340764349E-05
DataValue, -7.04, 500000, 3.22506E-14, -9.99897E-09, 1.0270891719745223E-10, -6.7595307026273877E-05
DataValue, -7.025, 500000, 3.27489E-14, 8.09922E-09, 1.0429585987261145E-10, -6.8565641918789775E-05
DataValue, -7.01, 500000, 3.58535E-14, 6.08404E-09, 1.1418312101910827E-10, -6.9589762141719757E-05
DataValue, -6.995, 500000, 3.9087499999999996E-14, 1.43203E-08, 1.244824840764331E-10, -7.0708507165605073E-05
DataValue, -6.98, 500000, 3.59857E-14, 4.03727E-09, 1.1460414012738854E-10, -7.1829225716560466E-05
DataValue, -6.965, 500000, 3.33469E-14, -1.89596E-09, 1.0620031847133758E-10, -7.2864246616242021E-05
DataValue, -6.95, 500000, 3.41959E-14, 3.52564E-09, 1.0890414012738853E-10, -7.3872548765923545E-05
DataValue, -6.9350000000000005, 500000, 3.3336899999999996E-14, 7.48171E-09, 1.061684713375796E-10, -7.4880701632165563E-05
DataValue, -6.92, 500000, 3.29792E-14, -5.2526E-09, 1.0502929936305733E-10, -7.5870691182324839E-05
DataValue, -6.905, 500000, 3.35554E-14, -2.73097E-09, 1.0686433121019107E-10, -7.6863942575636912E-05
DataValue, -6.8900000000000006, 500000, 3.17837E-14, -6.32221E-09, 1.0122197452229298E-10, -7.7839347133757907E-05
DataValue, -6.875, 500000, 3.52762E-14, -4.1116600000000006E-10, 1.1234458598726113E-10, -7.8840440386146479E-05
DataValue, -6.86, 500000, 3.9044699999999996E-14, -2.84553E-09, 1.2434617834394903E-10, -7.9949928343949E-05
DataValue, -6.845, 500000, 3.40572E-14, 5.21479E-09, 1.0846242038216561E-10, -8.1041218650477714E-05
DataValue, -6.83, 500000, 3.53404E-14, 3.12513E-09, 1.1254904458598726E-10, -8.2077209892515918E-05
DataValue, -6.815, 500000, 3.73896E-14, 3.73535E-09, 1.1907515923566879E-10, -8.31629483479299E-05
DataValue, -6.8, 500000, 3.4044E-14, 3.36711E-09, 1.0842038216560507E-10, -8.4229333698248419E-05
DataValue, -6.785, 500000, 3.9635999999999996E-14, 8.11986E-09, 1.262292993630573E-10, -8.5329254080414012E-05
DataValue, -6.7700000000000005, 500000, 3.23298E-14, 2.08037E-09, 1.0296114649681526E-10, -8.6403584295382144E-05
DataValue, -6.755, 500000, 4.04107E-14, -2.63084E-09, 1.2869649681528663E-10, -8.748947949840767E-05
DataValue, -6.74, 500000, 3.62414E-14, -8.89732E-09, 1.154184713375796E-10, -8.86337684116242E-05
DataValue, -6.7250000000000005, 500000, 3.72119E-14, 1.31197E-09, 1.1850923566878981E-10, -8.973030453821654E-05
DataValue, -6.71, 500000, 3.48431E-14, -1.1376900000000001E-08, 1.1096528662420381E-10, -9.0805966361464979E-05
DataValue, -6.695, 500000, 3.2442499999999997E-14, -2.25112E-09, 1.0332006369426749E-10, -9.1810428941082784E-05
DataValue, -6.68, 500000, 3.49031E-14, -2.5119600000000004E-10, 1.111563694267516E-10, -9.28157872213376E-05
DataValue, -6.665, 500000, 4.28226E-14, 5.66702E-09, 1.3637770700636942E-10, -9.3976103204617821E-05
DataValue, -6.65, 500000, 3.7470599999999996E-14, -5.16593E-10, 1.1933312101910826E-10, -9.5174747710987222E-05
DataValue, -6.635, 500000, 3.37075E-14, -1.6784E-09, 1.0734872611464966E-10, -9.6237318869426747E-05
DataValue, -6.62, 500000, 3.56045E-14, -2.55779E-09, 1.1339012738853502E-10, -9.72720322452229E-05
DataValue, -6.605, 500000, 3.34127E-14, 7.40203E-09, 1.0640987261146498E-10, -9.8302344745222883E-05
DataValue, -6.59, 500000, 3.71623E-14, 5.10687E-09, 1.1835127388535029E-10, -9.9355912619426739E-05
DataValue, -6.575, 500000, 2.89324E-14, -3.07613E-09, 9.2141401273885348E-11, -0.00010034259703423564
DataValue, -6.5600000000000005, 500000, 3.84761E-14, -6.78349E-10, 1.2253535031847132E-10, -0.0001013488943073248
DataValue, -6.545, 500000, 3.84764E-14, 3.34907E-10, 1.2253630573248408E-10, -0.00010249766769506369
DataValue, -6.53, 500000, 3.35457E-14, 7.97784E-09, 1.0683343949044585E-10, -0.00010357283837579616
DataValue, -6.5150000000000006, 500000, 3.88621E-14, 5.56744E-11, 1.2376464968152867E-10, -0.00010465376691878976
DataValue, -6.5, 500000, 3.56699E-14, 5.3693E-09, 1.1359840764331209E-10, -0.00010576640625
DataValue, -6.485, 500000, 3.54259E-14, -7.72288E-09, 1.1282133757961782E-10, -0.00010682774880573245
DataValue, -6.47, 500000, 3.8369099999999996E-14, 1.03058E-09, 1.2219458598726113E-10, -0.00010792938594745225
DataValue, -6.455, 500000, 3.61518E-14, 9.79853E-09, 1.1513312101910829E-10, -0.00010904185957404457
DataValue, -6.44, 500000, 3.56167E-14, -3.86909E-09, 1.1342898089171972E-10, -0.00011011324442675154
DataValue, -6.425, 500000, 3.62679E-14, -4.80467E-09, 1.1550286624203821E-10, -0.00011118636246019108
DataValue, -6.41, 500000, 3.74318E-14, -3.83439E-09, 1.1920955414012738E-10, -0.00011228657693073245
DataValue, -6.3950000000000005, 500000, 3.93719E-14, -8.60805E-09, 1.2538821656050955E-10, -0.00011343312898089166
DataValue, -6.38, 500000, 3.60805E-14, 3.63965E-09, 1.1490605095541402E-10, -0.00011455950835987259
DataValue, -6.365, 500000, 3.91255E-14, -7.63385E-09, 1.2460350318471336E-10, -0.00011568220939490442
DataValue, -6.3500000000000005, 500000, 3.26003E-14, -3.44361E-09, 1.0382261146496813E-10, -0.00011675295680732477
DataValue, -6.335, 500000, 4.04048E-14, -1.39903E-09, 1.2867770700636941E-10, -0.0001178428020501592
DataValue, -6.32, 500000, 3.84888E-14, 2.16732E-08, 1.2257579617834395E-10, -0.00011902055284633755
DataValue, -6.305, 500000, 3.9777E-14, -7.31781E-09, 1.2667834394904459E-10, -0.00012018893162818472
DataValue, -6.29, 500000, 3.76921E-14, -8.01201E-11, 1.2003853503184715E-10, -0.00012134541699840763
DataValue, -6.275, 500000, 3.69822E-14, -5.80004E-09, 1.1777770700636943E-10, -0.00012246018063296173
DataValue, -6.26, 500000, 3.92519E-14, -7.91235E-09, 1.25006050955414E-10, -0.00012359822949840766
DataValue, -6.245, 500000, 3.90838E-14, 1.40606E-09, 1.2447070063694267E-10, -0.00012476765177149679
DataValue, -6.23, 500000, 3.83598E-14, -9.53898E-09, 1.2216496815286623E-10, -0.00012592375646894899
DataValue, -6.215, 500000, 3.35964E-14, 8.21612E-09, 1.0699490445859873E-10, -0.00012699794337181529
DataValue, -6.2, 500000, 4.3174E-14, -4.02947E-09, 1.374968152866242E-10, -0.000128143998308121
DataValue, -6.1850000000000005, 500000, 4.17475E-14, 5.74957E-09, 1.3295382165605095E-10, -0.00012941173566878976
DataValue, -6.17, 500000, 3.9007E-14, -1.85204E-09, 1.2422611464968152E-10, -0.00013061726662022294
DataValue, -6.155, 500000, 3.63832E-14, 5.19558E-10, 1.158700636942675E-10, -0.00013174271745621018
DataValue, -6.1400000000000006, 500000, 4.18783E-14, -1.32375E-09, 1.3337038216560508E-10, -0.00013291103204617831
DataValue, -6.125, 500000, 3.51744E-14, -2.75528E-09, 1.1202038216560509E-10, -0.0001340613012539809
DataValue, -6.11, 500000, 4.33156E-14, 4.6126E-09, 1.3794777070063694E-10, -0.00013523302697054137
DataValue, -6.095, 500000, 3.95325E-14, 9.3521299999999992E-11, 1.2589968152866242E-10, -0.00013646981190286627
DataValue, -6.08, 500000, 3.88277E-14, -9.63963E-09, 1.2365509554140127E-10, -0.00013763959992038217
DataValue, -6.065, 500000, 3.87559E-14, 4.68518E-09, 1.2342643312101909E-10, -0.00013879779458598725
DataValue, -6.05, 500000, 3.8926399999999996E-14, 3.59197E-09, 1.2396942675159236E-10, -0.00013995746267914013
