
SetupTitle, MOS cap measurement
PrimitiveTest, C-V Sweep
TestParameter, Channel.UnitTyp, CMU
TestParameter, Channel.Unit, CMU1:MF
TestParameter, Channel.IName, 
TestParameter, Channel.VName, VBias
TestParameter, Channel.Mode, 
TestParameter, Channel.Func, VAR1
TestParameter, Channel.Index, 
TestParameter, Channel.Time, 
TestParameter, Measurement.Primary.Locus, Single
TestParameter, Measurement.Primary.Scale, LINEAR
TestParameter, Measurement.Primary.Start, -8
TestParameter, Measurement.Primary.Stop, 7
TestParameter, Measurement.Primary.Step, 0.015
TestParameter, Measurement.Aborting.Condition, CONTINUE AT ANY
TestParameter, Measurement.PostOutput.Value, START
TestParameter, Measurement.PostOutput.Retention, OFF
TestParameter, Measurement.Secondary.ACLevel, 0.1
TestParameter, Measurement.Secondary.FName, Freq
TestParameter, Measurement.Secondary.Frequency, 500000
TestParameter, Measurement.Bias.Source, 0
TestParameter, Measurement.ImpedanceMode.Model, Cp-G
TestParameter, Measurement.ImpedanceMode.CName, C
TestParameter, Measurement.ImpedanceMode.LName, L
TestParameter, Measurement.ImpedanceMode.GName, G
TestParameter, Measurement.ImpedanceMode.RName, R
TestParameter, Measurement.ImpedanceMode.QName, Q
TestParameter, Measurement.ImpedanceMode.DName, D
TestParameter, Measurement.ImpedanceMode.YName, Y
TestParameter, Measurement.ImpedanceMode.ZName, Z
TestParameter, Measurement.ImpedanceMode.ThName, Theta
TestParameter, Measurement.ImpedanceMode.BName, B
TestParameter, Measurement.ImpedanceMode.XName, X
TestParameter, Measurement.Monitor.Unit, CMU1:MF
TestParameter, Measurement.Monitor.RangingMode, AUTO
TestParameter, Measurement.Monitor.RangeBoundary, 50
TestParameter, Measurement.Monitor.AcMonitorSymbol, 
TestParameter, Measurement.Monitor.DcMonitorSymbol, 
TestParameter, Measurement.Timing.Hold, 0
TestParameter, Measurement.Timing.Delay, 0
TestParameter, Measurement.Adc.UnitType, Cmu, Smu
TestParameter, Measurement.Adc.HighResolution.Mode, PLC, PLC
TestParameter, Measurement.Adc.HighResolution.Coeff, 1, 20
TestParameter, Measurement.WaitTime.Source.Coeff, 1
TestParameter, Measurement.WaitTime.Source.Offset, 0
TestParameter, Measurement.WaitTime.Monitor.Coeff, 1
TestParameter, Measurement.WaitTime.Monitor.Offset, 0
TestParameter, Function.User.Name, C_density, Q_density
TestParameter, Function.User.Unit, F/cm^2, e13/cm2
TestParameter, Function.User.Definition, C/100/3.14*1e6, integ(C_density,abs(VBias))/1.6*1e6
TestParameter, Output.Graph.Enabled, true
TestParameter, Output.Graph.XAxis.Data, VBias
TestParameter, Output.Graph.XAxis.Scale, Linear
TestParameter, Output.Graph.XAxis.Left, -15
TestParameter, Output.Graph.XAxis.Right, 6
TestParameter, Output.Graph.YAxis.Data, C, G, C_density, Q_density
TestParameter, Output.Graph.YAxis.Scale, Linear, Linear, Linear, Linear
TestParameter, Output.Graph.YAxis.Bottom, 0, 0, 0, 0
TestParameter, Output.Graph.YAxis.Top, 6.9999999999999991E-11, 0.001, 1, 1
TestParameter, Output.Graph.YAxis.Group, , , , 
TestParameter, Output.List.Data, VBias, C, G, Freq
TestParameter, AutoAnalysis.Interpolation, false
TestParameter, AutoAnalysis.Line1.Enabled, false
TestParameter, AutoAnalysis.Line1.Type, 1
TestParameter, AutoAnalysis.Line1.Fix, True
TestParameter, AutoAnalysis.Line1.YAxis, 0
TestParameter, AutoAnalysis.Line1.Point1.Type, 0
TestParameter, AutoAnalysis.Line1.Point1.XY.X, 
TestParameter, AutoAnalysis.Line1.Point1.XY.Y, 
TestParameter, AutoAnalysis.Line1.Point1.Data.Var, 
TestParameter, AutoAnalysis.Line1.Point1.Data.Condition, 
TestParameter, AutoAnalysis.Line1.Point1.Data.Start, false
TestParameter, AutoAnalysis.Line1.Point1.Data.StartVar, 
TestParameter, AutoAnalysis.Line1.Point1.Data.StartCondition, 
TestParameter, AutoAnalysis.Line1.Point2.Type, 0
TestParameter, AutoAnalysis.Line1.Point2.XY.X, 
TestParameter, AutoAnalysis.Line1.Point2.XY.Y, 
TestParameter, AutoAnalysis.Line1.Point2.Data.Var, 
TestParameter, AutoAnalysis.Line1.Point2.Data.Condition, 
TestParameter, AutoAnalysis.Line1.Point2.Data.Start, false
TestParameter, AutoAnalysis.Line1.Point2.Data.StartVar, 
TestParameter, AutoAnalysis.Line1.Point2.Data.StartCondition, 
TestParameter, AutoAnalysis.Line1.GradientExpr, 0
TestParameter, AutoAnalysis.Line2.Enabled, false
TestParameter, AutoAnalysis.Line2.Type, 1
TestParameter, AutoAnalysis.Line2.Fix, True
TestParameter, AutoAnalysis.Line2.YAxis, 0
TestParameter, AutoAnalysis.Line2.Point1.Type, 0
TestParameter, AutoAnalysis.Line2.Point1.XY.X, 
TestParameter, AutoAnalysis.Line2.Point1.XY.Y, 
TestParameter, AutoAnalysis.Line2.Point1.Data.Var, 
TestParameter, AutoAnalysis.Line2.Point1.Data.Condition, 
TestParameter, AutoAnalysis.Line2.Point1.Data.Start, false
TestParameter, AutoAnalysis.Line2.Point1.Data.StartVar, 
TestParameter, AutoAnalysis.Line2.Point1.Data.StartCondition, 
TestParameter, AutoAnalysis.Line2.Point2.Type, 0
TestParameter, AutoAnalysis.Line2.Point2.XY.X, 
TestParameter, AutoAnalysis.Line2.Point2.XY.Y, 
TestParameter, AutoAnalysis.Line2.Point2.Data.Var, 
TestParameter, AutoAnalysis.Line2.Point2.Data.Condition, 
TestParameter, AutoAnalysis.Line2.Point2.Data.Start, false
TestParameter, AutoAnalysis.Line2.Point2.Data.StartVar, 
TestParameter, AutoAnalysis.Line2.Point2.Data.StartCondition, 
TestParameter, AutoAnalysis.Line2.GradientExpr, 0
TestParameter, AutoAnalysis.Marker.Enabled, false
TestParameter, AutoAnalysis.Marker.Data.Var, 
TestParameter, AutoAnalysis.Marker.Data.Condition, 
TestParameter, AutoAnalysis.Marker.Data.Start, false
TestParameter, AutoAnalysis.Marker.Data.StartVar, 
TestParameter, AutoAnalysis.Marker.Data.StartCondition, 
MetaData, TestRecord.EntryPoint, true
MetaData, TestRecord.RecordTime, 10/30/2018 13:29:17
MetaData, TestRecord.TestTarget, 
MetaData, TestRecord.IterationIndex, 10
MetaData, TestRecord.Preservation, true
MetaData, TestRecord.Flag, #
MetaData, TestRecord.Remarks, #144_Noff_trigate_W15_S50_3qt4
MetaData, TestRecord.LinkKey, 9729dbee-1961-403b-ae85-ed1aff15093c
Dimension1, 1001, 1001, 1001, 1001, 1001, 1001
Dimension2, 1, 1, 1, 1, 1, 1
DataName, VBias, Freq, C, G, C_density, Q_density
DataValue, -8, 500000, 4.06966E-14, 1.73925E-09, 1.2960700636942677E-10, 0
DataValue, -7.985, 500000, 4.01271E-14, 7.4747700000000006E-10, 1.277933121019108E-10, -1.2065639928343692E-06
DataValue, -7.97, 500000, 4.21003E-14, 8.6106600000000007E-10, 1.3407738853503183E-10, -2.4340829020700841E-06
DataValue, -7.955, 500000, 4.35358E-14, 8.37074E-10, 1.3864904458598726E-10, -3.712488057324834E-06
DataValue, -7.94, 500000, 3.90844E-14, 3.55179E-09, 1.2447261146496815E-10, -4.9458708200636613E-06
DataValue, -7.925, 500000, 4.25627E-14, 3.30348E-09, 1.3554999999999999E-10, -6.1647268113057454E-06
DataValue, -7.91, 500000, 4.3176999999999996E-14, 6.57992E-09, 1.3750636942675157E-10, -7.4446785429936157E-06
DataValue, -7.8950000000000005, 500000, 4.1195799999999996E-14, 4.2655700000000005E-10, 1.3119681528662418E-10, -8.7042247213375382E-06
DataValue, -7.88, 500000, 4.18749E-14, 8.68967E-09, 1.3335955414012738E-10, -9.94433270302548E-06
DataValue, -7.865, 500000, 3.78047E-14, -4.55067E-09, 1.2039713375796176E-10, -1.1133817177547748E-05
DataValue, -7.8500000000000005, 500000, 3.7534499999999996E-14, 1.78789E-09, 1.1953662420382164E-10, -1.2258506667993585E-05
DataValue, -7.835, 500000, 3.94567E-14, 4.91091E-10, 1.2565828025477706E-10, -1.340785778264331E-05
DataValue, -7.82, 500000, 4.15704E-14, 5.5514E-09, 1.3238980891719742E-10, -1.4617458200636913E-05
DataValue, -7.8050000000000006, 500000, 3.95976E-14, 6.74908E-09, 1.2610700636942675E-10, -1.5829162022292938E-05
DataValue, -7.79, 500000, 4.08552E-14, 3.62625E-09, 1.3011210191082803E-10, -1.7030189092356676E-05
DataValue, -7.775, 500000, 3.7698999999999997E-14, 2.00598E-09, 1.2006050955414011E-10, -1.820287320859869E-05
DataValue, -7.76, 500000, 4.00695E-14, -1.59676E-09, 1.2760987261146495E-10, -1.9363828125000005E-05
DataValue, -7.745, 500000, 3.84336E-14, 5.32186E-09, 1.224E-10, -2.0535749402866225E-05
DataValue, -7.73, 500000, 4.0312E-14, 5.9126E-09, 1.2838216560509555E-10, -2.1711290804140086E-05
DataValue, -7.715, 500000, 4.16551E-14, -7.66089E-09, 1.3265955414012739E-10, -2.2934923865445864E-05
DataValue, -7.7, 500000, 3.84533E-14, 7.88478E-09, 1.2246273885350318E-10, -2.4130809613853478E-05
DataValue, -7.6850000000000005, 500000, 4.22267E-14, 7.2163E-10, 1.3447993630573249E-10, -2.5335228403662371E-05
DataValue, -7.67, 500000, 3.95523E-14, 3.21271E-09, 1.2596273885350319E-10, -2.6556053443471336E-05
DataValue, -7.655, 500000, 3.78753E-14, -6.1706200000000006E-10, 1.20621974522293E-10, -2.7711919287420356E-05
DataValue, -7.6400000000000006, 500000, 3.9166E-14, 1.28662E-09, 1.2473248407643312E-10, -2.8862018312101861E-05
DataValue, -7.625, 500000, 3.83126E-14, 2.40162E-09, 1.2201464968152865E-10, -3.0018645501592349E-05
DataValue, -7.61, 500000, 4.00647E-14, 3.48942E-09, 1.2759458598726115E-10, -3.118868879378978E-05
DataValue, -7.595, 500000, 3.7456999999999996E-14, -4.09274E-09, 1.1928980891719743E-10, -3.2345959394904473E-05
DataValue, -7.58, 500000, 4.28235E-14, 8.68695E-09, 1.3638057324840762E-10, -3.3544414311305725E-05
DataValue, -7.565, 500000, 3.55877E-14, 5.54834E-09, 1.1333662420382167E-10, -3.4714963674363019E-05
DataValue, -7.55, 500000, 3.83471E-14, -9.73762E-09, 1.2212452229299363E-10, -3.5818687798566888E-05
DataValue, -7.535, 500000, 3.75722E-14, 6.75191E-10, 1.1965668789808918E-10, -3.6952037221337565E-05
DataValue, -7.5200000000000005, 500000, 3.90327E-14, -5.80574E-10, 1.2430796178343947E-10, -3.80956215167197E-05
DataValue, -7.505, 500000, 3.7729E-14, -3.69615E-09, 1.20156050955414E-10, -3.924154657643312E-05
DataValue, -7.49, 500000, 3.8495E-14, -1.05589E-09, 1.2259554140127387E-10, -4.0379444665605065E-05
DataValue, -7.4750000000000005, 500000, 3.97408E-14, -1.31768E-09, 1.2656305732484076E-10, -4.1547375597133704E-05
DataValue, -7.46, 500000, 3.99494E-14, -1.358E-09, 1.2722738853503182E-10, -4.2737018312101904E-05
DataValue, -7.445, 500000, 4.10948E-14, 1.14209E-09, 1.3087515923566877E-10, -4.3946874004777035E-05
DataValue, -7.43, 500000, 3.8571599999999996E-14, 1.4671E-09, 1.2283949044585985E-10, -4.5136161425159247E-05
DataValue, -7.415, 500000, 4.00179E-14, -5.05358E-09, 1.2744554140127389E-10, -4.6309372511942659E-05
DataValue, -7.4, 500000, 3.74166E-14, 9.51686E-09, 1.1916114649681528E-10, -4.7465341361464927E-05
DataValue, -7.385, 500000, 3.12682E-14, 5.1429E-09, 9.9580254777070048E-11, -4.84906916799363E-05
DataValue, -7.37, 500000, 3.5908699999999996E-14, -1.55577E-11, 1.1435891719745222E-10, -4.9493531548566849E-05
DataValue, -7.355, 500000, 3.91531E-14, 3.52872E-10, 1.2469140127388533E-10, -5.0614079916401222E-05
DataValue, -7.34, 500000, 3.6540799999999996E-14, -1.24911E-09, 1.1637197452229298E-10, -5.1744064490445845E-05
DataValue, -7.325, 500000, 3.7407E-14, -2.04623E-09, 1.1913057324840766E-10, -5.2847982683120983E-05
DataValue, -7.3100000000000005, 500000, 3.79089E-14, 6.27699E-09, 1.2072898089171974E-10, -5.3972324343152804E-05
DataValue, -7.295, 500000, 3.85456E-14, -1.0163E-09, 1.2275668789808918E-10, -5.5113663415605077E-05
DataValue, -7.28, 500000, 3.65406E-14, -1.80541E-09, 1.1637133757961782E-10, -5.6234576035031805E-05
DataValue, -7.2650000000000006, 500000, 3.65144E-14, -5.0835E-09, 1.1628789808917195E-10, -5.732516620222923E-05
DataValue, -7.25, 500000, 3.76014E-14, 1.4523100000000001E-08, 1.1974968152866242E-10, -5.8431592356687867E-05
DataValue, -7.235, 500000, 4.00024E-14, 6.78767E-09, 1.27396178343949E-10, -5.959008857484071E-05
DataValue, -7.22, 500000, 3.8688E-14, 1.05663E-08, 1.2321019108280253E-10, -6.0764805931528649E-05
DataValue, -7.205, 500000, 3.9261E-14, 1.76318E-09, 1.2503503184713376E-10, -6.19284554140127E-05
DataValue, -7.19, 500000, 3.79133E-14, -4.38359E-10, 1.2074299363057323E-10, -6.3080539908439434E-05
DataValue, -7.175, 500000, 3.89973E-14, 8.55876E-09, 1.2419522292993629E-10, -6.4228687798566862E-05
DataValue, -7.16, 500000, 4.07956E-14, -5.69155E-09, 1.2992229299363056E-10, -6.5419863654458556E-05
DataValue, -7.1450000000000005, 500000, 4.05133E-14, 2.31594E-09, 1.2902324840764329E-10, -6.6633670879777E-05
DataValue, -7.13, 500000, 4.37143E-14, 5.50551E-09, 1.3921751592356686E-10, -6.7891049462579585E-05
DataValue, -7.115, 500000, 3.90842E-14, 2.63787E-09, 1.24471974522293E-10, -6.9127093949044539E-05
DataValue, -7.1000000000000005, 500000, 3.82901E-14, -1.0055300000000001E-08, 1.2194299363057323E-10, -7.0282164112261069E-05
DataValue, -7.085, 500000, 4.01919E-14, 6.03215E-09, 1.2799968152866241E-10, -7.1453770402070028E-05
DataValue, -7.07, 500000, 4.02075E-14, -5.67002E-09, 1.2804936305732485E-10, -7.2654000298566821E-05
DataValue, -7.055, 500000, 3.69315E-14, -6.15751E-09, 1.1761624203821656E-10, -7.38055578224522E-05
DataValue, -7.04, 500000, 4.09789E-14, -6.20863E-09, 1.30506050955414E-10, -7.4968631070859826E-05
DataValue, -7.025, 500000, 3.78122E-14, -3.58605E-10, 1.2042101910828025E-10, -7.6144851711783371E-05
DataValue, -7.01, 500000, 4.14091E-14, -5.61383E-09, 1.3187611464968154E-10, -7.7327494526273854E-05
DataValue, -6.995, 500000, 3.95727E-14, 8.19951E-09, 1.2602770700636942E-10, -7.8536418690286578E-05
DataValue, -6.98, 500000, 3.92427E-14, 4.16725E-09, 1.2497675159235669E-10, -7.9713002089968065E-05
DataValue, -6.965, 500000, 3.52958E-14, 1.85371E-09, 1.1240700636942674E-10, -8.0825738455413978E-05
DataValue, -6.95, 500000, 3.89445E-14, 6.31609E-10, 1.2402707006369426E-10, -8.1934023188694216E-05
DataValue, -6.9350000000000005, 500000, 3.86965E-14, -4.05648E-09, 1.2323726114649681E-10, -8.3093074741241962E-05
DataValue, -6.92, 500000, 3.77865E-14, -1.63007E-09, 1.203391719745223E-10, -8.4234839271496776E-05
DataValue, -6.905, 500000, 3.95894E-14, 2.7217E-10, 1.260808917197452E-10, -8.5389933320063628E-05
DataValue, -6.8900000000000006, 500000, 3.81799E-14, 2.81922E-09, 1.215920382165605E-10, -8.655090017914004E-05
DataValue, -6.875, 500000, 3.8243E-14, 2.26274E-09, 1.2179299363057324E-10, -8.7691767515923536E-05
DataValue, -6.86, 500000, 3.83309E-14, -2.23048E-11, 1.2207292993630572E-10, -8.8834889032643263E-05
DataValue, -6.845, 500000, 4.00195E-14, 5.0936800000000006E-10, 1.2745063694267515E-10, -9.0004530752388532E-05
DataValue, -6.83, 500000, 4.4870699999999996E-14, 2.4425E-09, 1.4290031847133758E-10, -9.1271800855891681E-05
DataValue, -6.815, 500000, 4.29876E-14, 7.6136E-09, 1.3690318471337578E-10, -9.258337977707E-05
DataValue, -6.8, 500000, 4.3118599999999997E-14, 1.39457E-09, 1.3732038216560507E-10, -9.3868802746815272E-05
DataValue, -6.785, 500000, 3.5106E-14, 1.67542E-09, 1.1180254777070065E-10, -9.50365664808917E-05
DataValue, -6.7700000000000005, 500000, 3.90294E-14, 1.02872E-08, 1.2429745222929935E-10, -9.6143285230891671E-05
DataValue, -6.755, 500000, 3.61562E-14, 3.00367E-09, 1.1514713375796178E-10, -9.7265681727707E-05
DataValue, -6.74, 500000, 3.9889499999999996E-14, 1.00066E-08, 1.2703662420382162E-10, -9.8400918093152846E-05
DataValue, -6.7250000000000005, 500000, 4.39905E-14, -1.50863E-09, 1.4009713375796178E-10, -9.9653107583598676E-05
DataValue, -6.71, 500000, 3.83688E-14, 9.67954E-11, 1.221936305732484E-10, -0.00010088259554140127
DataValue, -6.695, 500000, 3.60952E-14, -1.16188E-08, 1.1495286624203821E-10, -0.00010199421974522291
DataValue, -6.68, 500000, 3.74566E-14, -5.24507E-09, 1.192885350318471E-10, -0.00010309222631369429
DataValue, -6.665, 500000, 4.1030599999999996E-14, -2.41406E-09, 1.3067070063694266E-10, -0.00010426391023089172
DataValue, -6.65, 500000, 3.84571E-14, -8.76973E-10, 1.2247484076433119E-10, -0.00010545052995621016
DataValue, -6.635, 500000, 4.25093E-14, -6.17327E-09, 1.3537993630573249E-10, -0.00010665922422372613
DataValue, -6.62, 500000, 3.66658E-14, -6.31571E-09, 1.1677006369426752E-10, -0.0001078411773487261
DataValue, -6.605, 500000, 4.19508E-14, 8.94774E-09, 1.3360127388535032E-10, -0.00010901479299363054
DataValue, -6.59, 500000, 3.80656E-14, 1.40892E-09, 1.21228025477707E-10, -0.00011020930533439492
DataValue, -6.575, 500000, 3.91834E-14, -4.27639E-09, 1.2478789808917196E-10, -0.00011136250497611464
DataValue, -6.5600000000000005, 500000, 4.0846499999999997E-14, -4.77779E-09, 1.3008439490445859E-10, -0.00011255721884952226
DataValue, -6.545, 500000, 4.11447E-14, -1.421E-09, 1.31034076433121E-10, -0.00011378121168391721
DataValue, -6.53, 500000, 3.99687E-14, -2.65331E-10, 1.2728885350318471E-10, -0.00011499210041799361
DataValue, -6.5150000000000006, 500000, 4.2650299999999996E-14, 4.02531E-10, 1.3582898089171974E-10, -0.0001162254652667197
DataValue, -6.5, 500000, 4.32143E-14, 4.2354E-09, 1.376251592356688E-10, -0.00011750728154856689
DataValue, -6.485, 500000, 4.5029799999999997E-14, 5.64077E-09, 1.4340700636942676E-10, -0.00011882461982484074
DataValue, -6.47, 500000, 4.08535E-14, -2.53276E-09, 1.3010668789808916E-10, -0.00012010671526671977
DataValue, -6.455, 500000, 4.31583E-14, 7.29523E-09, 1.3744681528662421E-10, -0.00012136087231289809
DataValue, -6.44, 500000, 3.97111E-14, 5.45734E-09, 1.264684713375796E-10, -0.00012259797521894903
DataValue, -6.425, 500000, 4.08217E-14, -3.08897E-09, 1.3000541401273887E-10, -0.0001238001965565287
DataValue, -6.41, 500000, 4.3473299999999996E-14, 3.18166E-09, 1.3845E-10, -0.00012505858130971339
DataValue, -6.3950000000000005, 500000, 4.40154E-14, -2.91931E-09, 1.4017643312101911E-10, -0.00012636464271496812
DataValue, -6.38, 500000, 4.03773E-14, 1.30451E-08, 1.2859012738853503E-10, -0.0001276244859673567
DataValue, -6.365, 500000, 4.4559E-14, -3.59639E-09, 1.4190764331210191E-10, -0.00012889244426751592
DataValue, -6.3500000000000005, 500000, 4.30481E-14, -1.8834E-09, 1.3709585987261143E-10, -0.00013020027318869424
DataValue, -6.335, 500000, 4.2440899999999996E-14, -2.13994E-09, 1.3516210191082803E-10, -0.00013147648238455418
DataValue, -6.32, 500000, 4.41477E-14, -4.64818E-09, 1.4059777070063692E-10, -0.00013276910678742038
DataValue, -6.305, 500000, 4.31439E-14, 1.41437E-09, 1.3740095541401274E-10, -0.00013407222581608285
DataValue, -6.29, 500000, 4.27314E-14, -3.65072E-09, 1.3608726114649682E-10, -0.00013535420183121021
DataValue, -6.275, 500000, 4.50714E-14, -3.14092E-09, 1.4353949044585984E-10, -0.00013666495222929934
DataValue, -6.26, 500000, 4.1855E-14, 5.43138E-09, 1.3329617834394904E-10, -0.00013796261942675164
DataValue, -6.245, 500000, 4.20401E-14, -1.04832E-08, 1.338856687898089E-10, -0.00013921503433519109
DataValue, -6.23, 500000, 4.28666E-14, 4.7927E-09, 1.3651783439490447E-10, -0.0001404825507563694
DataValue, -6.215, 500000, 4.21846E-14, 7.97353E-09, 1.3434585987261147E-10, -0.00014175222432324846
DataValue, -6.2, 500000, 4.5065099999999996E-14, -3.06143E-09, 1.4351942675159234E-10, -0.00014305471785429935
DataValue, -6.1850000000000005, 500000, 4.33523E-14, 3.40909E-10, 1.3806464968152866E-10, -0.00014437464321257959
DataValue, -6.17, 500000, 4.63455E-14, 6.67006E-09, 1.4759713375796181E-10, -0.00014571368282245226
DataValue, -6.155, 500000, 4.25663E-14, -5.77608E-09, 1.3556146496815286E-10, -0.00014704098875398087
DataValue, -6.1400000000000006, 500000, 4.35799E-14, 2.23683E-11, 1.3878949044585986E-10, -0.00014832700885748405
DataValue, -6.125, 500000, 4.9047899999999996E-14, -7.66254E-09, 1.5620350318471333E-10, -0.00014970978851512739
DataValue, -6.11, 500000, 4.4784399999999996E-14, 9.97271E-09, 1.4262547770700636E-10, -0.00015111054936305731
DataValue, -6.095, 500000, 4.4024599999999997E-14, 7.11391E-09, 1.4020573248407643E-10, -0.00015243632066082807
DataValue, -6.08, 500000, 4.70569E-14, 1.69994E-08, 1.4986273885350316E-10, -0.00015379601662022296
DataValue, -6.065, 500000, 4.53905E-14, -1.48835E-08, 1.4455573248407642E-10, -0.00015517610320461782
DataValue, -6.05, 500000, 4.5090299999999997E-14, -3.33965E-09, 1.4359968152866239E-10, -0.00015652683170780258
DataValue, -6.035, 500000, 4.47629E-14, 1.46929E-09, 1.4255700636942676E-10, -0.00015786819118232483
DataValue, -6.0200000000000005, 500000, 4.59027E-14, 6.43294E-09, 1.4618694267515923E-10, -0.00015922167844347132
