
SetupTitle, HEMT_transfer
PrimitiveTest, I/V Sweep
TestParameter, Context.MainFrame, B1500A
TestParameter, Channel.UnitType, SMU, SMU, SMU
TestParameter, Channel.Unit, SMU1:MP, SMU2:MC, GNDU:GND
TestParameter, Channel.IName, Id, Ig, Is
TestParameter, Channel.VName, Vd, Vg, Vs
TestParameter, Channel.Mode, V, V, COMMON
TestParameter, Channel.Func, CONST, VAR1, CONST
TestParameter, Channel.Index, 
TestParameter, Channel.Time, 
TestParameter, Measurement.Port.Unit, SMU1:MP, SMU2:MC, GNDU:GND
TestParameter, Measurement.Port.SeriesResistor, NONE, NONE, NONE
TestParameter, Measurement.Port.Filter, ON, ON, ON
TestParameter, Measurement.Port.OutputVoltageComparison, 0, 0, 0
TestParameter, Measurement.Primary.Locus, Single
TestParameter, Measurement.Primary.Scale, LINEAR
TestParameter, Measurement.Primary.Start, -5
TestParameter, Measurement.Primary.Stop, 5
TestParameter, Measurement.Primary.Step, 0.05
TestParameter, Measurement.Primary.Compliance, 0.001
TestParameter, Measurement.Primary.PowerCompliance, 0
TestParameter, Measurement.Aborting.Condition, CONTINUE AT ANY
TestParameter, Measurement.PostOutput.Value, START
TestParameter, Measurement.PostOutput.Retention, OFF
TestParameter, Measurement.Bias.Source, 5, -5, 0
TestParameter, Measurement.Bias.Compliance, 0.1, 0.001, 2
TestParameter, Measurement.Monitor.Unit, SMU1:MP, SMU2:MC, GNDU:GND
TestParameter, Measurement.Monitor.Adc, HR ADC, HS ADC, HR ADC
TestParameter, Measurement.Monitor.Measurement, Compliance Side, Force and Compliance Sides, Compliance Side
TestParameter, Measurement.Monitor.RangingMode, LIMITED, LIMITED, LIMITED
TestParameter, Measurement.Monitor.RangeBoundary, 1nA, 10uA, 1nA
TestParameter, Measurement.Monitor.RangeRating, BY FULL RANGE, BY FULL RANGE, BY FULL RANGE
TestParameter, Measurement.Monitor.RangeRatingCoeff, 50, 50, 50
TestParameter, Measurement.Timing.Hold, 0
TestParameter, Measurement.Timing.Delay, 0
TestParameter, Measurement.Adc.HighSpeed.Mode, PLC
TestParameter, Measurement.Adc.HighSpeed.Coeff, 2
TestParameter, Measurement.Adc.HighResolution.AutoZero, OFF
TestParameter, Measurement.Adc.HighResolution.Mode, PLC
TestParameter, Measurement.Adc.HighResolution.Coeff, 2
TestParameter, Measurement.WaitTime.Source.Coeff, 1
TestParameter, Measurement.WaitTime.Source.Offset, 0
TestParameter, Measurement.WaitTime.Monitor.Coeff, 1
TestParameter, Measurement.WaitTime.Monitor.Offset, 0
TestParameter, Function.User.Name, Id_dens, Ig_dens, gm
TestParameter, Function.User.Unit, A/mm, A/mm, S/mm
TestParameter, Function.User.Definition, Id/0.06, abs(Ig)/0.06, diff(Id_dens,Vg)
TestParameter, Output.Graph.Enabled, true
TestParameter, Output.Graph.AutoScaling, false
TestParameter, Output.Graph.XAxis.Data, Vg
TestParameter, Output.Graph.XAxis.Scale, Linear
TestParameter, Output.Graph.XAxis.Left, -2
TestParameter, Output.Graph.XAxis.Right, 10
TestParameter, Output.Graph.XAxis.RunTimeAutoScale, false
TestParameter, Output.Graph.YAxis.Data, Id_dens, Id_dens, gm, Ig_dens
TestParameter, Output.Graph.YAxis.Scale, Log, Linear, Linear, Log
TestParameter, Output.Graph.YAxis.Bottom, 0, 0, 0, 0
TestParameter, Output.Graph.YAxis.Top, 1, 1, 1, 1
TestParameter, Output.Graph.YAxis.Group, , , , 
TestParameter, Output.Graph.YAxis.RunTimeAutoScale, false, false, false, false
TestParameter, Output.List.Data, Vg, Id_dens, Ig_dens, Vd, gm
TestParameter, AutoAnalysis.Interpolation, false
TestParameter, AutoAnalysis.Line1.Enabled, false
TestParameter, AutoAnalysis.Line1.Type, 1
TestParameter, AutoAnalysis.Line1.Fix, True
TestParameter, AutoAnalysis.Line1.YAxis, 0
TestParameter, AutoAnalysis.Line1.Point1.Type, 0
TestParameter, AutoAnalysis.Line1.Point1.XY.X, 
TestParameter, AutoAnalysis.Line1.Point1.XY.Y, 
TestParameter, AutoAnalysis.Line1.Point1.Data.Var, 
TestParameter, AutoAnalysis.Line1.Point1.Data.Condition, 
TestParameter, AutoAnalysis.Line1.Point1.Data.Start, false
TestParameter, AutoAnalysis.Line1.Point1.Data.StartVar, 
TestParameter, AutoAnalysis.Line1.Point1.Data.StartCondition, 
TestParameter, AutoAnalysis.Line1.Point2.Type, 0
TestParameter, AutoAnalysis.Line1.Point2.XY.X, 
TestParameter, AutoAnalysis.Line1.Point2.XY.Y, 
TestParameter, AutoAnalysis.Line1.Point2.Data.Var, 
TestParameter, AutoAnalysis.Line1.Point2.Data.Condition, 
TestParameter, AutoAnalysis.Line1.Point2.Data.Start, false
TestParameter, AutoAnalysis.Line1.Point2.Data.StartVar, 
TestParameter, AutoAnalysis.Line1.Point2.Data.StartCondition, 
TestParameter, AutoAnalysis.Line1.GradientExpr, 0
TestParameter, AutoAnalysis.Line2.Enabled, false
TestParameter, AutoAnalysis.Line2.Type, 1
TestParameter, AutoAnalysis.Line2.Fix, True
TestParameter, AutoAnalysis.Line2.YAxis, 0
TestParameter, AutoAnalysis.Line2.Point1.Type, 0
TestParameter, AutoAnalysis.Line2.Point1.XY.X, 
TestParameter, AutoAnalysis.Line2.Point1.XY.Y, 
TestParameter, AutoAnalysis.Line2.Point1.Data.Var, 
TestParameter, AutoAnalysis.Line2.Point1.Data.Condition, 
TestParameter, AutoAnalysis.Line2.Point1.Data.Start, false
TestParameter, AutoAnalysis.Line2.Point1.Data.StartVar, 
TestParameter, AutoAnalysis.Line2.Point1.Data.StartCondition, 
TestParameter, AutoAnalysis.Line2.Point2.Type, 0
TestParameter, AutoAnalysis.Line2.Point2.XY.X, 
TestParameter, AutoAnalysis.Line2.Point2.XY.Y, 
TestParameter, AutoAnalysis.Line2.Point2.Data.Var, 
TestParameter, AutoAnalysis.Line2.Point2.Data.Condition, 
TestParameter, AutoAnalysis.Line2.Point2.Data.Start, false
TestParameter, AutoAnalysis.Line2.Point2.Data.StartVar, 
TestParameter, AutoAnalysis.Line2.Point2.Data.StartCondition, 
TestParameter, AutoAnalysis.Line2.GradientExpr, 0
TestParameter, AutoAnalysis.Marker.Enabled, false
TestParameter, AutoAnalysis.Marker.Data.Var, 
TestParameter, AutoAnalysis.Marker.Data.Condition, 
TestParameter, AutoAnalysis.Marker.Data.Start, false
TestParameter, AutoAnalysis.Marker.Data.StartVar, 
TestParameter, AutoAnalysis.Marker.Data.StartCondition, 
MetaData, TestRecord.EntryPoint, true
MetaData, TestRecord.RecordTime, 08/14/2019 11:53:32
MetaData, TestRecord.TestTarget, 
MetaData, TestRecord.IterationIndex, 2
MetaData, TestRecord.Preservation, true
MetaData, TestRecord.Flag, #
MetaData, TestRecord.Remarks, #188_F_implant_5nm_cap_die2_r4c1_W70_S50
MetaData, TestRecord.LinkKey, 12e36048-db5e-4c36-81df-fc6d3bb21582
Dimension1, 201, 201, 201, 201, 201, 201, 201
Dimension2, 1, 1, 1, 1, 1, 1, 1
DataName, Vd, Id, Ig, Vg, Id_dens, Ig_dens, gm
DataValue, 5, 2.7180000000000003E-12, -1.9000000000000002E-10, -5, 4.5300000000000008E-11, 3.1666666666666669E-09, -2.0000000000000078E-10
DataValue, 5, 2.118E-12, -1.4E-10, -4.95, 3.5300000000000003E-11, 2.3333333333333335E-09, -1.6900000000000063E-10
DataValue, 5, 1.7040000000000002E-12, -1.3000000000000002E-10, -4.9, 2.8400000000000003E-11, 2.166666666666667E-09, -8.7666666666666984E-11
DataValue, 5, 1.592E-12, -1.4E-10, -4.8500000000000005, 2.6533333333333336E-11, 2.3333333333333335E-09, -6.1666666666666867E-11
DataValue, 5, 1.3340000000000002E-12, -1.4E-10, -4.8000000000000007, 2.2233333333333339E-11, 2.3333333333333335E-09, -5.9333333333333E-11
DataValue, 5, 1.2360000000000002E-12, -1.4E-10, -4.75, 2.0600000000000005E-11, 2.3333333333333335E-09, -7.9999999999999885E-12
DataValue, 5, 1.2860000000000002E-12, -1.3000000000000002E-10, -4.7, 2.1433333333333336E-11, 2.166666666666667E-09, -1.1000000000000085E-11
DataValue, 5, 1.17E-12, -1.3000000000000002E-10, -4.65, 1.95E-11, 2.166666666666667E-09, -2.8000000000000094E-11
DataValue, 5, 1.118E-12, -1.4E-10, -4.6000000000000005, 1.8633333333333336E-11, 2.3333333333333335E-09, -1.4000000000000047E-11
DataValue, 5, 1.086E-12, -1.3000000000000002E-10, -4.5500000000000007, 1.81E-11, 2.166666666666667E-09, -3.56666666666665E-11
DataValue, 5, 9.0400000000000009E-13, -1.3000000000000002E-10, -4.5, 1.5066666666666668E-11, 2.166666666666667E-09, -1.6666666666666586E-11
DataValue, 5, 9.86E-13, -1.3000000000000002E-10, -4.45, 1.6433333333333333E-11, 2.166666666666667E-09, 3.3333333333333658E-12
DataValue, 5, 9.240000000000001E-13, -1.3000000000000002E-10, -4.4, 1.5400000000000003E-11, 2.166666666666667E-09, -2.08333333333334E-11
DataValue, 5, 8.6100000000000007E-13, -1.3000000000000002E-10, -4.3500000000000005, 1.4350000000000001E-11, 2.166666666666667E-09, 1.8666666666666709E-11
DataValue, 5, 1.036E-12, -1.3000000000000002E-10, -4.3000000000000007, 1.7266666666666667E-11, 2.166666666666667E-09, -6.9999999999999613E-12
DataValue, 5, 8.19E-13, -1.3000000000000002E-10, -4.25, 1.3650000000000001E-11, 2.166666666666667E-09, -3.5833333333333132E-11
DataValue, 5, 8.21E-13, -1.3000000000000002E-10, -4.2, 1.3683333333333335E-11, 2.166666666666667E-09, 3.3333333333333497E-12
DataValue, 5, 8.3900000000000006E-13, -1.2E-10, -4.15, 1.3983333333333335E-11, 2E-09, -1.5833333333333398E-11
DataValue, 5, 7.26E-13, -1.3000000000000002E-10, -4.1000000000000005, 1.21E-11, 2.166666666666667E-09, -8.83333333333336E-12
DataValue, 5, 7.8600000000000008E-13, -1.2E-10, -4.0500000000000007, 1.3100000000000002E-11, 2E-09, 1.0499999999999949E-11
DataValue, 5, 7.8900000000000007E-13, -1.2E-10, -4, 1.3150000000000001E-11, 2E-09, -1.6666666666666844E-13
DataValue, 5, 7.8500000000000009E-13, -1.2E-10, -3.95, 1.3083333333333335E-11, 2E-09, 1.2500000000000049E-11
DataValue, 5, 8.6400000000000005E-13, -1.3000000000000002E-10, -3.9000000000000004, 1.4400000000000002E-11, 2.166666666666667E-09, -1.8666666666666741E-11
DataValue, 5, 6.7300000000000006E-13, -1.2E-10, -3.8500000000000005, 1.1216666666666668E-11, 2E-09, -2.8333333333333307E-11
DataValue, 5, 6.9400000000000007E-13, -1.2E-10, -3.8000000000000003, 1.1566666666666668E-11, 2E-09, -1.1666666666666649E-11
DataValue, 5, 6.0300000000000006E-13, -1.2E-10, -3.7500000000000004, 1.0050000000000002E-11, 2E-09, -1.4666666666666661E-11
DataValue, 5, 6.06E-13, -1.2E-10, -3.7, 1.0100000000000001E-11, 2E-09, 2.4666666666666633E-11
DataValue, 5, 7.51E-13, -1.2E-10, -3.6500000000000004, 1.2516666666666667E-11, 2E-09, 1.9166666666666649E-11
DataValue, 5, 7.2100000000000006E-13, -1.2E-10, -3.6, 1.2016666666666668E-11, 2E-09, -1.0999999999999988E-11
DataValue, 5, 6.85E-13, -1.2E-10, -3.5500000000000003, 1.1416666666666668E-11, 2E-09, -1.4000000000000047E-11
DataValue, 5, 6.37E-13, -1.2E-10, -3.5000000000000004, 1.0616666666666668E-11, 2E-09, -1.8333333333333318E-11
DataValue, 5, 5.7500000000000007E-13, -1.2E-10, -3.45, 9.5833333333333342E-12, 2E-09, -8.3333333333333288E-12
DataValue, 5, 5.87E-13, -1.1000000000000001E-10, -3.4000000000000004, 9.7833333333333341E-12, 1.8333333333333336E-09, 0
DataValue, 5, 5.7500000000000007E-13, -1.2E-10, -3.35, 9.5833333333333342E-12, 2E-09, 2.2333333333333314E-11
DataValue, 5, 7.2100000000000006E-13, -1.2E-10, -3.3000000000000003, 1.2016666666666668E-11, 2E-09, 1.7833333333333391E-11
DataValue, 5, 6.82E-13, -1.2E-10, -3.2500000000000004, 1.1366666666666667E-11, 2E-09, -1.2666666666666647E-11
DataValue, 5, 6.4500000000000008E-13, -1.2E-10, -3.2, 1.0750000000000002E-11, 2E-09, -2.0499999999999968E-11
DataValue, 5, 5.59E-13, -1.2E-10, -3.1500000000000004, 9.3166666666666681E-12, 2E-09, -1.0000000000000006E-11
DataValue, 5, 5.85E-13, -1.2E-10, -3.1, 9.75E-12, 2E-09, -2.0499999999999994E-11
DataValue, 5, 4.36E-13, -1.2E-10, -3.0500000000000003, 7.2666666666666669E-12, 2E-09, 4.166666666666683E-12
DataValue, 5, 6.1E-13, -1.2E-10, -3.0000000000000004, 1.0166666666666667E-11, 2E-09, 4.53333333333333E-11
DataValue, 5, 7.08E-13, -1.2E-10, -2.95, 1.18E-11, 2E-09, 8.6666666666666674E-12
DataValue, 5, 6.62E-13, -1.2E-10, -2.9000000000000004, 1.1033333333333335E-11, 2E-09, -2.1166666666666645E-11
DataValue, 5, 5.81E-13, -1.2E-10, -2.85, 9.6833333333333341E-12, 2E-09, -1.5499999999999992E-11
DataValue, 5, 5.69E-13, -1.2E-10, -2.8000000000000003, 9.4833333333333342E-12, 2E-09, -1.1166666666666707E-11
DataValue, 5, 5.14E-13, -1.2E-10, -2.7500000000000004, 8.5666666666666675E-12, 2E-09, -1.583333333333333E-11
DataValue, 5, 4.74E-13, -1.1000000000000001E-10, -2.7, 7.9E-12, 1.8333333333333336E-09, -9.3333333333333124E-12
DataValue, 5, 4.5800000000000007E-13, -1.2E-10, -2.6500000000000004, 7.6333333333333354E-12, 2E-09, 2.1999999999999992E-11
DataValue, 5, 6.06E-13, -1.2E-10, -2.6, 1.0100000000000001E-11, 2E-09, 1.5833333333333314E-11
DataValue, 5, 5.5300000000000007E-13, -1.2E-10, -2.5500000000000003, 9.2166666666666681E-12, 2E-09, 1.3333333333333211E-12
DataValue, 5, 6.14E-13, -1.2E-10, -2.5, 1.0233333333333333E-11, 2E-09, -5.8333333333333407E-12
DataValue, 5, 5.18E-13, -1.2E-10, -2.45, 8.6333333333333336E-12, 2E-09, -2.366666666666674E-11
DataValue, 5, 4.72E-13, -1.2E-10, -2.4000000000000004, 7.8666666666666676E-12, 2E-09, 1.3333333333333534E-12
DataValue, 5, 5.2600000000000008E-13, -1.1000000000000001E-10, -2.35, 8.766666666666669E-12, 1.8333333333333336E-09, 2.1999999999999976E-11
DataValue, 5, 6.0400000000000005E-13, -1.1000000000000001E-10, -2.3000000000000003, 1.0066666666666667E-11, 1.8333333333333336E-09, 1.0166666666666641E-11
DataValue, 5, 5.87E-13, -1.1000000000000001E-10, -2.25, 9.7833333333333341E-12, 1.8333333333333336E-09, -1.1833333333333317E-11
DataValue, 5, 5.3300000000000005E-13, -1.1000000000000001E-10, -2.2, 8.8833333333333343E-12, 1.8333333333333336E-09, -2.2166666666666742E-11
DataValue, 5, 4.5400000000000003E-13, -1.1000000000000001E-10, -2.1500000000000004, 7.5666666666666677E-12, 1.8333333333333336E-09, -1.6166666666666659E-11
DataValue, 5, 4.36E-13, -1.0000000000000002E-10, -2.1, 7.2666666666666669E-12, 1.6666666666666669E-09, -1.7166666666666659E-11
DataValue, 5, 3.51E-13, -1.1000000000000001E-10, -2.0500000000000003, 5.85E-12, 1.8333333333333336E-09, -2.1166666666666639E-11
DataValue, 5, 3.0900000000000005E-13, -1.0000000000000002E-10, -2, 5.1500000000000013E-12, 1.6666666666666669E-09, 2.5833333333333325E-11
DataValue, 5, 5.0600000000000007E-13, -1.0000000000000002E-10, -1.9500000000000002, 8.4333333333333352E-12, 1.6666666666666669E-09, 2.7500000000000021E-11
DataValue, 5, 4.74E-13, -1.1000000000000001E-10, -1.9000000000000001, 7.9E-12, 1.8333333333333336E-09, 1.6666666666665302E-13
DataValue, 5, 5.0700000000000006E-13, -1.1000000000000001E-10, -1.85, 8.45E-12, 1.8333333333333336E-09, 4.8333333333333417E-12
DataValue, 5, 5.0300000000000008E-13, -1.1000000000000001E-10, -1.8, 8.3833333333333344E-12, 1.8333333333333336E-09, -7.66666666666667E-12
DataValue, 5, 4.6100000000000006E-13, -1.0000000000000002E-10, -1.7500000000000002, 7.6833333333333346E-12, 1.6666666666666669E-09, -7.3333333333333468E-12
DataValue, 5, 4.5900000000000006E-13, -1.1000000000000001E-10, -1.7000000000000002, 7.65E-12, 1.8333333333333336E-09, -2.2999999999999982E-11
DataValue, 5, 3.2300000000000004E-13, -1.1000000000000001E-10, -1.6500000000000001, 5.3833333333333343E-12, 1.8333333333333336E-09, -1.599999999999999E-11
DataValue, 5, 3.63E-13, -1.1000000000000001E-10, -1.6, 6.05E-12, 1.8333333333333336E-09, 1.783333333333332E-11
DataValue, 5, 4.3000000000000004E-13, -1.0000000000000002E-10, -1.55, 7.1666666666666678E-12, 1.6666666666666669E-09, 2.6666666666666697E-11
DataValue, 5, 5.23E-13, -1.1000000000000001E-10, -1.5000000000000002, 8.7166666666666666E-12, 1.8333333333333336E-09, 2.583333333333336E-11
DataValue, 5, 5.85E-13, -1.1000000000000001E-10, -1.4500000000000002, 9.75E-12, 1.8333333333333336E-09, -2.0333333333333308E-11
DataValue, 5, 4.01E-13, -1.1000000000000001E-10, -1.4000000000000001, 6.683333333333334E-12, 1.8333333333333336E-09, -5.86666666666666E-11
DataValue, 5, 2.33E-13, -1.0000000000000002E-10, -1.35, 3.8833333333333338E-12, 1.6666666666666669E-09, -8E-12
DataValue, 5, 3.53E-13, -1.0000000000000002E-10, -1.3, 5.8833333333333334E-12, 1.6666666666666669E-09, 3.6666666666666637E-11
DataValue, 5, 4.5300000000000004E-13, -1.1000000000000001E-10, -1.25, 7.55E-12, 1.8333333333333336E-09, 3.0166666666666718E-11
DataValue, 5, 5.34E-13, -1.0000000000000002E-10, -1.2000000000000002, 8.9000000000000013E-12, 1.6666666666666669E-09, 2.0000000000000024E-12
DataValue, 5, 4.65E-13, -1.0000000000000002E-10, -1.1500000000000001, 7.75E-12, 1.6666666666666669E-09, 1.6666666666666917E-13
DataValue, 5, 5.35E-13, -1.0000000000000002E-10, -1.1, 8.9166666666666682E-12, 1.6666666666666669E-09, 3.0999999999999983E-11
DataValue, 5, 6.5100000000000005E-13, -1.0000000000000002E-10, -1.05, 1.0850000000000002E-11, 1.6666666666666669E-09, 8.8166666666666582E-11
DataValue, 5, 1.0640000000000001E-12, -1.1000000000000001E-10, -1, 1.7733333333333335E-11, 1.8333333333333336E-09, 4.4333333333333351E-10
DataValue, 5, 3.3110000000000003E-12, -1.0000000000000002E-10, -0.95000000000000007, 5.5183333333333342E-11, 1.6666666666666669E-09, 1.2278333333333336E-09
DataValue, 5, 8.431E-12, -1.0000000000000002E-10, -0.9, 1.4051666666666668E-10, 1.6666666666666669E-09, 2.1886666666666668E-09
DataValue, 5, 1.6443E-11, -1.0000000000000002E-10, -0.85000000000000009, 2.7405E-10, 1.6666666666666669E-09, 4.488833333333335E-09
DataValue, 5, 3.5364E-11, -1.0000000000000002E-10, -0.8, 5.8940000000000005E-10, 1.6666666666666669E-09, 8.9545000000000042E-09
DataValue, 5, 7.017E-11, -1.0000000000000002E-10, -0.75000000000000011, 1.1695000000000002E-09, 1.6666666666666669E-09, 3.1229333333333344E-08
DataValue, 5, 2.2274000000000002E-10, -1.0000000000000002E-10, -0.70000000000000007, 3.7123333333333339E-09, 1.6666666666666669E-09, 7.5984833333333264E-08
DataValue, 5, 5.26079E-10, -1.0000000000000002E-10, -0.65, 8.767983333333333E-09, 1.6666666666666669E-09, 1.3976333333333338E-07
DataValue, 5, 1.06132E-09, -1.1000000000000001E-10, -0.60000000000000009, 1.7688666666666668E-08, 1.8333333333333336E-09, 3.0505016666666677E-07
DataValue, 5, 2.35638E-09, -1.1000000000000001E-10, -0.55, 3.9273000000000004E-08, 1.8333333333333336E-09, 5.7065833333333292E-07
DataValue, 5, 4.48527E-09, -1.0000000000000002E-10, -0.5, 7.4754500000000009E-08, 1.6666666666666669E-09, 1.1759866666666661E-06
DataValue, 5, 9.4123E-09, -1.0000000000000002E-10, -0.45, 1.5687166666666666E-07, 1.6666666666666669E-09, 2.3096383333333336E-06
DataValue, 5, 1.83431E-08, -8.0000000000000008E-11, -0.4, 3.0571833333333335E-07, 1.3333333333333335E-09, 4.5598000000000016E-06
DataValue, 5, 3.67711E-08, -9.0000000000000012E-11, -0.35000000000000003, 6.128516666666667E-07, 1.5000000000000002E-09, 7.70575E-06
DataValue, 5, 6.4577599999999989E-08, -1.0000000000000002E-10, -0.30000000000000004, 1.0762933333333331E-06, 1.6666666666666669E-09, 1.2585816666666662E-05
DataValue, 5, 1.12286E-07, -1.0000000000000002E-10, -0.25, 1.8714333333333334E-06, 1.6666666666666669E-09, 1.9882566666666662E-05
DataValue, 5, 1.83873E-07, -9.0000000000000012E-11, -0.2, 3.06455E-06, 1.5000000000000002E-09, 3.2685333333333337E-05
DataValue, 5, 3.08398E-07, -9.0000000000000012E-11, -0.15000000000000002, 5.1399666666666665E-06, 1.5000000000000002E-09, 5.0319333333333324E-05
DataValue, 5, 4.85789E-07, -1.0000000000000002E-10, -0.1, 8.0964833333333328E-06, 1.6666666666666669E-09, 7.285999999999999E-05
DataValue, 5, 7.45558E-07, -1.0000000000000002E-10, -0.05, 1.2425966666666668E-05, 1.6666666666666669E-09, 0.00011625516666666669
DataValue, 5, 1.18332E-06, -1.0000000000000002E-10, 0, 1.9722000000000002E-05, 1.6666666666666669E-09, 0.00017854866666666669
DataValue, 5, 1.8168500000000002E-06, -1.0000000000000002E-10, 0.05, 3.0280833333333337E-05, 1.6666666666666669E-09, 0.0002546083333333334
DataValue, 5, 2.7109700000000004E-06, -1.0000000000000002E-10, 0.1, 4.5182833333333344E-05, 1.6666666666666669E-09, 0.00037824333333333327
DataValue, 5, 4.08631E-06, -1.0000000000000002E-10, 0.15000000000000002, 6.8105166666666673E-05, 1.6666666666666669E-09, 0.00056521833333333319
DataValue, 5, 6.10228E-06, -9.0000000000000012E-11, 0.2, 0.00010170466666666667, 1.5000000000000002E-09, 0.00085379333333333363
DataValue, 5, 9.2090700000000009E-06, -1.0000000000000002E-10, 0.25, 0.00015348450000000002, 1.6666666666666669E-09, 0.0013502366666666666
DataValue, 5, 1.4203700000000001E-05, -1.0000000000000002E-10, 0.30000000000000004, 0.00023672833333333336, 1.6666666666666669E-09, 0.0019262549999999998
