
SetupTitle, HEMT_transfer
PrimitiveTest, I/V Sweep
TestParameter, Context.MainFrame, B1500A
TestParameter, Channel.UnitType, SMU, SMU, SMU
TestParameter, Channel.Unit, SMU1:MP, SMU2:MC, GNDU:GND
TestParameter, Channel.IName, Id, Ig, Is
TestParameter, Channel.VName, Vd, Vg, Vs
TestParameter, Channel.Mode, V, V, COMMON
TestParameter, Channel.Func, CONST, VAR1, CONST
TestParameter, Channel.Index, 
TestParameter, Channel.Time, 
TestParameter, Measurement.Port.Unit, SMU1:MP, SMU2:MC, GNDU:GND
TestParameter, Measurement.Port.SeriesResistor, NONE, NONE, NONE
TestParameter, Measurement.Port.Filter, ON, ON, ON
TestParameter, Measurement.Port.OutputVoltageComparison, 0, 0, 0
TestParameter, Measurement.Primary.Locus, Single
TestParameter, Measurement.Primary.Scale, LINEAR
TestParameter, Measurement.Primary.Start, -5
TestParameter, Measurement.Primary.Stop, 5
TestParameter, Measurement.Primary.Step, 0.05
TestParameter, Measurement.Primary.Compliance, 0.001
TestParameter, Measurement.Primary.PowerCompliance, 0
TestParameter, Measurement.Aborting.Condition, CONTINUE AT ANY
TestParameter, Measurement.PostOutput.Value, START
TestParameter, Measurement.PostOutput.Retention, OFF
TestParameter, Measurement.Bias.Source, 5, -5, 0
TestParameter, Measurement.Bias.Compliance, 0.1, 0.001, 2
TestParameter, Measurement.Monitor.Unit, SMU1:MP, SMU2:MC, GNDU:GND
TestParameter, Measurement.Monitor.Adc, HR ADC, HS ADC, HR ADC
TestParameter, Measurement.Monitor.Measurement, Compliance Side, Force and Compliance Sides, Compliance Side
TestParameter, Measurement.Monitor.RangingMode, LIMITED, LIMITED, LIMITED
TestParameter, Measurement.Monitor.RangeBoundary, 1nA, 10uA, 1nA
TestParameter, Measurement.Monitor.RangeRating, BY FULL RANGE, BY FULL RANGE, BY FULL RANGE
TestParameter, Measurement.Monitor.RangeRatingCoeff, 50, 50, 50
TestParameter, Measurement.Timing.Hold, 0
TestParameter, Measurement.Timing.Delay, 0
TestParameter, Measurement.Adc.HighSpeed.Mode, PLC
TestParameter, Measurement.Adc.HighSpeed.Coeff, 2
TestParameter, Measurement.Adc.HighResolution.AutoZero, OFF
TestParameter, Measurement.Adc.HighResolution.Mode, PLC
TestParameter, Measurement.Adc.HighResolution.Coeff, 2
TestParameter, Measurement.WaitTime.Source.Coeff, 1
TestParameter, Measurement.WaitTime.Source.Offset, 0
TestParameter, Measurement.WaitTime.Monitor.Coeff, 1
TestParameter, Measurement.WaitTime.Monitor.Offset, 0
TestParameter, Function.User.Name, Id_dens, Ig_dens, gm
TestParameter, Function.User.Unit, A/mm, A/mm, S/mm
TestParameter, Function.User.Definition, Id/0.06, abs(Ig)/0.06, diff(Id_dens,Vg)
TestParameter, Output.Graph.Enabled, true
TestParameter, Output.Graph.AutoScaling, false
TestParameter, Output.Graph.XAxis.Data, Vg
TestParameter, Output.Graph.XAxis.Scale, Linear
TestParameter, Output.Graph.XAxis.Left, -2
TestParameter, Output.Graph.XAxis.Right, 10
TestParameter, Output.Graph.XAxis.RunTimeAutoScale, false
TestParameter, Output.Graph.YAxis.Data, Id_dens, Id_dens, gm, Ig_dens
TestParameter, Output.Graph.YAxis.Scale, Log, Linear, Linear, Log
TestParameter, Output.Graph.YAxis.Bottom, 0, 0, 0, 0
TestParameter, Output.Graph.YAxis.Top, 1, 1, 1, 1
TestParameter, Output.Graph.YAxis.Group, , , , 
TestParameter, Output.Graph.YAxis.RunTimeAutoScale, false, false, false, false
TestParameter, Output.List.Data, Vg, Id_dens, Ig_dens, Vd, gm
TestParameter, AutoAnalysis.Interpolation, false
TestParameter, AutoAnalysis.Line1.Enabled, false
TestParameter, AutoAnalysis.Line1.Type, 1
TestParameter, AutoAnalysis.Line1.Fix, True
TestParameter, AutoAnalysis.Line1.YAxis, 0
TestParameter, AutoAnalysis.Line1.Point1.Type, 0
TestParameter, AutoAnalysis.Line1.Point1.XY.X, 
TestParameter, AutoAnalysis.Line1.Point1.XY.Y, 
TestParameter, AutoAnalysis.Line1.Point1.Data.Var, 
TestParameter, AutoAnalysis.Line1.Point1.Data.Condition, 
TestParameter, AutoAnalysis.Line1.Point1.Data.Start, false
TestParameter, AutoAnalysis.Line1.Point1.Data.StartVar, 
TestParameter, AutoAnalysis.Line1.Point1.Data.StartCondition, 
TestParameter, AutoAnalysis.Line1.Point2.Type, 0
TestParameter, AutoAnalysis.Line1.Point2.XY.X, 
TestParameter, AutoAnalysis.Line1.Point2.XY.Y, 
TestParameter, AutoAnalysis.Line1.Point2.Data.Var, 
TestParameter, AutoAnalysis.Line1.Point2.Data.Condition, 
TestParameter, AutoAnalysis.Line1.Point2.Data.Start, false
TestParameter, AutoAnalysis.Line1.Point2.Data.StartVar, 
TestParameter, AutoAnalysis.Line1.Point2.Data.StartCondition, 
TestParameter, AutoAnalysis.Line1.GradientExpr, 0
TestParameter, AutoAnalysis.Line2.Enabled, false
TestParameter, AutoAnalysis.Line2.Type, 1
TestParameter, AutoAnalysis.Line2.Fix, True
TestParameter, AutoAnalysis.Line2.YAxis, 0
TestParameter, AutoAnalysis.Line2.Point1.Type, 0
TestParameter, AutoAnalysis.Line2.Point1.XY.X, 
TestParameter, AutoAnalysis.Line2.Point1.XY.Y, 
TestParameter, AutoAnalysis.Line2.Point1.Data.Var, 
TestParameter, AutoAnalysis.Line2.Point1.Data.Condition, 
TestParameter, AutoAnalysis.Line2.Point1.Data.Start, false
TestParameter, AutoAnalysis.Line2.Point1.Data.StartVar, 
TestParameter, AutoAnalysis.Line2.Point1.Data.StartCondition, 
TestParameter, AutoAnalysis.Line2.Point2.Type, 0
TestParameter, AutoAnalysis.Line2.Point2.XY.X, 
TestParameter, AutoAnalysis.Line2.Point2.XY.Y, 
TestParameter, AutoAnalysis.Line2.Point2.Data.Var, 
TestParameter, AutoAnalysis.Line2.Point2.Data.Condition, 
TestParameter, AutoAnalysis.Line2.Point2.Data.Start, false
TestParameter, AutoAnalysis.Line2.Point2.Data.StartVar, 
TestParameter, AutoAnalysis.Line2.Point2.Data.StartCondition, 
TestParameter, AutoAnalysis.Line2.GradientExpr, 0
TestParameter, AutoAnalysis.Marker.Enabled, false
TestParameter, AutoAnalysis.Marker.Data.Var, 
TestParameter, AutoAnalysis.Marker.Data.Condition, 
TestParameter, AutoAnalysis.Marker.Data.Start, false
TestParameter, AutoAnalysis.Marker.Data.StartVar, 
TestParameter, AutoAnalysis.Marker.Data.StartCondition, 
MetaData, TestRecord.EntryPoint, true
MetaData, TestRecord.RecordTime, 08/16/2019 12:27:44
MetaData, TestRecord.TestTarget, 
MetaData, TestRecord.IterationIndex, 1
MetaData, TestRecord.Preservation, true
MetaData, TestRecord.Flag, #
MetaData, TestRecord.Remarks, #089_LPCVD_trigate_die3_r1c3_W100
MetaData, TestRecord.LinkKey, af8c5d81-5d3c-46fe-9d7c-b460cbc2493d
Dimension1, 201, 201, 201, 201, 201, 201, 201
Dimension2, 1, 1, 1, 1, 1, 1, 1
DataName, Vd, Id, Ig, Vg, Id_dens, Ig_dens, gm
DataValue, 5, 6.5E-12, -2.2000000000000002E-10, -5, 1.0833333333333333E-10, 3.6666666666666672E-09, -3.1433333333333421E-10
DataValue, 5, 5.5570000000000007E-12, -1.8000000000000003E-10, -4.95, 9.261666666666668E-11, 3.0000000000000004E-09, -2.87000000000001E-10
DataValue, 5, 4.778E-12, -1.7E-10, -4.9, 7.9633333333333332E-11, 2.8333333333333335E-09, -2.0166666666666747E-10
DataValue, 5, 4.347E-12, -1.7E-10, -4.8500000000000005, 7.245E-11, 2.8333333333333335E-09, -1.3316666666666714E-10
DataValue, 5, 3.979E-12, -1.7E-10, -4.8000000000000007, 6.6316666666666665E-11, 2.8333333333333335E-09, -1.3249999999999936E-10
DataValue, 5, 3.5520000000000002E-12, -1.6000000000000002E-10, -4.75, 5.92E-11, 2.666666666666667E-09, -6.2333333333332989E-11
DataValue, 5, 3.605E-12, -1.6000000000000002E-10, -4.7, 6.0083333333333333E-11, 2.666666666666667E-09, -1.6333333333333296E-11
DataValue, 5, 3.4540000000000004E-12, -1.6000000000000002E-10, -4.65, 5.7566666666666676E-11, 2.666666666666667E-09, -8.86666666666669E-11
DataValue, 5, 3.0730000000000003E-12, -1.6000000000000002E-10, -4.6000000000000005, 5.1216666666666673E-11, 2.666666666666667E-09, -5.83333333333336E-11
DataValue, 5, 3.104E-12, -1.5000000000000003E-10, -4.5500000000000007, 5.1733333333333337E-11, 2.5000000000000005E-09, -6.3333333333333034E-12
DataValue, 5, 3.0350000000000003E-12, -1.6000000000000002E-10, -4.5, 5.058333333333334E-11, 2.666666666666667E-09, -2.4666666666666475E-11
DataValue, 5, 2.9560000000000003E-12, -1.6000000000000002E-10, -4.45, 4.9266666666666676E-11, 2.666666666666667E-09, -4.8166666666666875E-11
DataValue, 5, 2.7460000000000002E-12, -1.5000000000000003E-10, -4.4, 4.5766666666666669E-11, 2.5000000000000005E-09, -7.1000000000000259E-11
DataValue, 5, 2.5300000000000003E-12, -1.5000000000000003E-10, -4.3500000000000005, 4.2166666666666676E-11, 2.5000000000000005E-09, -1.8666666666666709E-11
DataValue, 5, 2.6340000000000003E-12, -1.6000000000000002E-10, -4.3000000000000007, 4.3900000000000005E-11, 2.666666666666667E-09, -1.6666666666667167E-12
DataValue, 5, 2.52E-12, -1.5000000000000003E-10, -4.25, 4.2000000000000004E-11, 2.5000000000000005E-09, -5.94999999999997E-11
DataValue, 5, 2.277E-12, -1.5000000000000003E-10, -4.2, 3.795E-11, 2.5000000000000005E-09, -5.5833333333333535E-11
DataValue, 5, 2.185E-12, -1.4E-10, -4.15, 3.641666666666667E-11, 2.3333333333333335E-09, -1.9500000000000039E-11
DataValue, 5, 2.16E-12, -1.4E-10, -4.1000000000000005, 3.6000000000000005E-11, 2.3333333333333335E-09, -1.6500000000000079E-11
DataValue, 5, 2.086E-12, -1.4E-10, -4.0500000000000007, 3.4766666666666668E-11, 2.3333333333333335E-09, -1.2666666666666607E-11
DataValue, 5, 2.084E-12, -1.5000000000000003E-10, -4, 3.4733333333333337E-11, 2.5000000000000005E-09, -2.0666666666666498E-11
DataValue, 5, 1.9620000000000003E-12, -1.4E-10, -3.95, 3.2700000000000007E-11, 2.3333333333333335E-09, -3.6666666666666411E-12
DataValue, 5, 2.0620000000000003E-12, -1.5000000000000003E-10, -3.9000000000000004, 3.4366666666666675E-11, 2.5000000000000005E-09, 1.383333333333336E-11
DataValue, 5, 2.0450000000000003E-12, -1.5000000000000003E-10, -3.8500000000000005, 3.4083333333333338E-11, 2.5000000000000005E-09, -1.3833333333333299E-11
DataValue, 5, 1.9790000000000004E-12, -1.5000000000000003E-10, -3.8000000000000003, 3.2983333333333344E-11, 2.5000000000000005E-09, -1.9166666666666649E-11
DataValue, 5, 1.93E-12, -1.3000000000000002E-10, -3.7500000000000004, 3.2166666666666672E-11, 2.166666666666667E-09, 2.0999999999999895E-11
DataValue, 5, 2.105E-12, -1.4E-10, -3.7, 3.5083333333333335E-11, 2.3333333333333335E-09, 6.666666666666638E-12
DataValue, 5, 1.9700000000000003E-12, -1.4E-10, -3.6500000000000004, 3.2833333333333336E-11, 2.3333333333333335E-09, -2.4333333333333278E-11
DataValue, 5, 1.959E-12, -1.3000000000000002E-10, -3.6, 3.2650000000000005E-11, 2.166666666666667E-09, 1.3166666666666687E-11
DataValue, 5, 2.0490000000000003E-12, -1.3000000000000002E-10, -3.5500000000000003, 3.4150000000000006E-11, 2.166666666666667E-09, -1.8500000000000052E-11
DataValue, 5, 1.8480000000000002E-12, -1.3000000000000002E-10, -3.5000000000000004, 3.0800000000000006E-11, 2.166666666666667E-09, -4.2333333333333355E-11
DataValue, 5, 1.7950000000000001E-12, -1.4E-10, -3.45, 2.9916666666666667E-11, 2.3333333333333335E-09, 1.5166666666666653E-11
DataValue, 5, 1.939E-12, -1.2E-10, -3.4000000000000004, 3.2316666666666673E-11, 2E-09, 3.3333333333337065E-13
DataValue, 5, 1.7970000000000001E-12, -1.3000000000000002E-10, -3.35, 2.9950000000000004E-11, 2.166666666666667E-09, -4.85E-11
DataValue, 5, 1.648E-12, -1.4E-10, -3.3000000000000003, 2.7466666666666668E-11, 2.3333333333333335E-09, -7.8333333333333725E-12
DataValue, 5, 1.7500000000000002E-12, -1.3000000000000002E-10, -3.2500000000000004, 2.9166666666666669E-11, 2.166666666666667E-09, 1.8500000000000004E-11
DataValue, 5, 1.759E-12, -1.3000000000000002E-10, -3.2, 2.931666666666667E-11, 2.166666666666667E-09, -2.2499999999999968E-11
DataValue, 5, 1.615E-12, -1.3000000000000002E-10, -3.1500000000000004, 2.6916666666666671E-11, 2.166666666666667E-09, 2.1499999999999984E-11
DataValue, 5, 1.888E-12, -1.3000000000000002E-10, -3.1, 3.146666666666667E-11, 2.166666666666667E-09, 4.2333333333333291E-11
DataValue, 5, 1.8690000000000002E-12, -1.3000000000000002E-10, -3.0500000000000003, 3.1150000000000004E-11, 2.166666666666667E-09, -6.6666666666667961E-13
DataValue, 5, 1.884E-12, -1.3000000000000002E-10, -3.0000000000000004, 3.14E-11, 2.166666666666667E-09, -1.2833333333333317E-11
DataValue, 5, 1.792E-12, -1.3000000000000002E-10, -2.95, 2.9866666666666671E-11, 2.166666666666667E-09, -5.3499999999999951E-11
DataValue, 5, 1.5630000000000001E-12, -1.3000000000000002E-10, -2.9000000000000004, 2.6050000000000003E-11, 2.166666666666667E-09, -2.1333333333333331E-11
DataValue, 5, 1.6640000000000002E-12, -1.2E-10, -2.85, 2.7733333333333336E-11, 2E-09, 2.9666666666666661E-11
DataValue, 5, 1.7410000000000002E-12, -1.2E-10, -2.8000000000000003, 2.9016666666666672E-11, 2E-09, -2.8833333333333428E-11
DataValue, 5, 1.4910000000000002E-12, -1.2E-10, -2.7500000000000004, 2.4850000000000003E-11, 2E-09, -8.3333333333336206E-13
DataValue, 5, 1.736E-12, -1.3000000000000002E-10, -2.7, 2.8933333333333336E-11, 2.166666666666667E-09, 4.6666666666666661E-11
DataValue, 5, 1.7710000000000002E-12, -1.2E-10, -2.6500000000000004, 2.9516666666666673E-11, 2E-09, -4.0166666666666606E-11
DataValue, 5, 1.4950000000000002E-12, -1.2E-10, -2.6, 2.4916666666666671E-11, 2E-09, -3.5000000000000008E-11
DataValue, 5, 1.5610000000000001E-12, -1.2E-10, -2.5500000000000003, 2.6016666666666669E-11, 2E-09, 5.8333333333333083E-12
DataValue, 5, 1.5300000000000001E-12, -1.2E-10, -2.5, 2.5500000000000002E-11, 2E-09, -1.8166666666666665E-11
DataValue, 5, 1.452E-12, -1.2E-10, -2.45, 2.42E-11, 2E-09, 2.966666666666679E-11
DataValue, 5, 1.7080000000000002E-12, -1.3000000000000002E-10, -2.4000000000000004, 2.8466666666666671E-11, 2.166666666666667E-09, 1.0333333333333359E-11
DataValue, 5, 1.5140000000000002E-12, -1.2E-10, -2.35, 2.5233333333333338E-11, 2E-09, 4.1666666666666482E-12
DataValue, 5, 1.7330000000000002E-12, -1.1000000000000001E-10, -2.3000000000000003, 2.8883333333333336E-11, 1.8333333333333336E-09, 2.9999999999999804E-12
DataValue, 5, 1.5320000000000001E-12, -1.1000000000000001E-10, -2.25, 2.5533333333333336E-11, 1.8333333333333336E-09, -2.8666666666666645E-11
DataValue, 5, 1.5610000000000001E-12, -1.1000000000000001E-10, -2.2, 2.6016666666666669E-11, 1.8333333333333336E-09, 1.0333333333333374E-11
DataValue, 5, 1.594E-12, -1.1000000000000001E-10, -2.1500000000000004, 2.656666666666667E-11, 1.8333333333333336E-09, -4.8333333333333255E-12
DataValue, 5, 1.5320000000000001E-12, -1.2E-10, -2.1, 2.5533333333333336E-11, 2E-09, 6.66666666666667E-12
DataValue, 5, 1.6340000000000001E-12, -1.2E-10, -2.0500000000000003, 2.7233333333333338E-11, 2E-09, -2.2166666666666629E-11
DataValue, 5, 1.3990000000000002E-12, -1.1000000000000001E-10, -2, 2.3316666666666671E-11, 1.8333333333333336E-09, -1.9999999999999979E-11
DataValue, 5, 1.5140000000000002E-12, -1.1000000000000001E-10, -1.9500000000000002, 2.5233333333333338E-11, 1.8333333333333336E-09, 9.4999999999999866E-12
DataValue, 5, 1.456E-12, -1.1000000000000001E-10, -1.9000000000000001, 2.4266666666666669E-11, 1.8333333333333336E-09, 1.6833333333333311E-11
DataValue, 5, 1.615E-12, -1.1000000000000001E-10, -1.85, 2.6916666666666671E-11, 1.8333333333333336E-09, 3.0000000000000127E-12
DataValue, 5, 1.4740000000000002E-12, -1.1000000000000001E-10, -1.8, 2.456666666666667E-11, 1.8333333333333336E-09, -3.7000000000000092E-11
DataValue, 5, 1.393E-12, -1.1000000000000001E-10, -1.7500000000000002, 2.3216666666666667E-11, 1.8333333333333336E-09, -6.83333333333337E-12
DataValue, 5, 1.433E-12, -1.1000000000000001E-10, -1.7000000000000002, 2.3883333333333334E-11, 1.8333333333333336E-09, 1.5166666666666685E-11
DataValue, 5, 1.4840000000000001E-12, -1.1000000000000001E-10, -1.6500000000000001, 2.4733333333333336E-11, 1.8333333333333336E-09, 1.116666666666666E-10
DataValue, 5, 2.1030000000000002E-12, -1.1000000000000001E-10, -1.6, 3.5050000000000004E-11, 1.8333333333333336E-09, 4.0283333333333313E-10
DataValue, 5, 3.9010000000000004E-12, -1.1000000000000001E-10, -1.55, 6.501666666666668E-11, 1.8333333333333336E-09, 2.5276666666666702E-09
DataValue, 5, 1.7269E-11, -1.1000000000000001E-10, -1.5000000000000002, 2.878166666666667E-10, 1.8333333333333336E-09, 1.8087333333333361E-08
DataValue, 5, 1.1242500000000002E-10, -1.1000000000000001E-10, -1.4500000000000002, 1.8737500000000005E-09, 1.8333333333333336E-09, 9.9903499999999913E-08
DataValue, 5, 6.1669E-10, -1.1000000000000001E-10, -1.4000000000000001, 1.0278166666666666E-08, 1.8333333333333336E-09, 6.7906249999999937E-07
DataValue, 5, 4.1868E-09, -1.0000000000000002E-10, -1.35, 6.978E-08, 1.6666666666666669E-09, 3.38261833333333E-06
DataValue, 5, 2.0912399999999997E-08, -1.0000000000000002E-10, -1.3, 3.4853999999999997E-07, 1.6666666666666669E-09, 1.3751083333333321E-05
DataValue, 5, 8.66933E-08, -1.0000000000000002E-10, -1.25, 1.4448883333333334E-06, 1.6666666666666669E-09, 4.0583766666666723E-05
DataValue, 5, 2.64415E-07, -1.0000000000000002E-10, -1.2000000000000002, 4.4069166666666668E-06, 1.6666666666666669E-09, 0.00010306378333333347
DataValue, 5, 7.05076E-07, -1.0000000000000002E-10, -1.1500000000000001, 1.1751266666666667E-05, 1.6666666666666669E-09, 0.00026189749999999982
DataValue, 5, 1.8358000000000003E-06, -1.0000000000000002E-10, -1.1, 3.0596666666666671E-05, 1.6666666666666669E-09, 0.00066290566666666608
DataValue, 5, 4.68251E-06, -1.1000000000000001E-10, -1.05, 7.8041833333333336E-05, 1.8333333333333336E-09, 0.0016271666666666652
DataValue, 5, 1.15988E-05, -1.0000000000000002E-10, -1, 0.00019331333333333335, 1.6666666666666669E-09, 0.003566531666666668
DataValue, 5, 2.60817E-05, -1.0000000000000002E-10, -0.95000000000000007, 0.000434695, 1.6666666666666669E-09, 0.0067119000000000024
DataValue, 5, 5.1870200000000004E-05, -1.0000000000000002E-10, -0.9, 0.00086450333333333346, 1.6666666666666669E-09, 0.010951250000000004
DataValue, 5, 9.17892E-05, -1.0000000000000002E-10, -0.85000000000000009, 0.00152982, 1.6666666666666669E-09, 0.01618696666666667
DataValue, 5, 0.000148992, -1.0000000000000002E-10, -0.8, 0.0024832, 1.6666666666666669E-09, 0.021106800000000005
DataValue, 5, 0.00021843, -1.0000000000000002E-10, -0.75000000000000011, 0.0036405, 1.6666666666666669E-09, 0.025516500000000018
DataValue, 5, 0.00030209100000000005, -1.0000000000000002E-10, -0.70000000000000007, 0.0050348500000000013, 1.6666666666666669E-09, 0.02993366666666665
DataValue, 5, 0.00039803200000000004, -9.0000000000000012E-11, -0.65, 0.0066338666666666676, 1.5000000000000002E-09, 0.034059833333333324
DataValue, 5, 0.00050645, -1.0000000000000002E-10, -0.60000000000000009, 0.0084408333333333332, 1.6666666666666669E-09, 0.037862000000000014
DataValue, 5, 0.00062520400000000008, -9.0000000000000012E-11, -0.55, 0.010420066666666668, 1.5000000000000002E-09, 0.041243333333333305
DataValue, 5, 0.00075391, -8.0000000000000008E-11, -0.5, 0.012565166666666667, 1.3333333333333335E-09, 0.043954499999999973
DataValue, 5, 0.000888931, -9.0000000000000012E-11, -0.45, 0.014815516666666667, 1.5000000000000002E-09, 0.046560333333333363
DataValue, 5, 0.001033272, -9.0000000000000012E-11, -0.4, 0.017221200000000002, 1.5000000000000002E-09, 0.0497615
DataValue, 5, 0.0011875, -9.0000000000000012E-11, -0.35000000000000003, 0.019791666666666666, 1.5000000000000002E-09, 0.051676333333333324
DataValue, 5, 0.00134333, -1.0000000000000002E-10, -0.30000000000000004, 0.022388833333333334, 1.6666666666666669E-09, 0.053046666666666673
DataValue, 5, 0.00150578, -9.0000000000000012E-11, -0.25, 0.025096333333333335, 1.5000000000000002E-09, 0.055139999999999995
DataValue, 5, 0.00167417, -9.0000000000000012E-11, -0.2, 0.027902833333333335, 1.5000000000000002E-09, 0.056938333333333369
DataValue, 5, 0.00184741, -9.0000000000000012E-11, -0.15000000000000002, 0.030790166666666671, 1.5000000000000002E-09, 0.0586883333333333
DataValue, 5, 0.0020263, -9.0000000000000012E-11, -0.1, 0.033771666666666665, 1.5000000000000002E-09, 0.060141666666666628
DataValue, 5, 0.00220826, -9.0000000000000012E-11, -0.05, 0.036804333333333335, 1.5000000000000002E-09, 0.061501666666666649
DataValue, 5, 0.00239531, -9.0000000000000012E-11, 0, 0.03992183333333333, 1.5000000000000002E-09, 0.062886666666666716
DataValue, 5, 0.00258558, -9.0000000000000012E-11, 0.05, 0.043093000000000006, 1.5000000000000002E-09, 0.064018333333333358
