
SetupTitle, HEMT_transfer
PrimitiveTest, I/V Sweep
TestParameter, Context.MainFrame, B1500A
TestParameter, Channel.UnitType, SMU, SMU, SMU
TestParameter, Channel.Unit, SMU1:MP, SMU2:MC, GNDU:GND
TestParameter, Channel.IName, Id, Ig, Is
TestParameter, Channel.VName, Vd, Vg, Vs
TestParameter, Channel.Mode, V, V, COMMON
TestParameter, Channel.Func, CONST, VAR1, CONST
TestParameter, Channel.Index, 
TestParameter, Channel.Time, 
TestParameter, Measurement.Port.Unit, SMU1:MP, SMU2:MC, GNDU:GND
TestParameter, Measurement.Port.SeriesResistor, NONE, NONE, NONE
TestParameter, Measurement.Port.Filter, ON, ON, ON
TestParameter, Measurement.Port.OutputVoltageComparison, 0, 0, 0
TestParameter, Measurement.Primary.Locus, Single
TestParameter, Measurement.Primary.Scale, LINEAR
TestParameter, Measurement.Primary.Start, -5
TestParameter, Measurement.Primary.Stop, 5
TestParameter, Measurement.Primary.Step, 0.05
TestParameter, Measurement.Primary.Compliance, 0.001
TestParameter, Measurement.Primary.PowerCompliance, 0
TestParameter, Measurement.Aborting.Condition, CONTINUE AT ANY
TestParameter, Measurement.PostOutput.Value, START
TestParameter, Measurement.PostOutput.Retention, OFF
TestParameter, Measurement.Bias.Source, 5, -5, 0
TestParameter, Measurement.Bias.Compliance, 0.1, 0.001, 2
TestParameter, Measurement.Monitor.Unit, SMU1:MP, SMU2:MC, GNDU:GND
TestParameter, Measurement.Monitor.Adc, HR ADC, HS ADC, HR ADC
TestParameter, Measurement.Monitor.Measurement, Compliance Side, Force and Compliance Sides, Compliance Side
TestParameter, Measurement.Monitor.RangingMode, LIMITED, LIMITED, LIMITED
TestParameter, Measurement.Monitor.RangeBoundary, 1nA, 10uA, 1nA
TestParameter, Measurement.Monitor.RangeRating, BY FULL RANGE, BY FULL RANGE, BY FULL RANGE
TestParameter, Measurement.Monitor.RangeRatingCoeff, 50, 50, 50
TestParameter, Measurement.Timing.Hold, 0
TestParameter, Measurement.Timing.Delay, 0
TestParameter, Measurement.Adc.HighSpeed.Mode, PLC
TestParameter, Measurement.Adc.HighSpeed.Coeff, 2
TestParameter, Measurement.Adc.HighResolution.AutoZero, OFF
TestParameter, Measurement.Adc.HighResolution.Mode, PLC
TestParameter, Measurement.Adc.HighResolution.Coeff, 2
TestParameter, Measurement.WaitTime.Source.Coeff, 1
TestParameter, Measurement.WaitTime.Source.Offset, 0
TestParameter, Measurement.WaitTime.Monitor.Coeff, 1
TestParameter, Measurement.WaitTime.Monitor.Offset, 0
TestParameter, Function.User.Name, Id_dens, Ig_dens, gm
TestParameter, Function.User.Unit, A/mm, A/mm, S/mm
TestParameter, Function.User.Definition, Id/0.06, abs(Ig)/0.06, diff(Id_dens,Vg)
TestParameter, Output.Graph.Enabled, true
TestParameter, Output.Graph.AutoScaling, false
TestParameter, Output.Graph.XAxis.Data, Vg
TestParameter, Output.Graph.XAxis.Scale, Linear
TestParameter, Output.Graph.XAxis.Left, -2
TestParameter, Output.Graph.XAxis.Right, 10
TestParameter, Output.Graph.XAxis.RunTimeAutoScale, false
TestParameter, Output.Graph.YAxis.Data, Id_dens, Id_dens, gm, Ig_dens
TestParameter, Output.Graph.YAxis.Scale, Log, Linear, Linear, Log
TestParameter, Output.Graph.YAxis.Bottom, 0, 0, 0, 0
TestParameter, Output.Graph.YAxis.Top, 1, 1, 1, 1
TestParameter, Output.Graph.YAxis.Group, , , , 
TestParameter, Output.Graph.YAxis.RunTimeAutoScale, false, false, false, false
TestParameter, Output.List.Data, Vg, Id_dens, Ig_dens, Vd, gm
TestParameter, AutoAnalysis.Interpolation, false
TestParameter, AutoAnalysis.Line1.Enabled, false
TestParameter, AutoAnalysis.Line1.Type, 1
TestParameter, AutoAnalysis.Line1.Fix, True
TestParameter, AutoAnalysis.Line1.YAxis, 0
TestParameter, AutoAnalysis.Line1.Point1.Type, 0
TestParameter, AutoAnalysis.Line1.Point1.XY.X, 
TestParameter, AutoAnalysis.Line1.Point1.XY.Y, 
TestParameter, AutoAnalysis.Line1.Point1.Data.Var, 
TestParameter, AutoAnalysis.Line1.Point1.Data.Condition, 
TestParameter, AutoAnalysis.Line1.Point1.Data.Start, false
TestParameter, AutoAnalysis.Line1.Point1.Data.StartVar, 
TestParameter, AutoAnalysis.Line1.Point1.Data.StartCondition, 
TestParameter, AutoAnalysis.Line1.Point2.Type, 0
TestParameter, AutoAnalysis.Line1.Point2.XY.X, 
TestParameter, AutoAnalysis.Line1.Point2.XY.Y, 
TestParameter, AutoAnalysis.Line1.Point2.Data.Var, 
TestParameter, AutoAnalysis.Line1.Point2.Data.Condition, 
TestParameter, AutoAnalysis.Line1.Point2.Data.Start, false
TestParameter, AutoAnalysis.Line1.Point2.Data.StartVar, 
TestParameter, AutoAnalysis.Line1.Point2.Data.StartCondition, 
TestParameter, AutoAnalysis.Line1.GradientExpr, 0
TestParameter, AutoAnalysis.Line2.Enabled, false
TestParameter, AutoAnalysis.Line2.Type, 1
TestParameter, AutoAnalysis.Line2.Fix, True
TestParameter, AutoAnalysis.Line2.YAxis, 0
TestParameter, AutoAnalysis.Line2.Point1.Type, 0
TestParameter, AutoAnalysis.Line2.Point1.XY.X, 
TestParameter, AutoAnalysis.Line2.Point1.XY.Y, 
TestParameter, AutoAnalysis.Line2.Point1.Data.Var, 
TestParameter, AutoAnalysis.Line2.Point1.Data.Condition, 
TestParameter, AutoAnalysis.Line2.Point1.Data.Start, false
TestParameter, AutoAnalysis.Line2.Point1.Data.StartVar, 
TestParameter, AutoAnalysis.Line2.Point1.Data.StartCondition, 
TestParameter, AutoAnalysis.Line2.Point2.Type, 0
TestParameter, AutoAnalysis.Line2.Point2.XY.X, 
TestParameter, AutoAnalysis.Line2.Point2.XY.Y, 
TestParameter, AutoAnalysis.Line2.Point2.Data.Var, 
TestParameter, AutoAnalysis.Line2.Point2.Data.Condition, 
TestParameter, AutoAnalysis.Line2.Point2.Data.Start, false
TestParameter, AutoAnalysis.Line2.Point2.Data.StartVar, 
TestParameter, AutoAnalysis.Line2.Point2.Data.StartCondition, 
TestParameter, AutoAnalysis.Line2.GradientExpr, 0
TestParameter, AutoAnalysis.Marker.Enabled, false
TestParameter, AutoAnalysis.Marker.Data.Var, 
TestParameter, AutoAnalysis.Marker.Data.Condition, 
TestParameter, AutoAnalysis.Marker.Data.Start, false
TestParameter, AutoAnalysis.Marker.Data.StartVar, 
TestParameter, AutoAnalysis.Marker.Data.StartCondition, 
MetaData, TestRecord.EntryPoint, true
MetaData, TestRecord.RecordTime, 08/14/2019 12:13:52
MetaData, TestRecord.TestTarget, 
MetaData, TestRecord.IterationIndex, 3
MetaData, TestRecord.Preservation, true
MetaData, TestRecord.Flag, #
MetaData, TestRecord.Remarks, #188_F_implant_5nm_cap_die2_r4c2_F30
MetaData, TestRecord.LinkKey, d9931069-f275-43b5-8461-c95aaeac81ba
Dimension1, 201, 201, 201, 201, 201, 201, 201
Dimension2, 1, 1, 1, 1, 1, 1, 1
DataName, Vd, Id, Ig, Vg, Id_dens, Ig_dens, gm
DataValue, 5, 2.623E-12, -1.6000000000000002E-10, -5, 4.3716666666666667E-11, 2.666666666666667E-09, -1.6400000000000049E-10
DataValue, 5, 2.131E-12, -1.2E-10, -4.95, 3.5516666666666672E-11, 2E-09, -1.3650000000000041E-10
DataValue, 5, 1.8040000000000002E-12, -1.1000000000000001E-10, -4.9, 3.0066666666666674E-11, 1.8333333333333336E-09, -9.0000000000000335E-11
DataValue, 5, 1.5910000000000002E-12, -1.1000000000000001E-10, -4.8500000000000005, 2.6516666666666671E-11, 1.8333333333333336E-09, -6.2166666666666956E-11
DataValue, 5, 1.431E-12, -1.2E-10, -4.8000000000000007, 2.385E-11, 2E-09, -5.483333333333306E-11
DataValue, 5, 1.262E-12, -1.1000000000000001E-10, -4.75, 2.1033333333333336E-11, 1.8333333333333336E-09, -3.4833333333333135E-11
DataValue, 5, 1.222E-12, -1.1000000000000001E-10, -4.7, 2.0366666666666668E-11, 1.8333333333333336E-09, 7.8333333333333725E-12
DataValue, 5, 1.3090000000000002E-12, -1.1000000000000001E-10, -4.65, 2.181666666666667E-11, 1.8333333333333336E-09, -8.3333333333330107E-13
DataValue, 5, 1.2170000000000002E-12, -1.1000000000000001E-10, -4.6000000000000005, 2.0283333333333338E-11, 1.8333333333333336E-09, -4.1333333333333494E-11
DataValue, 5, 1.061E-12, -1.1000000000000001E-10, -4.5500000000000007, 1.7683333333333336E-11, 1.8333333333333336E-09, -4.966666666666645E-11
DataValue, 5, 9.19E-13, -1.1000000000000001E-10, -4.5, 1.5316666666666667E-11, 1.8333333333333336E-09, -1.4666666666666597E-11
DataValue, 5, 9.73E-13, -1.0000000000000002E-10, -4.45, 1.6216666666666668E-11, 1.6666666666666669E-09, 4.000000000000046E-12
DataValue, 5, 9.4300000000000012E-13, -1.1000000000000001E-10, -4.4, 1.571666666666667E-11, 1.8333333333333336E-09, 4.1666666666666668E-12
DataValue, 5, 9.98E-13, -1.1000000000000001E-10, -4.3500000000000005, 1.6633333333333333E-11, 1.8333333333333336E-09, 1.2333333333333347E-11
DataValue, 5, 1.017E-12, -1.1000000000000001E-10, -4.3000000000000007, 1.695E-11, 1.8333333333333336E-09, -7.6666666666666192E-12
DataValue, 5, 9.52E-13, -1.0000000000000002E-10, -4.25, 1.5866666666666667E-11, 1.6666666666666669E-09, -2.6333333333333178E-11
DataValue, 5, 8.5900000000000008E-13, -1.1000000000000001E-10, -4.2, 1.4316666666666669E-11, 1.8333333333333336E-09, -1.6500000000000046E-11
DataValue, 5, 8.530000000000001E-13, -1.0000000000000002E-10, -4.15, 1.4216666666666669E-11, 1.6666666666666669E-09, -1.7166666666666743E-11
DataValue, 5, 7.56E-13, -1.1000000000000001E-10, -4.1000000000000005, 1.26E-11, 1.8333333333333336E-09, 1.666666666666699E-13
DataValue, 5, 8.540000000000001E-13, -1.0000000000000002E-10, -4.0500000000000007, 1.4233333333333336E-11, 1.6666666666666669E-09, 1.6833333333333253E-11
DataValue, 5, 8.5700000000000008E-13, -1.0000000000000002E-10, -4, 1.4283333333333335E-11, 1.6666666666666669E-09, 2.166666666666641E-12
DataValue, 5, 8.67E-13, -1.0000000000000002E-10, -3.95, 1.4450000000000001E-11, 1.6666666666666669E-09, -3.3333333333333497E-12
DataValue, 5, 8.3700000000000007E-13, -1.0000000000000002E-10, -3.9000000000000004, 1.3950000000000001E-11, 1.6666666666666669E-09, -2.9833333333333431E-11
DataValue, 5, 6.880000000000001E-13, -1.0000000000000002E-10, -3.8500000000000005, 1.1466666666666668E-11, 1.6666666666666669E-09, 5.1666666666666634E-12
DataValue, 5, 8.68E-13, -1.0000000000000002E-10, -3.8000000000000003, 1.4466666666666668E-11, 1.6666666666666669E-09, 2.549999999999998E-11
DataValue, 5, 8.4100000000000005E-13, -1.0000000000000002E-10, -3.7500000000000004, 1.4016666666666669E-11, 1.6666666666666669E-09, -7.5E-12
DataValue, 5, 8.23E-13, -1.0000000000000002E-10, -3.7, 1.3716666666666667E-11, 1.6666666666666669E-09, -3.5999999999999979E-11
DataValue, 5, 6.2500000000000006E-13, -1.0000000000000002E-10, -3.6500000000000004, 1.0416666666666668E-11, 1.6666666666666669E-09, -2.4333333333333311E-11
DataValue, 5, 6.77E-13, -9.0000000000000012E-11, -3.6, 1.1283333333333334E-11, 1.5000000000000002E-09, 1.1999999999999986E-11
DataValue, 5, 6.9700000000000006E-13, -9.0000000000000012E-11, -3.5500000000000003, 1.1616666666666668E-11, 1.5000000000000002E-09, 4.3333333333333531E-12
DataValue, 5, 7.03E-13, -9.0000000000000012E-11, -3.5000000000000004, 1.1716666666666668E-11, 1.5000000000000002E-09, 1.6666666666666595E-12
DataValue, 5, 7.07E-13, -9.0000000000000012E-11, -3.45, 1.1783333333333334E-11, 1.5000000000000002E-09, -7.33333333333333E-12
DataValue, 5, 6.59E-13, -9.0000000000000012E-11, -3.4000000000000004, 1.0983333333333334E-11, 1.5000000000000002E-09, -8.3333333333332975E-13
DataValue, 5, 7.02E-13, -1.0000000000000002E-10, -3.35, 1.17E-11, 1.6666666666666669E-09, -5.3333333333333165E-12
DataValue, 5, 6.2700000000000005E-13, -1.0000000000000002E-10, -3.3000000000000003, 1.0450000000000002E-11, 1.6666666666666669E-09, -3.5000000000000037E-12
DataValue, 5, 6.81E-13, -1.0000000000000002E-10, -3.2500000000000004, 1.1350000000000002E-11, 1.6666666666666669E-09, 4.8333333333333255E-12
DataValue, 5, 6.56E-13, -1.0000000000000002E-10, -3.2, 1.0933333333333335E-11, 1.6666666666666669E-09, -6.4999999999999848E-12
DataValue, 5, 6.4200000000000009E-13, -1.0000000000000002E-10, -3.1500000000000004, 1.0700000000000003E-11, 1.6666666666666669E-09, 1.3666666666666662E-11
DataValue, 5, 7.3800000000000009E-13, -9.0000000000000012E-11, -3.1, 1.2300000000000002E-11, 1.5000000000000002E-09, -1.266666666666668E-11
DataValue, 5, 5.66E-13, -1.0000000000000002E-10, -3.0500000000000003, 9.4333333333333334E-12, 1.6666666666666669E-09, -2.5833333333333432E-11
DataValue, 5, 5.83E-13, -1.0000000000000002E-10, -3.0000000000000004, 9.716666666666668E-12, 1.6666666666666669E-09, 2.7166666666666657E-11
DataValue, 5, 7.29E-13, -1.0000000000000002E-10, -2.95, 1.2150000000000001E-11, 1.6666666666666669E-09, 5.8333333333333407E-12
DataValue, 5, 6.1800000000000009E-13, -1.0000000000000002E-10, -2.9000000000000004, 1.0300000000000003E-11, 1.6666666666666669E-09, -1.1999999999999986E-11
DataValue, 5, 6.57E-13, -1.0000000000000002E-10, -2.85, 1.0950000000000002E-11, 1.6666666666666669E-09, -1.1666666666666665E-11
DataValue, 5, 5.4800000000000009E-13, -9.0000000000000012E-11, -2.8000000000000003, 9.1333333333333351E-12, 1.5000000000000002E-09, -1.900000000000008E-11
DataValue, 5, 5.43E-13, -1.0000000000000002E-10, -2.7500000000000004, 9.05E-12, 1.6666666666666669E-09, -8.333333333333459E-13
DataValue, 5, 5.43E-13, -9.0000000000000012E-11, -2.7, 9.05E-12, 1.5000000000000002E-09, 1.7499999999999988E-11
DataValue, 5, 6.4800000000000007E-13, -9.0000000000000012E-11, -2.6500000000000004, 1.0800000000000001E-11, 1.5000000000000002E-09, 1.0666666666666665E-11
DataValue, 5, 6.07E-13, -1.0000000000000002E-10, -2.6, 1.0116666666666668E-11, 1.6666666666666669E-09, -3.0333333333333306E-11
DataValue, 5, 4.66E-13, -9.0000000000000012E-11, -2.5500000000000003, 7.7666666666666676E-12, 1.5000000000000002E-09, -6.66666666666667E-12
DataValue, 5, 5.67E-13, -1.0000000000000002E-10, -2.5, 9.45E-12, 1.6666666666666669E-09, -9.99999999999999E-13
DataValue, 5, 4.6000000000000006E-13, -9.0000000000000012E-11, -2.45, 7.6666666666666677E-12, 1.5000000000000002E-09, 1.8333333333333529E-12
DataValue, 5, 5.7800000000000006E-13, -1.0000000000000002E-10, -2.4000000000000004, 9.633333333333335E-12, 1.6666666666666669E-09, 1.2833333333333317E-11
DataValue, 5, 5.37E-13, -1.0000000000000002E-10, -2.35, 8.95E-12, 1.6666666666666669E-09, 1.6666666666666595E-12
DataValue, 5, 5.88E-13, -9.0000000000000012E-11, -2.3000000000000003, 9.8000000000000011E-12, 1.5000000000000002E-09, -1.0666666666666665E-11
DataValue, 5, 4.73E-13, -9.0000000000000012E-11, -2.25, 7.8833333333333329E-12, 1.5000000000000002E-09, -2.3499999999999983E-11
DataValue, 5, 4.47E-13, -1.0000000000000002E-10, -2.2, 7.45E-12, 1.6666666666666669E-09, 1.4333333333333403E-11
DataValue, 5, 5.59E-13, -1.0000000000000002E-10, -2.1500000000000004, 9.3166666666666681E-12, 1.6666666666666669E-09, 2.8333333333333323E-11
DataValue, 5, 6.170000000000001E-13, -1.0000000000000002E-10, -2.1, 1.0283333333333336E-11, 1.6666666666666669E-09, -1.0166666666666674E-11
DataValue, 5, 4.98E-13, -1.0000000000000002E-10, -2.0500000000000003, 8.3E-12, 1.6666666666666669E-09, -5.1666666666666795E-12
DataValue, 5, 5.86E-13, -1.0000000000000002E-10, -2, 9.7666666666666672E-12, 1.6666666666666669E-09, -4.8333333333333255E-12
DataValue, 5, 4.69E-13, -9.0000000000000012E-11, -1.9500000000000002, 7.8166666666666668E-12, 1.5000000000000002E-09, -1.9999999999999862E-12
DataValue, 5, 5.7400000000000008E-13, -9.0000000000000012E-11, -1.9000000000000001, 9.5666666666666689E-12, 1.5000000000000002E-09, 3.9999999999999959E-12
DataValue, 5, 4.93E-13, -1.0000000000000002E-10, -1.85, 8.2166666666666667E-12, 1.6666666666666669E-09, -7.0000000000000081E-12
DataValue, 5, 5.3200000000000006E-13, -1.0000000000000002E-10, -1.8, 8.8666666666666674E-12, 1.6666666666666669E-09, -2.8333333333333336E-12
DataValue, 5, 4.76E-13, -1.0000000000000002E-10, -1.7500000000000002, 7.9333333333333337E-12, 1.6666666666666669E-09, -3.3666666666666712E-11
DataValue, 5, 3.3E-13, -1.0000000000000002E-10, -1.7000000000000002, 5.5E-12, 1.6666666666666669E-09, -1.0999999999999988E-11
DataValue, 5, 4.1E-13, -1.0000000000000002E-10, -1.6500000000000001, 6.833333333333334E-12, 1.6666666666666669E-09, 2.3833333333333303E-11
DataValue, 5, 4.73E-13, -1.0000000000000002E-10, -1.6, 7.8833333333333329E-12, 1.6666666666666669E-09, 1.9499999999999988E-11
DataValue, 5, 5.2700000000000008E-13, -9.0000000000000012E-11, -1.55, 8.7833333333333343E-12, 1.5000000000000002E-09, 1.6333333333333374E-11
DataValue, 5, 5.7100000000000009E-13, -9.0000000000000012E-11, -1.5000000000000002, 9.5166666666666681E-12, 1.5000000000000002E-09, -1.3166666666666684E-11
DataValue, 5, 4.48E-13, -9.0000000000000012E-11, -1.4500000000000002, 7.4666666666666677E-12, 1.5000000000000002E-09, -1.6833333333333327E-11
DataValue, 5, 4.7E-13, -9.0000000000000012E-11, -1.4000000000000001, 7.8333333333333337E-12, 1.5000000000000002E-09, -4.9999999999999949E-12
DataValue, 5, 4.1800000000000004E-13, -9.0000000000000012E-11, -1.35, 6.9666666666666678E-12, 1.5000000000000002E-09, -9.99999999999999E-12
DataValue, 5, 4.1E-13, -1.0000000000000002E-10, -1.3, 6.833333333333334E-12, 1.6666666666666669E-09, 1.1333333333333327E-11
DataValue, 5, 4.86E-13, -9.0000000000000012E-11, -1.25, 8.1000000000000014E-12, 1.5000000000000002E-09, 1.8833333333333352E-11
DataValue, 5, 5.23E-13, -9.0000000000000012E-11, -1.2000000000000002, 8.7166666666666666E-12, 1.5000000000000002E-09, 1.4833333333333347E-11
DataValue, 5, 5.7500000000000007E-13, -8.0000000000000008E-11, -1.1500000000000001, 9.5833333333333342E-12, 1.3333333333333335E-09, -6.6666666666666541E-12
DataValue, 5, 4.8300000000000006E-13, -9.0000000000000012E-11, -1.1, 8.05E-12, 1.5000000000000002E-09, -4.2499999999999963E-11
DataValue, 5, 3.2000000000000005E-13, -9.0000000000000012E-11, -1.05, 5.3333333333333343E-12, 1.5000000000000002E-09, -1.2833333333333317E-11
DataValue, 5, 4.0600000000000004E-13, -9.0000000000000012E-11, -1, 6.7666666666666679E-12, 1.5000000000000002E-09, 2.1166666666666668E-11
DataValue, 5, 4.47E-13, -9.0000000000000012E-11, -0.95000000000000007, 7.45E-12, 1.5000000000000002E-09, 1.866666666666666E-11
DataValue, 5, 5.18E-13, -9.0000000000000012E-11, -0.9, 8.6333333333333336E-12, 1.5000000000000002E-09, 2.1666666666666676E-11
DataValue, 5, 5.7700000000000007E-13, -1.0000000000000002E-10, -0.85000000000000009, 9.616666666666668E-12, 1.6666666666666669E-09, -4.3333333333333224E-12
DataValue, 5, 4.92E-13, -9.0000000000000012E-11, -0.8, 8.2000000000000014E-12, 1.5000000000000002E-09, -2E-12
DataValue, 5, 5.65E-13, -9.0000000000000012E-11, -0.75000000000000011, 9.4166666666666681E-12, 1.5000000000000002E-09, -3.8333333333333468E-12
DataValue, 5, 4.69E-13, -9.0000000000000012E-11, -0.70000000000000007, 7.8166666666666668E-12, 1.5000000000000002E-09, 3.0499999999999972E-11
DataValue, 5, 7.48E-13, -9.0000000000000012E-11, -0.65, 1.2466666666666668E-11, 1.5000000000000002E-09, 1.228333333333334E-10
DataValue, 5, 1.2060000000000001E-12, -1.0000000000000002E-10, -0.60000000000000009, 2.0100000000000004E-11, 1.6666666666666669E-09, 4.4616666666666688E-10
DataValue, 5, 3.4250000000000005E-12, -9.0000000000000012E-11, -0.55, 5.7083333333333343E-11, 1.5000000000000002E-09, 1.9031666666666652E-09
DataValue, 5, 1.2625000000000002E-11, -9.0000000000000012E-11, -0.5, 2.1041666666666669E-10, 1.5000000000000002E-09, 7.3328333333333314E-09
DataValue, 5, 4.7422E-11, -9.0000000000000012E-11, -0.45, 7.9036666666666674E-10, 1.5000000000000002E-09, 2.7857500000000013E-08
DataValue, 5, 1.7977000000000002E-10, -9.0000000000000012E-11, -0.4, 2.9961666666666671E-09, 1.5000000000000002E-09, 6.84051666666667E-08
DataValue, 5, 4.5785300000000005E-10, -9.0000000000000012E-11, -0.35000000000000003, 7.6308833333333337E-09, 1.5000000000000002E-09, 2.2769000000000008E-07
DataValue, 5, 1.54591E-09, -9.0000000000000012E-11, -0.30000000000000004, 2.5765166666666671E-08, 1.5000000000000002E-09, 7.6722616666666637E-07
DataValue, 5, 5.06121E-09, -9.0000000000000012E-11, -0.25, 8.43535E-08, 1.5000000000000002E-09, 1.8786983333333323E-06
DataValue, 5, 1.2818099999999998E-08, -1.0000000000000002E-10, -0.2, 2.1363499999999997E-07, 1.6666666666666669E-09, 5.0107483333333346E-06
DataValue, 5, 3.5125699999999997E-08, -9.0000000000000012E-11, -0.15000000000000002, 5.8542833333333331E-07, 1.5000000000000002E-09, 1.3271599999999998E-05
DataValue, 5, 9.2447699999999992E-08, -1.0000000000000002E-10, -0.1, 1.540795E-06, 1.6666666666666669E-09, 3.1372549999999995E-05
