
SetupTitle, HEMT_transfer
PrimitiveTest, I/V Sweep
TestParameter, Context.MainFrame, B1500A
TestParameter, Channel.UnitType, SMU, SMU, SMU
TestParameter, Channel.Unit, SMU1:MP, SMU2:MC, GNDU:GND
TestParameter, Channel.IName, Id, Ig, Is
TestParameter, Channel.VName, Vd, Vg, Vs
TestParameter, Channel.Mode, V, V, COMMON
TestParameter, Channel.Func, CONST, VAR1, CONST
TestParameter, Channel.Index, 
TestParameter, Channel.Time, 
TestParameter, Measurement.Port.Unit, SMU1:MP, SMU2:MC, GNDU:GND
TestParameter, Measurement.Port.SeriesResistor, NONE, NONE, NONE
TestParameter, Measurement.Port.Filter, ON, ON, ON
TestParameter, Measurement.Port.OutputVoltageComparison, 0, 0, 0
TestParameter, Measurement.Primary.Locus, Single
TestParameter, Measurement.Primary.Scale, LINEAR
TestParameter, Measurement.Primary.Start, -5
TestParameter, Measurement.Primary.Stop, 5
TestParameter, Measurement.Primary.Step, 0.05
TestParameter, Measurement.Primary.Compliance, 0.001
TestParameter, Measurement.Primary.PowerCompliance, 0
TestParameter, Measurement.Aborting.Condition, CONTINUE AT ANY
TestParameter, Measurement.PostOutput.Value, START
TestParameter, Measurement.PostOutput.Retention, OFF
TestParameter, Measurement.Bias.Source, 5, -5, 0
TestParameter, Measurement.Bias.Compliance, 0.1, 0.001, 2
TestParameter, Measurement.Monitor.Unit, SMU1:MP, SMU2:MC, GNDU:GND
TestParameter, Measurement.Monitor.Adc, HR ADC, HS ADC, HR ADC
TestParameter, Measurement.Monitor.Measurement, Compliance Side, Force and Compliance Sides, Compliance Side
TestParameter, Measurement.Monitor.RangingMode, LIMITED, LIMITED, LIMITED
TestParameter, Measurement.Monitor.RangeBoundary, 1nA, 10uA, 1nA
TestParameter, Measurement.Monitor.RangeRating, BY FULL RANGE, BY FULL RANGE, BY FULL RANGE
TestParameter, Measurement.Monitor.RangeRatingCoeff, 50, 50, 50
TestParameter, Measurement.Timing.Hold, 0
TestParameter, Measurement.Timing.Delay, 0
TestParameter, Measurement.Adc.HighSpeed.Mode, PLC
TestParameter, Measurement.Adc.HighSpeed.Coeff, 2
TestParameter, Measurement.Adc.HighResolution.AutoZero, OFF
TestParameter, Measurement.Adc.HighResolution.Mode, PLC
TestParameter, Measurement.Adc.HighResolution.Coeff, 2
TestParameter, Measurement.WaitTime.Source.Coeff, 1
TestParameter, Measurement.WaitTime.Source.Offset, 0
TestParameter, Measurement.WaitTime.Monitor.Coeff, 1
TestParameter, Measurement.WaitTime.Monitor.Offset, 0
TestParameter, Function.User.Name, Id_dens, Ig_dens, gm
TestParameter, Function.User.Unit, A/mm, A/mm, S/mm
TestParameter, Function.User.Definition, Id/0.06, abs(Ig)/0.06, diff(Id_dens,Vg)
TestParameter, Output.Graph.Enabled, true
TestParameter, Output.Graph.AutoScaling, false
TestParameter, Output.Graph.XAxis.Data, Vg
TestParameter, Output.Graph.XAxis.Scale, Linear
TestParameter, Output.Graph.XAxis.Left, -2
TestParameter, Output.Graph.XAxis.Right, 10
TestParameter, Output.Graph.XAxis.RunTimeAutoScale, false
TestParameter, Output.Graph.YAxis.Data, Id_dens, Id_dens, gm, Ig_dens
TestParameter, Output.Graph.YAxis.Scale, Log, Linear, Linear, Log
TestParameter, Output.Graph.YAxis.Bottom, 0, 0, 0, 0
TestParameter, Output.Graph.YAxis.Top, 1, 1, 1, 1
TestParameter, Output.Graph.YAxis.Group, , , , 
TestParameter, Output.Graph.YAxis.RunTimeAutoScale, false, false, false, false
TestParameter, Output.List.Data, Vg, Id_dens, Ig_dens, Vd, gm
TestParameter, AutoAnalysis.Interpolation, false
TestParameter, AutoAnalysis.Line1.Enabled, false
TestParameter, AutoAnalysis.Line1.Type, 1
TestParameter, AutoAnalysis.Line1.Fix, True
TestParameter, AutoAnalysis.Line1.YAxis, 0
TestParameter, AutoAnalysis.Line1.Point1.Type, 0
TestParameter, AutoAnalysis.Line1.Point1.XY.X, 
TestParameter, AutoAnalysis.Line1.Point1.XY.Y, 
TestParameter, AutoAnalysis.Line1.Point1.Data.Var, 
TestParameter, AutoAnalysis.Line1.Point1.Data.Condition, 
TestParameter, AutoAnalysis.Line1.Point1.Data.Start, false
TestParameter, AutoAnalysis.Line1.Point1.Data.StartVar, 
TestParameter, AutoAnalysis.Line1.Point1.Data.StartCondition, 
TestParameter, AutoAnalysis.Line1.Point2.Type, 0
TestParameter, AutoAnalysis.Line1.Point2.XY.X, 
TestParameter, AutoAnalysis.Line1.Point2.XY.Y, 
TestParameter, AutoAnalysis.Line1.Point2.Data.Var, 
TestParameter, AutoAnalysis.Line1.Point2.Data.Condition, 
TestParameter, AutoAnalysis.Line1.Point2.Data.Start, false
TestParameter, AutoAnalysis.Line1.Point2.Data.StartVar, 
TestParameter, AutoAnalysis.Line1.Point2.Data.StartCondition, 
TestParameter, AutoAnalysis.Line1.GradientExpr, 0
TestParameter, AutoAnalysis.Line2.Enabled, false
TestParameter, AutoAnalysis.Line2.Type, 1
TestParameter, AutoAnalysis.Line2.Fix, True
TestParameter, AutoAnalysis.Line2.YAxis, 0
TestParameter, AutoAnalysis.Line2.Point1.Type, 0
TestParameter, AutoAnalysis.Line2.Point1.XY.X, 
TestParameter, AutoAnalysis.Line2.Point1.XY.Y, 
TestParameter, AutoAnalysis.Line2.Point1.Data.Var, 
TestParameter, AutoAnalysis.Line2.Point1.Data.Condition, 
TestParameter, AutoAnalysis.Line2.Point1.Data.Start, false
TestParameter, AutoAnalysis.Line2.Point1.Data.StartVar, 
TestParameter, AutoAnalysis.Line2.Point1.Data.StartCondition, 
TestParameter, AutoAnalysis.Line2.Point2.Type, 0
TestParameter, AutoAnalysis.Line2.Point2.XY.X, 
TestParameter, AutoAnalysis.Line2.Point2.XY.Y, 
TestParameter, AutoAnalysis.Line2.Point2.Data.Var, 
TestParameter, AutoAnalysis.Line2.Point2.Data.Condition, 
TestParameter, AutoAnalysis.Line2.Point2.Data.Start, false
TestParameter, AutoAnalysis.Line2.Point2.Data.StartVar, 
TestParameter, AutoAnalysis.Line2.Point2.Data.StartCondition, 
TestParameter, AutoAnalysis.Line2.GradientExpr, 0
TestParameter, AutoAnalysis.Marker.Enabled, false
TestParameter, AutoAnalysis.Marker.Data.Var, 
TestParameter, AutoAnalysis.Marker.Data.Condition, 
TestParameter, AutoAnalysis.Marker.Data.Start, false
TestParameter, AutoAnalysis.Marker.Data.StartVar, 
TestParameter, AutoAnalysis.Marker.Data.StartCondition, 
MetaData, TestRecord.EntryPoint, true
MetaData, TestRecord.RecordTime, 08/14/2019 11:55:37
MetaData, TestRecord.TestTarget, 
MetaData, TestRecord.IterationIndex, 2
MetaData, TestRecord.Preservation, true
MetaData, TestRecord.Flag, #
MetaData, TestRecord.Remarks, #188_F_implant_5nm_cap_die2_r4c1_W100_S50
MetaData, TestRecord.LinkKey, 88e55f61-9d38-4cf1-b070-1faaf8eef5e4
Dimension1, 201, 201, 201, 201, 201, 201, 201
Dimension2, 1, 1, 1, 1, 1, 1, 1
DataName, Vd, Id, Ig, Vg, Id_dens, Ig_dens, gm
DataValue, 5, 2.347E-12, -1.8000000000000003E-10, -5, 3.9116666666666671E-11, 3.0000000000000004E-09, -1.103333333333337E-10
DataValue, 5, 2.0160000000000003E-12, -1.3000000000000002E-10, -4.95, 3.3600000000000005E-11, 2.166666666666667E-09, -9.8166666666667013E-11
DataValue, 5, 1.7580000000000002E-12, -1.3000000000000002E-10, -4.9, 2.9300000000000005E-11, 2.166666666666667E-09, -8.1666666666666966E-11
DataValue, 5, 1.5260000000000002E-12, -1.4E-10, -4.8500000000000005, 2.5433333333333338E-11, 2.3333333333333335E-09, -4.3833333333333492E-11
DataValue, 5, 1.4950000000000002E-12, -1.4E-10, -4.8000000000000007, 2.4916666666666671E-11, 2.3333333333333335E-09, -5.5333333333333045E-11
DataValue, 5, 1.1940000000000002E-12, -1.3000000000000002E-10, -4.75, 1.9900000000000004E-11, 2.166666666666667E-09, -5.0999999999999766E-11
DataValue, 5, 1.189E-12, -1.3000000000000002E-10, -4.7, 1.9816666666666667E-11, 2.166666666666667E-09, -2.366666666666674E-11
DataValue, 5, 1.0520000000000002E-12, -1.3000000000000002E-10, -4.65, 1.7533333333333338E-11, 2.166666666666667E-09, 4.3333333333333854E-12
DataValue, 5, 1.2150000000000002E-12, -1.3000000000000002E-10, -4.6000000000000005, 2.0250000000000004E-11, 2.166666666666667E-09, 1.3000000000000028E-11
DataValue, 5, 1.13E-12, -1.3000000000000002E-10, -4.5500000000000007, 1.8833333333333336E-11, 2.166666666666667E-09, -3.1833333333333204E-11
DataValue, 5, 1.024E-12, -1.3000000000000002E-10, -4.5, 1.7066666666666667E-11, 2.166666666666667E-09, -3.6166666666666484E-11
DataValue, 5, 9.13E-13, -1.3000000000000002E-10, -4.45, 1.5216666666666668E-11, 2.166666666666667E-09, -1.6333333333333361E-11
DataValue, 5, 9.26E-13, -1.2E-10, -4.4, 1.5433333333333337E-11, 2E-09, -1.3333333333333383E-11
DataValue, 5, 8.3300000000000009E-13, -1.2E-10, -4.3500000000000005, 1.3883333333333335E-11, 2E-09, 4.1666666666666668E-12
DataValue, 5, 9.51E-13, -1.3000000000000002E-10, -4.3000000000000007, 1.5850000000000002E-11, 2.166666666666667E-09, 5.9999999999999664E-12
DataValue, 5, 8.69E-13, -1.3000000000000002E-10, -4.25, 1.4483333333333335E-11, 2.166666666666667E-09, -1.3833333333333269E-11
DataValue, 5, 8.68E-13, -1.2E-10, -4.2, 1.4466666666666668E-11, 2E-09, 1.0500000000000043E-11
DataValue, 5, 9.32E-13, -1.1000000000000001E-10, -4.15, 1.5533333333333335E-11, 1.8333333333333336E-09, -1.8333333333333383E-11
DataValue, 5, 7.580000000000001E-13, -1.2E-10, -4.1000000000000005, 1.2633333333333336E-11, 2E-09, -3.8833333333333477E-11
DataValue, 5, 6.9900000000000005E-13, -1.2E-10, -4.0500000000000007, 1.1650000000000002E-11, 2E-09, -5.8333333333333148E-12
DataValue, 5, 7.23E-13, -1.2E-10, -4, 1.2050000000000001E-11, 2E-09, 3.3333333333333202E-12
DataValue, 5, 7.1900000000000007E-13, -1.2E-10, -3.95, 1.1983333333333335E-11, 2E-09, 1.1333333333333377E-11
DataValue, 5, 7.9100000000000006E-13, -1.2E-10, -3.9000000000000004, 1.3183333333333335E-11, 2E-09, 9.833333333333364E-12
DataValue, 5, 7.78E-13, -1.2E-10, -3.8500000000000005, 1.2966666666666668E-11, 2E-09, -1.0666666666666665E-11
DataValue, 5, 7.27E-13, -1.2E-10, -3.8000000000000003, 1.2116666666666668E-11, 2E-09, -1.2999999999999986E-11
DataValue, 5, 7E-13, -1.1000000000000001E-10, -3.7500000000000004, 1.1666666666666668E-11, 1.8333333333333336E-09, -2.5833333333333302E-11
DataValue, 5, 5.7200000000000009E-13, -1.1000000000000001E-10, -3.7, 9.533333333333335E-12, 1.8333333333333336E-09, -2.7999999999999984E-11
DataValue, 5, 5.3200000000000006E-13, -1.1000000000000001E-10, -3.6500000000000004, 8.8666666666666674E-12, 1.8333333333333336E-09, 2.8666666666666645E-11
DataValue, 5, 7.4400000000000006E-13, -1.1000000000000001E-10, -3.6, 1.2400000000000002E-11, 1.8333333333333336E-09, 3.566666666666664E-11
DataValue, 5, 7.4600000000000005E-13, -1.1000000000000001E-10, -3.5500000000000003, 1.2433333333333334E-11, 1.8333333333333336E-09, 5.50000000000001E-12
DataValue, 5, 7.77E-13, -1.1000000000000001E-10, -3.5000000000000004, 1.2950000000000001E-11, 1.8333333333333336E-09, -3.2833333333333291E-11
DataValue, 5, 5.4900000000000008E-13, -1.1000000000000001E-10, -3.45, 9.150000000000002E-12, 1.8333333333333336E-09, -2.449999999999998E-11
DataValue, 5, 6.3E-13, -1.1000000000000001E-10, -3.4000000000000004, 1.0500000000000001E-11, 1.8333333333333336E-09, 6.3333333333333155E-12
DataValue, 5, 5.87E-13, -1.1000000000000001E-10, -3.35, 9.7833333333333341E-12, 1.8333333333333336E-09, 6.0000000000000092E-12
DataValue, 5, 6.6600000000000009E-13, -1.1000000000000001E-10, -3.3000000000000003, 1.1100000000000002E-11, 1.8333333333333336E-09, 3.31666666666668E-11
DataValue, 5, 7.8600000000000008E-13, -1.1000000000000001E-10, -3.2500000000000004, 1.3100000000000002E-11, 1.8333333333333336E-09, 5.4999999999999859E-12
DataValue, 5, 6.9900000000000005E-13, -1.1000000000000001E-10, -3.2, 1.1650000000000002E-11, 1.8333333333333336E-09, -2.8833333333333315E-11
DataValue, 5, 6.13E-13, -1.1000000000000001E-10, -3.1500000000000004, 1.0216666666666668E-11, 1.8333333333333336E-09, -7.8333333333333224E-12
DataValue, 5, 6.52E-13, -1.1000000000000001E-10, -3.1, 1.0866666666666669E-11, 1.8333333333333336E-09, -4.6666666666666724E-12
DataValue, 5, 5.85E-13, -1.1000000000000001E-10, -3.0500000000000003, 9.75E-12, 1.8333333333333336E-09, -1.0833333333333383E-11
DataValue, 5, 5.87E-13, -1.1000000000000001E-10, -3.0000000000000004, 9.7833333333333341E-12, 1.8333333333333336E-09, -2.1166666666666629E-11
DataValue, 5, 4.5800000000000007E-13, -1.2E-10, -2.95, 7.6333333333333354E-12, 2E-09, 2.916666666666665E-11
DataValue, 5, 7.6200000000000009E-13, -1.1000000000000001E-10, -2.9000000000000004, 1.2700000000000002E-11, 1.8333333333333336E-09, 2.7499999999999976E-11
DataValue, 5, 6.2300000000000007E-13, -1.1000000000000001E-10, -2.85, 1.0383333333333336E-11, 1.8333333333333336E-09, -3.5499999999999968E-11
DataValue, 5, 5.4900000000000008E-13, -1.0000000000000002E-10, -2.8000000000000003, 9.150000000000002E-12, 1.6666666666666669E-09, -1.350000000000007E-11
DataValue, 5, 5.42E-13, -1.1000000000000001E-10, -2.7500000000000004, 9.0333333333333335E-12, 1.8333333333333336E-09, -2.9999999999999965E-12
DataValue, 5, 5.3100000000000006E-13, -1.1000000000000001E-10, -2.7, 8.8500000000000021E-12, 1.8333333333333336E-09, -2.33333333333332E-12
DataValue, 5, 5.2800000000000007E-13, -1.1000000000000001E-10, -2.6500000000000004, 8.8000000000000013E-12, 1.8333333333333336E-09, 2.4999999999999732E-12
DataValue, 5, 5.46E-13, -1.1000000000000001E-10, -2.6, 9.1E-12, 1.8333333333333336E-09, 7.8333333333333224E-12
DataValue, 5, 5.7500000000000007E-13, -1.1000000000000001E-10, -2.5500000000000003, 9.5833333333333342E-12, 1.8333333333333336E-09, 1.1000000000000004E-11
DataValue, 5, 6.12E-13, -1.1000000000000001E-10, -2.5, 1.0200000000000001E-11, 1.8333333333333336E-09, -3.8333333333333266E-12
DataValue, 5, 5.5200000000000007E-13, -1.0000000000000002E-10, -2.45, 9.2000000000000012E-12, 1.6666666666666669E-09, -3.1333333333333451E-11
DataValue, 5, 4.24E-13, -1.1000000000000001E-10, -2.4000000000000004, 7.066666666666667E-12, 1.8333333333333336E-09, 5.0000000000000756E-13
DataValue, 5, 5.5500000000000006E-13, -1.0000000000000002E-10, -2.35, 9.250000000000002E-12, 1.6666666666666669E-09, 4.5000000000000111E-12
DataValue, 5, 4.5100000000000005E-13, -1.0000000000000002E-10, -2.3000000000000003, 7.5166666666666685E-12, 1.6666666666666669E-09, -2.9833333333333321E-11
DataValue, 5, 3.76E-13, -1.0000000000000002E-10, -2.25, 6.2666666666666672E-12, 1.6666666666666669E-09, -2.8333333333333437E-12
DataValue, 5, 4.34E-13, -1.1000000000000001E-10, -2.2, 7.2333333333333339E-12, 1.8333333333333336E-09, 1.6000000000000061E-11
DataValue, 5, 4.72E-13, -1.1000000000000001E-10, -2.1500000000000004, 7.8666666666666676E-12, 1.8333333333333336E-09, 3.283333333333331E-11
DataValue, 5, 6.31E-13, -1.0000000000000002E-10, -2.1, 1.0516666666666668E-11, 1.6666666666666669E-09, 5.500000000000002E-12
DataValue, 5, 5.0500000000000007E-13, -1.1000000000000001E-10, -2.0500000000000003, 8.4166666666666683E-12, 1.8333333333333336E-09, -2.1833333333333323E-11
DataValue, 5, 5E-13, -1.1000000000000001E-10, -2, 8.3333333333333336E-12, 1.8333333333333336E-09, 6.1666666666666462E-12
DataValue, 5, 5.42E-13, -1.0000000000000002E-10, -1.9500000000000002, 9.0333333333333335E-12, 1.6666666666666669E-09, -2.1666666666666692E-11
DataValue, 5, 3.7000000000000004E-13, -1.1000000000000001E-10, -1.9000000000000001, 6.1666666666666672E-12, 1.8333333333333336E-09, -6.4999999999999848E-12
DataValue, 5, 5.0300000000000008E-13, -1.1000000000000001E-10, -1.85, 8.3833333333333344E-12, 1.8333333333333336E-09, 2.7999999999999978E-11
DataValue, 5, 5.38E-13, -1.1000000000000001E-10, -1.8, 8.9666666666666674E-12, 1.8333333333333336E-09, -2.0833333333333371E-11
DataValue, 5, 3.78E-13, -1.1000000000000001E-10, -1.7500000000000002, 6.3E-12, 1.8333333333333336E-09, 7.8333333333333386E-12
DataValue, 5, 5.85E-13, -1.1000000000000001E-10, -1.7000000000000002, 9.75E-12, 1.8333333333333336E-09, 7E-12
DataValue, 5, 4.2000000000000003E-13, -1.1000000000000001E-10, -1.6500000000000001, 7.0000000000000009E-12, 1.8333333333333336E-09, -3.3833333333333294E-11
DataValue, 5, 3.8200000000000004E-13, -1.1000000000000001E-10, -1.6, 6.3666666666666679E-12, 1.8333333333333336E-09, 2.3333333333333281E-12
DataValue, 5, 4.34E-13, -1.1000000000000001E-10, -1.55, 7.2333333333333339E-12, 1.8333333333333336E-09, 2.8166666666666702E-11
DataValue, 5, 5.5100000000000008E-13, -1.1000000000000001E-10, -1.5000000000000002, 9.1833333333333343E-12, 1.8333333333333336E-09, 1.0100000000000014E-10
DataValue, 5, 1.04E-12, -1.1000000000000001E-10, -1.4500000000000002, 1.7333333333333335E-11, 1.8333333333333336E-09, 2.1649999999999985E-10
DataValue, 5, 1.85E-12, -1.0000000000000002E-10, -1.4000000000000001, 3.0833333333333337E-11, 1.6666666666666669E-09, 5.4716666666666617E-10
DataValue, 5, 4.323E-12, -1.0000000000000002E-10, -1.35, 7.205E-11, 1.6666666666666669E-09, 1.390999999999999E-09
DataValue, 5, 1.0196E-11, -1.0000000000000002E-10, -1.3, 1.6993333333333335E-10, 1.6666666666666669E-09, 3.77033333333333E-09
DataValue, 5, 2.6945000000000004E-11, -1.0000000000000002E-10, -1.25, 4.4908333333333341E-10, 1.6666666666666669E-09, 8.8463333333333461E-09
DataValue, 5, 6.3274E-11, -1.1000000000000001E-10, -1.2000000000000002, 1.0545666666666667E-09, 1.8333333333333336E-09, 1.7538833333333361E-08
DataValue, 5, 1.32178E-10, -1.0000000000000002E-10, -1.1500000000000001, 2.202966666666667E-09, 1.6666666666666669E-09, 3.5366666666666633E-08
DataValue, 5, 2.75474E-10, -1.0000000000000002E-10, -1.1, 4.5912333333333334E-09, 1.6666666666666669E-09, 8.391699999999993E-08
DataValue, 5, 6.3568E-10, -1.1000000000000001E-10, -1.05, 1.0594666666666667E-08, 1.8333333333333336E-09, 1.7263266666666648E-07
DataValue, 5, 1.31127E-09, -1.0000000000000002E-10, -1, 2.18545E-08, 1.6666666666666669E-09, 3.0735500000000004E-07
DataValue, 5, 2.47981E-09, -1.1000000000000001E-10, -0.95000000000000007, 4.1330166666666665E-08, 1.8333333333333336E-09, 5.6590000000000027E-07
DataValue, 5, 4.70667E-09, -1.0000000000000002E-10, -0.9, 7.8444500000000011E-08, 1.6666666666666669E-09, 1.044071666666667E-06
DataValue, 5, 8.74424E-09, -1.1000000000000001E-10, -0.85000000000000009, 1.4573733333333335E-07, 1.8333333333333336E-09, 1.8972216666666664E-06
DataValue, 5, 1.6089999999999997E-08, -1.0000000000000002E-10, -0.8, 2.6816666666666663E-07, 1.6666666666666669E-09, 3.0631266666666669E-06
DataValue, 5, 2.7122999999999997E-08, -1.0000000000000002E-10, -0.75000000000000011, 4.5205E-07, 1.6666666666666669E-09, 5.4530666666666686E-06
DataValue, 5, 4.88084E-08, -1.1000000000000001E-10, -0.70000000000000007, 8.1347333333333336E-07, 1.8333333333333336E-09, 9.5602833333333237E-06
DataValue, 5, 8.4484699999999989E-08, -1.1000000000000001E-10, -0.65, 1.4080783333333333E-06, 1.8333333333333336E-09, 1.5959100000000004E-05
DataValue, 5, 1.44563E-07, -1.1000000000000001E-10, -0.60000000000000009, 2.4093833333333335E-06, 1.8333333333333336E-09, 2.6749550000000016E-05
DataValue, 5, 2.44982E-07, -1.0000000000000002E-10, -0.55, 4.083033333333334E-06, 1.6666666666666669E-09, 4.1358833333333294E-05
DataValue, 5, 3.92716E-07, -1.0000000000000002E-10, -0.5, 6.5452666666666664E-06, 1.6666666666666669E-09, 6.5812166666666646E-05
DataValue, 5, 6.39855E-07, -1.1000000000000001E-10, -0.45, 1.066425E-05, 1.8333333333333336E-09, 0.00010080383333333335
DataValue, 5, 9.97539E-07, -1.0000000000000002E-10, -0.4, 1.662565E-05, 1.6666666666666669E-09, 0.00015362250000000008
DataValue, 5, 1.5615900000000002E-06, -1.1000000000000001E-10, -0.35000000000000003, 2.6026500000000002E-05, 1.8333333333333336E-09, 0.00022153183333333343
DataValue, 5, 2.32673E-06, -1.0000000000000002E-10, -0.30000000000000004, 3.8778833333333336E-05, 1.6666666666666669E-09, 0.00031962999999999995
DataValue, 5, 3.4793700000000005E-06, -1.0000000000000002E-10, -0.25, 5.7989500000000011E-05, 1.6666666666666669E-09, 0.00047723166666666653
DataValue, 5, 5.19012E-06, -1.0000000000000002E-10, -0.2, 8.6502E-05, 1.6666666666666669E-09, 0.00067423166666666682
DataValue, 5, 7.5247600000000009E-06, -1.0000000000000002E-10, -0.15000000000000002, 0.00012541266666666668, 1.6666666666666669E-09, 0.00096701333333333334
DataValue, 5, 1.0992200000000001E-05, -1.1000000000000001E-10, -0.1, 0.00018320333333333335, 1.8333333333333336E-09, 0.001320173333333333
DataValue, 5, 1.54458E-05, -9.0000000000000012E-11, -0.05, 0.00025743, 1.5000000000000002E-09, 0.0017309166666666666
DataValue, 5, 2.13777E-05, -1.0000000000000002E-10, 0, 0.000356295, 1.6666666666666669E-09, 0.002301916666666667
