
SetupTitle, HEMT_transfer
PrimitiveTest, I/V Sweep
TestParameter, Context.MainFrame, B1500A
TestParameter, Channel.UnitType, SMU, SMU, SMU
TestParameter, Channel.Unit, SMU1:MP, SMU2:MC, GNDU:GND
TestParameter, Channel.IName, Id, Ig, Is
TestParameter, Channel.VName, Vd, Vg, Vs
TestParameter, Channel.Mode, V, V, COMMON
TestParameter, Channel.Func, CONST, VAR1, CONST
TestParameter, Channel.Index, 
TestParameter, Channel.Time, 
TestParameter, Measurement.Port.Unit, SMU1:MP, SMU2:MC, GNDU:GND
TestParameter, Measurement.Port.SeriesResistor, NONE, NONE, NONE
TestParameter, Measurement.Port.Filter, ON, ON, ON
TestParameter, Measurement.Port.OutputVoltageComparison, 0, 0, 0
TestParameter, Measurement.Primary.Locus, Single
TestParameter, Measurement.Primary.Scale, LINEAR
TestParameter, Measurement.Primary.Start, -5
TestParameter, Measurement.Primary.Stop, 5
TestParameter, Measurement.Primary.Step, 0.05
TestParameter, Measurement.Primary.Compliance, 0.001
TestParameter, Measurement.Primary.PowerCompliance, 0
TestParameter, Measurement.Aborting.Condition, CONTINUE AT ANY
TestParameter, Measurement.PostOutput.Value, START
TestParameter, Measurement.PostOutput.Retention, OFF
TestParameter, Measurement.Bias.Source, 5, -5, 0
TestParameter, Measurement.Bias.Compliance, 0.1, 0.001, 2
TestParameter, Measurement.Monitor.Unit, SMU1:MP, SMU2:MC, GNDU:GND
TestParameter, Measurement.Monitor.Adc, HR ADC, HS ADC, HR ADC
TestParameter, Measurement.Monitor.Measurement, Compliance Side, Force and Compliance Sides, Compliance Side
TestParameter, Measurement.Monitor.RangingMode, LIMITED, LIMITED, LIMITED
TestParameter, Measurement.Monitor.RangeBoundary, 1nA, 10uA, 1nA
TestParameter, Measurement.Monitor.RangeRating, BY FULL RANGE, BY FULL RANGE, BY FULL RANGE
TestParameter, Measurement.Monitor.RangeRatingCoeff, 50, 50, 50
TestParameter, Measurement.Timing.Hold, 0
TestParameter, Measurement.Timing.Delay, 0
TestParameter, Measurement.Adc.HighSpeed.Mode, PLC
TestParameter, Measurement.Adc.HighSpeed.Coeff, 2
TestParameter, Measurement.Adc.HighResolution.AutoZero, OFF
TestParameter, Measurement.Adc.HighResolution.Mode, PLC
TestParameter, Measurement.Adc.HighResolution.Coeff, 2
TestParameter, Measurement.WaitTime.Source.Coeff, 1
TestParameter, Measurement.WaitTime.Source.Offset, 0
TestParameter, Measurement.WaitTime.Monitor.Coeff, 1
TestParameter, Measurement.WaitTime.Monitor.Offset, 0
TestParameter, Function.User.Name, Id_dens, Ig_dens, gm
TestParameter, Function.User.Unit, A/mm, A/mm, S/mm
TestParameter, Function.User.Definition, Id/0.06, abs(Ig)/0.06, diff(Id_dens,Vg)
TestParameter, Output.Graph.Enabled, true
TestParameter, Output.Graph.AutoScaling, false
TestParameter, Output.Graph.XAxis.Data, Vg
TestParameter, Output.Graph.XAxis.Scale, Linear
TestParameter, Output.Graph.XAxis.Left, -2
TestParameter, Output.Graph.XAxis.Right, 10
TestParameter, Output.Graph.XAxis.RunTimeAutoScale, false
TestParameter, Output.Graph.YAxis.Data, Id_dens, Id_dens, gm, Ig_dens
TestParameter, Output.Graph.YAxis.Scale, Log, Linear, Linear, Log
TestParameter, Output.Graph.YAxis.Bottom, 0, 0, 0, 0
TestParameter, Output.Graph.YAxis.Top, 1, 1, 1, 1
TestParameter, Output.Graph.YAxis.Group, , , , 
TestParameter, Output.Graph.YAxis.RunTimeAutoScale, false, false, false, false
TestParameter, Output.List.Data, Vg, Id_dens, Ig_dens, Vd, gm
TestParameter, AutoAnalysis.Interpolation, false
TestParameter, AutoAnalysis.Line1.Enabled, false
TestParameter, AutoAnalysis.Line1.Type, 1
TestParameter, AutoAnalysis.Line1.Fix, True
TestParameter, AutoAnalysis.Line1.YAxis, 0
TestParameter, AutoAnalysis.Line1.Point1.Type, 0
TestParameter, AutoAnalysis.Line1.Point1.XY.X, 
TestParameter, AutoAnalysis.Line1.Point1.XY.Y, 
TestParameter, AutoAnalysis.Line1.Point1.Data.Var, 
TestParameter, AutoAnalysis.Line1.Point1.Data.Condition, 
TestParameter, AutoAnalysis.Line1.Point1.Data.Start, false
TestParameter, AutoAnalysis.Line1.Point1.Data.StartVar, 
TestParameter, AutoAnalysis.Line1.Point1.Data.StartCondition, 
TestParameter, AutoAnalysis.Line1.Point2.Type, 0
TestParameter, AutoAnalysis.Line1.Point2.XY.X, 
TestParameter, AutoAnalysis.Line1.Point2.XY.Y, 
TestParameter, AutoAnalysis.Line1.Point2.Data.Var, 
TestParameter, AutoAnalysis.Line1.Point2.Data.Condition, 
TestParameter, AutoAnalysis.Line1.Point2.Data.Start, false
TestParameter, AutoAnalysis.Line1.Point2.Data.StartVar, 
TestParameter, AutoAnalysis.Line1.Point2.Data.StartCondition, 
TestParameter, AutoAnalysis.Line1.GradientExpr, 0
TestParameter, AutoAnalysis.Line2.Enabled, false
TestParameter, AutoAnalysis.Line2.Type, 1
TestParameter, AutoAnalysis.Line2.Fix, True
TestParameter, AutoAnalysis.Line2.YAxis, 0
TestParameter, AutoAnalysis.Line2.Point1.Type, 0
TestParameter, AutoAnalysis.Line2.Point1.XY.X, 
TestParameter, AutoAnalysis.Line2.Point1.XY.Y, 
TestParameter, AutoAnalysis.Line2.Point1.Data.Var, 
TestParameter, AutoAnalysis.Line2.Point1.Data.Condition, 
TestParameter, AutoAnalysis.Line2.Point1.Data.Start, false
TestParameter, AutoAnalysis.Line2.Point1.Data.StartVar, 
TestParameter, AutoAnalysis.Line2.Point1.Data.StartCondition, 
TestParameter, AutoAnalysis.Line2.Point2.Type, 0
TestParameter, AutoAnalysis.Line2.Point2.XY.X, 
TestParameter, AutoAnalysis.Line2.Point2.XY.Y, 
TestParameter, AutoAnalysis.Line2.Point2.Data.Var, 
TestParameter, AutoAnalysis.Line2.Point2.Data.Condition, 
TestParameter, AutoAnalysis.Line2.Point2.Data.Start, false
TestParameter, AutoAnalysis.Line2.Point2.Data.StartVar, 
TestParameter, AutoAnalysis.Line2.Point2.Data.StartCondition, 
TestParameter, AutoAnalysis.Line2.GradientExpr, 0
TestParameter, AutoAnalysis.Marker.Enabled, false
TestParameter, AutoAnalysis.Marker.Data.Var, 
TestParameter, AutoAnalysis.Marker.Data.Condition, 
TestParameter, AutoAnalysis.Marker.Data.Start, false
TestParameter, AutoAnalysis.Marker.Data.StartVar, 
TestParameter, AutoAnalysis.Marker.Data.StartCondition, 
MetaData, TestRecord.EntryPoint, true
MetaData, TestRecord.RecordTime, 08/14/2019 13:43:27
MetaData, TestRecord.TestTarget, 
MetaData, TestRecord.IterationIndex, 2
MetaData, TestRecord.Preservation, true
MetaData, TestRecord.Flag, #
MetaData, TestRecord.Remarks, #188_F_implant_5nm_cap_die2_r2c1_W200_S70
MetaData, TestRecord.LinkKey, ece11251-da56-4c90-9d0e-d9c0ec4d078d
Dimension1, 201, 201, 201, 201, 201, 201, 201
Dimension2, 1, 1, 1, 1, 1, 1, 1
DataName, Vd, Id, Ig, Vg, Id_dens, Ig_dens, gm
DataValue, 5, 1.9740000000000003E-12, -1.4E-10, -5, 3.2900000000000004E-11, 2.3333333333333335E-09, -1.3033333333333376E-10
DataValue, 5, 1.5830000000000002E-12, -1.1000000000000001E-10, -4.95, 2.6383333333333339E-11, 1.8333333333333336E-09, -8.4000000000000317E-11
DataValue, 5, 1.4700000000000002E-12, -1.0000000000000002E-10, -4.9, 2.4500000000000003E-11, 1.6666666666666669E-09, -3.50000000000002E-12
DataValue, 5, 1.5620000000000002E-12, -1.0000000000000002E-10, -4.8500000000000005, 2.6033333333333338E-11, 1.6666666666666669E-09, -6.9666666666666891E-11
DataValue, 5, 1.0520000000000002E-12, -1.1000000000000001E-10, -4.8000000000000007, 1.7533333333333338E-11, 1.8333333333333336E-09, -8.4666666666666245E-11
DataValue, 5, 1.0540000000000002E-12, -1.0000000000000002E-10, -4.75, 1.7566666666666669E-11, 1.6666666666666669E-09, 2.5999999999999823E-11
DataValue, 5, 1.2080000000000001E-12, -1.0000000000000002E-10, -4.7, 2.0133333333333334E-11, 1.6666666666666669E-09, -2.83333333333334E-12
DataValue, 5, 1.0370000000000001E-12, -1.0000000000000002E-10, -4.65, 1.7283333333333336E-11, 1.6666666666666669E-09, -6.00000000000002E-12
DataValue, 5, 1.172E-12, -1.0000000000000002E-10, -4.6000000000000005, 1.9533333333333334E-11, 1.6666666666666669E-09, 1.166666666666641E-12
DataValue, 5, 1.044E-12, -1.0000000000000002E-10, -4.5500000000000007, 1.74E-11, 1.6666666666666669E-09, -5.1833333333333057E-11
DataValue, 5, 8.6100000000000007E-13, -1.1000000000000001E-10, -4.5, 1.4350000000000001E-11, 1.8333333333333336E-09, -2.4166666666666519E-11
DataValue, 5, 8.9900000000000011E-13, -1.0000000000000002E-10, -4.45, 1.4983333333333335E-11, 1.6666666666666669E-09, -1.533333333333339E-11
DataValue, 5, 7.6900000000000006E-13, -1.0000000000000002E-10, -4.4, 1.2816666666666667E-11, 1.6666666666666669E-09, -1.5500000000000043E-11
DataValue, 5, 8.060000000000001E-13, -1.0000000000000002E-10, -4.3500000000000005, 1.3433333333333336E-11, 1.6666666666666669E-09, 1.550000000000006E-11
DataValue, 5, 8.6200000000000006E-13, -1.0000000000000002E-10, -4.3000000000000007, 1.4366666666666668E-11, 1.6666666666666669E-09, -1.5999999999999912E-11
DataValue, 5, 7.100000000000001E-13, -9.0000000000000012E-11, -4.25, 1.1833333333333336E-11, 1.5000000000000002E-09, 1.0666666666666635E-11
DataValue, 5, 9.26E-13, -9.0000000000000012E-11, -4.2, 1.5433333333333337E-11, 1.5000000000000002E-09, 3.7833333333333455E-11
DataValue, 5, 9.3700000000000015E-13, -9.0000000000000012E-11, -4.15, 1.5616666666666668E-11, 1.5000000000000002E-09, 1.450000000000004E-11
DataValue, 5, 1.013E-12, -9.0000000000000012E-11, -4.1000000000000005, 1.6883333333333336E-11, 1.5000000000000002E-09, -3.66666666666668E-11
DataValue, 5, 7.1700000000000008E-13, -9.0000000000000012E-11, -4.0500000000000007, 1.1950000000000001E-11, 1.5000000000000002E-09, -3.5999999999999818E-11
DataValue, 5, 7.97E-13, -9.0000000000000012E-11, -4, 1.3283333333333335E-11, 1.5000000000000002E-09, 2.0666666666666563E-11
DataValue, 5, 8.4100000000000005E-13, -9.0000000000000012E-11, -3.95, 1.4016666666666669E-11, 1.5000000000000002E-09, -4.8833333333333507E-11
DataValue, 5, 5.0400000000000007E-13, -9.0000000000000012E-11, -3.9000000000000004, 8.4000000000000014E-12, 1.5000000000000002E-09, -4.8666666666666841E-11
DataValue, 5, 5.4900000000000008E-13, -9.0000000000000012E-11, -3.8500000000000005, 9.150000000000002E-12, 1.5000000000000002E-09, 9.99999999999999E-12
DataValue, 5, 5.64E-13, -9.0000000000000012E-11, -3.8000000000000003, 9.4000000000000011E-12, 1.5000000000000002E-09, 1.3333333333333308E-11
DataValue, 5, 6.29E-13, -9.0000000000000012E-11, -3.7500000000000004, 1.0483333333333334E-11, 1.5000000000000002E-09, 1.0666666666666665E-11
DataValue, 5, 6.28E-13, -9.0000000000000012E-11, -3.7, 1.0466666666666669E-11, 1.5000000000000002E-09, -2.4166666666666641E-11
DataValue, 5, 4.8400000000000006E-13, -9.0000000000000012E-11, -3.6500000000000004, 8.0666666666666676E-12, 1.5000000000000002E-09, -6.1666666666666785E-12
DataValue, 5, 5.91E-13, -9.0000000000000012E-11, -3.6, 9.85E-12, 1.5000000000000002E-09, 3.5499999999999968E-11
DataValue, 5, 6.9700000000000006E-13, -9.0000000000000012E-11, -3.5500000000000003, 1.1616666666666668E-11, 1.5000000000000002E-09, 1.1333333333333377E-11
DataValue, 5, 6.59E-13, -9.0000000000000012E-11, -3.5000000000000004, 1.0983333333333334E-11, 1.5000000000000002E-09, 3.8333333333333427E-12
DataValue, 5, 7.2000000000000006E-13, -9.0000000000000012E-11, -3.45, 1.2000000000000002E-11, 1.5000000000000002E-09, 2.4833333333333319E-11
DataValue, 5, 8.0800000000000009E-13, -8.0000000000000008E-11, -3.4000000000000004, 1.3466666666666668E-11, 1.3333333333333335E-09, -2.6333333333333326E-11
DataValue, 5, 5.62E-13, -9.0000000000000012E-11, -3.35, 9.3666666666666673E-12, 1.5000000000000002E-09, -3.0166666666666634E-11
DataValue, 5, 6.2700000000000005E-13, -9.0000000000000012E-11, -3.3000000000000003, 1.0450000000000002E-11, 1.5000000000000002E-09, 1.8500000000000069E-11
DataValue, 5, 6.7300000000000006E-13, -9.0000000000000012E-11, -3.2500000000000004, 1.1216666666666668E-11, 1.5000000000000002E-09, -1.4166666666666669E-11
DataValue, 5, 5.42E-13, -9.0000000000000012E-11, -3.2, 9.0333333333333335E-12, 1.5000000000000002E-09, -2.0499999999999968E-11
DataValue, 5, 5.5000000000000008E-13, -9.0000000000000012E-11, -3.1500000000000004, 9.1666666666666689E-12, 1.5000000000000002E-09, -6.4999999999999848E-12
DataValue, 5, 5.0300000000000008E-13, -9.0000000000000012E-11, -3.1, 8.3833333333333344E-12, 1.5000000000000002E-09, -1.1000000000000004E-11
DataValue, 5, 4.8400000000000006E-13, -9.0000000000000012E-11, -3.0500000000000003, 8.0666666666666676E-12, 1.5000000000000002E-09, 4.8333333333333465E-12
DataValue, 5, 5.3200000000000006E-13, -9.0000000000000012E-11, -3.0000000000000004, 8.8666666666666674E-12, 1.5000000000000002E-09, 2.0333333333333315E-11
DataValue, 5, 6.06E-13, -9.0000000000000012E-11, -2.95, 1.0100000000000001E-11, 1.5000000000000002E-09, 1.3499999999999994E-11
DataValue, 5, 6.13E-13, -9.0000000000000012E-11, -2.9000000000000004, 1.0216666666666668E-11, 1.5000000000000002E-09, -6.0000000000000092E-12
DataValue, 5, 5.7E-13, -8.0000000000000008E-11, -2.85, 9.5E-12, 1.3333333333333335E-09, -5.9166666666666617E-11
DataValue, 5, 2.58E-13, -8.0000000000000008E-11, -2.8000000000000003, 4.3000000000000007E-12, 1.3333333333333335E-09, -3.7500000000000116E-11
DataValue, 5, 3.4500000000000004E-13, -8.0000000000000008E-11, -2.7500000000000004, 5.7500000000000011E-12, 1.3333333333333335E-09, 3.2999999999999977E-11
DataValue, 5, 4.5600000000000008E-13, -8.0000000000000008E-11, -2.7, 7.6000000000000015E-12, 1.3333333333333335E-09, 5.2833333333333287E-11
DataValue, 5, 6.62E-13, -9.0000000000000012E-11, -2.6500000000000004, 1.1033333333333335E-11, 1.5000000000000002E-09, -1.3500000000000002E-11
DataValue, 5, 3.75E-13, -9.0000000000000012E-11, -2.6, 6.25E-12, 1.5000000000000002E-09, -2.4833333333333319E-11
DataValue, 5, 5.13E-13, -9.0000000000000012E-11, -2.5500000000000003, 8.55E-12, 1.5000000000000002E-09, 2.6666666666666744E-12
DataValue, 5, 3.9100000000000005E-13, -1.0000000000000002E-10, -2.5, 6.5166666666666679E-12, 1.6666666666666669E-09, 8.83333333333332E-12
DataValue, 5, 5.66E-13, -9.0000000000000012E-11, -2.45, 9.4333333333333334E-12, 1.5000000000000002E-09, 1.88333333333334E-11
DataValue, 5, 5.0400000000000007E-13, -9.0000000000000012E-11, -2.4000000000000004, 8.4000000000000014E-12, 1.5000000000000002E-09, 5.9333333333333309E-11
DataValue, 5, 9.2200000000000011E-13, -9.0000000000000012E-11, -2.35, 1.5366666666666669E-11, 1.5000000000000002E-09, 1.7183333333333318E-10
DataValue, 5, 1.535E-12, -9.0000000000000012E-11, -2.3000000000000003, 2.5583333333333335E-11, 1.5000000000000002E-09, 5.069999999999997E-10
DataValue, 5, 3.9640000000000005E-12, -9.0000000000000012E-11, -2.25, 6.6066666666666679E-11, 1.5000000000000002E-09, 1.2699999999999991E-09
DataValue, 5, 9.1550000000000013E-12, -9.0000000000000012E-11, -2.2, 1.5258333333333335E-10, 1.5000000000000002E-09, 3.2530000000000114E-09
DataValue, 5, 2.3482E-11, -9.0000000000000012E-11, -2.1500000000000004, 3.9136666666666667E-10, 1.5000000000000002E-09, 8.0221666666666587E-09
DataValue, 5, 5.7288000000000006E-11, -9.0000000000000012E-11, -2.1, 9.548E-10, 1.5000000000000002E-09, 1.9179999999999984E-08
DataValue, 5, 1.38562E-10, -9.0000000000000012E-11, -2.0500000000000003, 2.309366666666667E-09, 1.5000000000000002E-09, 4.3732333333333307E-08
DataValue, 5, 3.1968200000000004E-10, -9.0000000000000012E-11, -2, 5.3280333333333344E-09, 1.5000000000000002E-09, 8.333299999999993E-08
DataValue, 5, 6.3856E-10, -9.0000000000000012E-11, -1.9500000000000002, 1.0642666666666667E-08, 1.5000000000000002E-09, 1.8911800000000025E-07
DataValue, 5, 1.45439E-09, -7E-11, -1.9000000000000001, 2.4239833333333333E-08, 1.1666666666666668E-09, 4.0746999999999966E-07
DataValue, 5, 3.08338E-09, -9.0000000000000012E-11, -1.85, 5.138966666666667E-08, 1.5000000000000002E-09, 7.8990499999999934E-07
DataValue, 5, 6.19382E-09, -9.0000000000000012E-11, -1.8, 1.0323033333333334E-07, 1.5000000000000002E-09, 1.5720366666666687E-06
DataValue, 5, 1.25156E-08, -9.0000000000000012E-11, -1.7500000000000002, 2.0859333333333334E-07, 1.5000000000000002E-09, 2.8935800000000038E-06
DataValue, 5, 2.3555299999999998E-08, -1.0000000000000002E-10, -1.7000000000000002, 3.9258833333333334E-07, 1.6666666666666669E-09, 5.593899999999994E-06
DataValue, 5, 4.6079E-08, -9.0000000000000012E-11, -1.6500000000000001, 7.6798333333333329E-07, 1.5000000000000002E-09, 1.056139999999999E-05
DataValue, 5, 8.6923699999999988E-08, -9.0000000000000012E-11, -1.6, 1.4487283333333333E-06, 1.5000000000000002E-09, 1.8593166666666653E-05
DataValue, 5, 1.57638E-07, -1.0000000000000002E-10, -1.55, 2.6273000000000002E-06, 1.6666666666666669E-09, 3.1466550000000045E-05
DataValue, 5, 2.75723E-07, -1.0000000000000002E-10, -1.5000000000000002, 4.5953833333333334E-06, 1.6666666666666669E-09, 5.1931833333333404E-05
DataValue, 5, 4.69229E-07, -1.0000000000000002E-10, -1.4500000000000002, 7.8204833333333341E-06, 1.6666666666666669E-09, 7.7985333333333259E-05
DataValue, 5, 7.43635E-07, -9.0000000000000012E-11, -1.4000000000000001, 1.2393916666666667E-05, 1.5000000000000002E-09, 0.00011590183333333326
DataValue, 5, 1.16464E-06, -1.0000000000000002E-10, -1.35, 1.941066666666667E-05, 1.6666666666666669E-09, 0.00017937083333333318
DataValue, 5, 1.81986E-06, -1.0000000000000002E-10, -1.3, 3.0331E-05, 1.6666666666666669E-09, 0.00026114666666666645
DataValue, 5, 2.73152E-06, -9.0000000000000012E-11, -1.25, 4.5525333333333336E-05, 1.5000000000000002E-09, 0.00037146666666666717
DataValue, 5, 4.0486600000000005E-06, -9.0000000000000012E-11, -1.2000000000000002, 6.7477666666666673E-05, 1.5000000000000002E-09, 0.0005088416666666674
DataValue, 5, 5.7845700000000009E-06, -9.0000000000000012E-11, -1.1500000000000001, 9.6409500000000013E-05, 1.5000000000000002E-09, 0.00067259833333333278
DataValue, 5, 8.0842500000000014E-06, -9.0000000000000012E-11, -1.1, 0.00013473750000000002, 1.5000000000000002E-09, 0.00089947166666666588
DataValue, 5, 1.1181400000000001E-05, -9.0000000000000012E-11, -1.05, 0.00018635666666666668, 1.5000000000000002E-09, 0.0011911749999999992
DataValue, 5, 1.5231300000000001E-05, -9.0000000000000012E-11, -1, 0.00025385500000000004, 1.5000000000000002E-09, 0.0015464166666666669
DataValue, 5, 2.04599E-05, -9.0000000000000012E-11, -0.95000000000000007, 0.00034099833333333334, 1.5000000000000002E-09, 0.0019670333333333336
DataValue, 5, 2.70335E-05, -9.0000000000000012E-11, -0.9, 0.00045055833333333337, 1.5000000000000002E-09, 0.0024905500000000011
DataValue, 5, 3.54032E-05, -9.0000000000000012E-11, -0.85000000000000009, 0.00059005333333333337, 1.5000000000000002E-09, 0.0030487333333333345
DataValue, 5, 4.53259E-05, -1.0000000000000002E-10, -0.8, 0.00075543166666666673, 1.6666666666666669E-09, 0.0037321333333333339
DataValue, 5, 5.7796E-05, -1.0000000000000002E-10, -0.75000000000000011, 0.0009632666666666667, 1.6666666666666669E-09, 0.0045227166666666685
DataValue, 5, 7.24622E-05, -1.0000000000000002E-10, -0.70000000000000007, 0.0012077033333333335, 1.6666666666666669E-09, 0.0053767666666666644
DataValue, 5, 9.0056600000000008E-05, -1.0000000000000002E-10, -0.65, 0.0015009433333333336, 1.6666666666666669E-09, 0.0064206333333333351
DataValue, 5, 0.00011098600000000001, -1.0000000000000002E-10, -0.60000000000000009, 0.0018497666666666668, 1.6666666666666669E-09, 0.0074324
DataValue, 5, 0.000134651, -9.0000000000000012E-11, -0.55, 0.0022441833333333334, 1.5000000000000002E-09, 0.0084916666666666578
DataValue, 5, 0.000161936, -1.0000000000000002E-10, -0.5, 0.0026989333333333333, 1.6666666666666669E-09, 0.0096496666666666623
DataValue, 5, 0.000192549, -9.0000000000000012E-11, -0.45, 0.00320915, 1.5000000000000002E-09, 0.010830500000000005
DataValue, 5, 0.00022691900000000001, -1.0000000000000002E-10, -0.4, 0.0037819833333333336, 1.6666666666666669E-09, 0.012120333333333339
DataValue, 5, 0.00026527100000000003, -1.0000000000000002E-10, -0.35000000000000003, 0.0044211833333333336, 1.6666666666666669E-09, 0.013461333333333341
DataValue, 5, 0.000307687, -9.0000000000000012E-11, -0.30000000000000004, 0.0051281166666666675, 1.5000000000000002E-09, 0.014827333333333326
DataValue, 5, 0.000354235, -1.0000000000000002E-10, -0.25, 0.0059039166666666667, 1.6666666666666669E-09, 0.016080833333333322
DataValue, 5, 0.000404172, -1.0000000000000002E-10, -0.2, 0.0067362, 1.6666666666666669E-09, 0.017431833333333341
