
SetupTitle, HEMT_transfer
PrimitiveTest, I/V Sweep
TestParameter, Context.MainFrame, B1500A
TestParameter, Channel.UnitType, SMU, SMU, SMU
TestParameter, Channel.Unit, SMU1:MP, SMU2:MC, GNDU:GND
TestParameter, Channel.IName, Id, Ig, Is
TestParameter, Channel.VName, Vd, Vg, Vs
TestParameter, Channel.Mode, V, V, COMMON
TestParameter, Channel.Func, CONST, VAR1, CONST
TestParameter, Channel.Index, 
TestParameter, Channel.Time, 
TestParameter, Measurement.Port.Unit, SMU1:MP, SMU2:MC, GNDU:GND
TestParameter, Measurement.Port.SeriesResistor, NONE, NONE, NONE
TestParameter, Measurement.Port.Filter, ON, ON, ON
TestParameter, Measurement.Port.OutputVoltageComparison, 0, 0, 0
TestParameter, Measurement.Primary.Locus, Single
TestParameter, Measurement.Primary.Scale, LINEAR
TestParameter, Measurement.Primary.Start, -5
TestParameter, Measurement.Primary.Stop, 5
TestParameter, Measurement.Primary.Step, 0.05
TestParameter, Measurement.Primary.Compliance, 0.001
TestParameter, Measurement.Primary.PowerCompliance, 0
TestParameter, Measurement.Aborting.Condition, CONTINUE AT ANY
TestParameter, Measurement.PostOutput.Value, START
TestParameter, Measurement.PostOutput.Retention, OFF
TestParameter, Measurement.Bias.Source, 5, -5, 0
TestParameter, Measurement.Bias.Compliance, 0.1, 0.001, 2
TestParameter, Measurement.Monitor.Unit, SMU1:MP, SMU2:MC, GNDU:GND
TestParameter, Measurement.Monitor.Adc, HR ADC, HS ADC, HR ADC
TestParameter, Measurement.Monitor.Measurement, Compliance Side, Force and Compliance Sides, Compliance Side
TestParameter, Measurement.Monitor.RangingMode, LIMITED, LIMITED, LIMITED
TestParameter, Measurement.Monitor.RangeBoundary, 1nA, 10uA, 1nA
TestParameter, Measurement.Monitor.RangeRating, BY FULL RANGE, BY FULL RANGE, BY FULL RANGE
TestParameter, Measurement.Monitor.RangeRatingCoeff, 50, 50, 50
TestParameter, Measurement.Timing.Hold, 0
TestParameter, Measurement.Timing.Delay, 0
TestParameter, Measurement.Adc.HighSpeed.Mode, PLC
TestParameter, Measurement.Adc.HighSpeed.Coeff, 2
TestParameter, Measurement.Adc.HighResolution.AutoZero, OFF
TestParameter, Measurement.Adc.HighResolution.Mode, PLC
TestParameter, Measurement.Adc.HighResolution.Coeff, 2
TestParameter, Measurement.WaitTime.Source.Coeff, 1
TestParameter, Measurement.WaitTime.Source.Offset, 0
TestParameter, Measurement.WaitTime.Monitor.Coeff, 1
TestParameter, Measurement.WaitTime.Monitor.Offset, 0
TestParameter, Function.User.Name, Id_dens, Ig_dens, gm
TestParameter, Function.User.Unit, A/mm, A/mm, S/mm
TestParameter, Function.User.Definition, Id/0.06, abs(Ig)/0.06, diff(Id_dens,Vg)
TestParameter, Output.Graph.Enabled, true
TestParameter, Output.Graph.AutoScaling, false
TestParameter, Output.Graph.XAxis.Data, Vg
TestParameter, Output.Graph.XAxis.Scale, Linear
TestParameter, Output.Graph.XAxis.Left, -2
TestParameter, Output.Graph.XAxis.Right, 10
TestParameter, Output.Graph.XAxis.RunTimeAutoScale, false
TestParameter, Output.Graph.YAxis.Data, Id_dens, Id_dens, gm, Ig_dens
TestParameter, Output.Graph.YAxis.Scale, Log, Linear, Linear, Log
TestParameter, Output.Graph.YAxis.Bottom, 0, 0, 0, 0
TestParameter, Output.Graph.YAxis.Top, 1, 1, 1, 1
TestParameter, Output.Graph.YAxis.Group, , , , 
TestParameter, Output.Graph.YAxis.RunTimeAutoScale, false, false, false, false
TestParameter, Output.List.Data, Vg, Id_dens, Ig_dens, Vd, gm
TestParameter, AutoAnalysis.Interpolation, false
TestParameter, AutoAnalysis.Line1.Enabled, false
TestParameter, AutoAnalysis.Line1.Type, 1
TestParameter, AutoAnalysis.Line1.Fix, True
TestParameter, AutoAnalysis.Line1.YAxis, 0
TestParameter, AutoAnalysis.Line1.Point1.Type, 0
TestParameter, AutoAnalysis.Line1.Point1.XY.X, 
TestParameter, AutoAnalysis.Line1.Point1.XY.Y, 
TestParameter, AutoAnalysis.Line1.Point1.Data.Var, 
TestParameter, AutoAnalysis.Line1.Point1.Data.Condition, 
TestParameter, AutoAnalysis.Line1.Point1.Data.Start, false
TestParameter, AutoAnalysis.Line1.Point1.Data.StartVar, 
TestParameter, AutoAnalysis.Line1.Point1.Data.StartCondition, 
TestParameter, AutoAnalysis.Line1.Point2.Type, 0
TestParameter, AutoAnalysis.Line1.Point2.XY.X, 
TestParameter, AutoAnalysis.Line1.Point2.XY.Y, 
TestParameter, AutoAnalysis.Line1.Point2.Data.Var, 
TestParameter, AutoAnalysis.Line1.Point2.Data.Condition, 
TestParameter, AutoAnalysis.Line1.Point2.Data.Start, false
TestParameter, AutoAnalysis.Line1.Point2.Data.StartVar, 
TestParameter, AutoAnalysis.Line1.Point2.Data.StartCondition, 
TestParameter, AutoAnalysis.Line1.GradientExpr, 0
TestParameter, AutoAnalysis.Line2.Enabled, false
TestParameter, AutoAnalysis.Line2.Type, 1
TestParameter, AutoAnalysis.Line2.Fix, True
TestParameter, AutoAnalysis.Line2.YAxis, 0
TestParameter, AutoAnalysis.Line2.Point1.Type, 0
TestParameter, AutoAnalysis.Line2.Point1.XY.X, 
TestParameter, AutoAnalysis.Line2.Point1.XY.Y, 
TestParameter, AutoAnalysis.Line2.Point1.Data.Var, 
TestParameter, AutoAnalysis.Line2.Point1.Data.Condition, 
TestParameter, AutoAnalysis.Line2.Point1.Data.Start, false
TestParameter, AutoAnalysis.Line2.Point1.Data.StartVar, 
TestParameter, AutoAnalysis.Line2.Point1.Data.StartCondition, 
TestParameter, AutoAnalysis.Line2.Point2.Type, 0
TestParameter, AutoAnalysis.Line2.Point2.XY.X, 
TestParameter, AutoAnalysis.Line2.Point2.XY.Y, 
TestParameter, AutoAnalysis.Line2.Point2.Data.Var, 
TestParameter, AutoAnalysis.Line2.Point2.Data.Condition, 
TestParameter, AutoAnalysis.Line2.Point2.Data.Start, false
TestParameter, AutoAnalysis.Line2.Point2.Data.StartVar, 
TestParameter, AutoAnalysis.Line2.Point2.Data.StartCondition, 
TestParameter, AutoAnalysis.Line2.GradientExpr, 0
TestParameter, AutoAnalysis.Marker.Enabled, false
TestParameter, AutoAnalysis.Marker.Data.Var, 
TestParameter, AutoAnalysis.Marker.Data.Condition, 
TestParameter, AutoAnalysis.Marker.Data.Start, false
TestParameter, AutoAnalysis.Marker.Data.StartVar, 
TestParameter, AutoAnalysis.Marker.Data.StartCondition, 
MetaData, TestRecord.EntryPoint, true
MetaData, TestRecord.RecordTime, 08/16/2019 12:31:51
MetaData, TestRecord.TestTarget, 
MetaData, TestRecord.IterationIndex, 1
MetaData, TestRecord.Preservation, true
MetaData, TestRecord.Flag, #
MetaData, TestRecord.Remarks, #089_LPCVD_trigate_die3_r1c3_SFP_W200
MetaData, TestRecord.LinkKey, b325f0fc-995e-4b11-a424-4fe7b4a988ec
Dimension1, 201, 201, 201, 201, 201, 201, 201
Dimension2, 1, 1, 1, 1, 1, 1, 1
DataName, Vd, Id, Ig, Vg, Id_dens, Ig_dens, gm
DataValue, 5, 6.565E-12, -2.3000000000000003E-10, -5, 1.0941666666666668E-10, 3.8333333333333337E-09, -3.7366666666666786E-10
DataValue, 5, 5.4440000000000006E-12, -1.8000000000000003E-10, -4.95, 9.0733333333333351E-11, 3.0000000000000004E-09, -3.0283333333333436E-10
DataValue, 5, 4.748E-12, -1.8000000000000003E-10, -4.9, 7.9133333333333347E-11, 3.0000000000000004E-09, -2.1500000000000094E-10
DataValue, 5, 4.154E-12, -1.8000000000000003E-10, -4.8500000000000005, 6.9233333333333335E-11, 3.0000000000000004E-09, -1.5450000000000063E-10
DataValue, 5, 3.821E-12, -1.7E-10, -4.8000000000000007, 6.3683333333333338E-11, 2.8333333333333335E-09, -1.13166666666666E-10
DataValue, 5, 3.4750000000000004E-12, -1.8000000000000003E-10, -4.75, 5.7916666666666673E-11, 3.0000000000000004E-09, -1.046666666666661E-10
DataValue, 5, 3.1930000000000002E-12, -1.7E-10, -4.7, 5.3216666666666673E-11, 2.8333333333333335E-09, -6.4166666666666872E-11
DataValue, 5, 3.0900000000000004E-12, -1.7E-10, -4.65, 5.150000000000001E-11, 2.8333333333333335E-09, -6.5500000000000226E-11
DataValue, 5, 2.8E-12, -1.6000000000000002E-10, -4.6000000000000005, 4.6666666666666674E-11, 2.666666666666667E-09, -5.2833333333333506E-11
DataValue, 5, 2.7730000000000004E-12, -1.6000000000000002E-10, -4.5500000000000007, 4.6216666666666678E-11, 2.666666666666667E-09, 1.6666666666665228E-13
DataValue, 5, 2.8010000000000003E-12, -1.7E-10, -4.5, 4.6683333333333339E-11, 2.8333333333333335E-09, -4.916666666666649E-11
DataValue, 5, 2.478E-12, -1.6000000000000002E-10, -4.45, 4.13E-11, 2.666666666666667E-09, -4.1000000000000123E-11
DataValue, 5, 2.5550000000000003E-12, -1.6000000000000002E-10, -4.4, 4.2583333333333341E-11, 2.666666666666667E-09, -9.6666666666666931E-12
DataValue, 5, 2.42E-12, -1.6000000000000002E-10, -4.3500000000000005, 4.0333333333333336E-11, 2.666666666666667E-09, -2.316666666666681E-11
DataValue, 5, 2.4160000000000002E-12, -1.6000000000000002E-10, -4.3000000000000007, 4.0266666666666668E-11, 2.666666666666667E-09, -2.6666666666666304E-12
DataValue, 5, 2.4040000000000003E-12, -1.5000000000000003E-10, -4.25, 4.0066666666666672E-11, 2.5000000000000005E-09, -1.7333333333333193E-11
DataValue, 5, 2.3120000000000002E-12, -1.6000000000000002E-10, -4.2, 3.853333333333334E-11, 2.666666666666667E-09, -4.650000000000015E-11
DataValue, 5, 2.1250000000000003E-12, -1.5000000000000003E-10, -4.15, 3.5416666666666674E-11, 2.5000000000000005E-09, -5.2833333333333506E-11
DataValue, 5, 1.9950000000000003E-12, -1.5000000000000003E-10, -4.1000000000000005, 3.3250000000000008E-11, 2.5000000000000005E-09, -2.9500000000000105E-11
DataValue, 5, 1.948E-12, -1.6000000000000002E-10, -4.0500000000000007, 3.2466666666666673E-11, 2.666666666666667E-09, -2.0000000000000214E-12
DataValue, 5, 1.9830000000000003E-12, -1.5000000000000003E-10, -4, 3.3050000000000005E-11, 2.5000000000000005E-09, 1.6666666666666522E-11
DataValue, 5, 2.048E-12, -1.5000000000000003E-10, -3.95, 3.4133333333333334E-11, 2.5000000000000005E-09, -3.4999999999999875E-12
DataValue, 5, 1.9620000000000003E-12, -1.5000000000000003E-10, -3.9000000000000004, 3.2700000000000007E-11, 2.5000000000000005E-09, -1.3333333333333334E-11
DataValue, 5, 1.968E-12, -1.5000000000000003E-10, -3.8500000000000005, 3.2800000000000006E-11, 2.5000000000000005E-09, -1.2666666666666663E-11
DataValue, 5, 1.8860000000000002E-12, -1.5000000000000003E-10, -3.8000000000000003, 3.143333333333334E-11, 2.5000000000000005E-09, -9.4999999999999979E-12
DataValue, 5, 1.9110000000000002E-12, -1.4E-10, -3.7500000000000004, 3.1850000000000005E-11, 2.3333333333333335E-09, 1.0666666666666568E-11
DataValue, 5, 1.95E-12, -1.5000000000000003E-10, -3.7, 3.25E-11, 2.5000000000000005E-09, -8.1666666666666449E-12
DataValue, 5, 1.8620000000000003E-12, -1.5000000000000003E-10, -3.6500000000000004, 3.103333333333334E-11, 2.5000000000000005E-09, 5.5000000000000666E-12
DataValue, 5, 1.9830000000000003E-12, -1.4E-10, -3.6, 3.3050000000000005E-11, 2.3333333333333335E-09, -9.3333333333333447E-12
DataValue, 5, 1.8060000000000002E-12, -1.4E-10, -3.5500000000000003, 3.0100000000000005E-11, 2.3333333333333335E-09, -2.4333333333333453E-11
DataValue, 5, 1.837E-12, -1.4E-10, -3.5000000000000004, 3.0616666666666668E-11, 2.3333333333333335E-09, -1.2000000000000018E-11
DataValue, 5, 1.734E-12, -1.4E-10, -3.45, 2.8900000000000002E-11, 2.3333333333333335E-09, -1.4666666666666629E-11
DataValue, 5, 1.7490000000000001E-12, -1.3000000000000002E-10, -3.4000000000000004, 2.9150000000000004E-11, 2.166666666666667E-09, 1.3333333333333211E-12
DataValue, 5, 1.742E-12, -1.4E-10, -3.35, 2.9033333333333334E-11, 2.3333333333333335E-09, 1.6666666666666595E-12
DataValue, 5, 1.759E-12, -1.4E-10, -3.3000000000000003, 2.931666666666667E-11, 2.3333333333333335E-09, -2.9666666666666726E-11
DataValue, 5, 1.5640000000000002E-12, -1.3000000000000002E-10, -3.2500000000000004, 2.6066666666666672E-11, 2.166666666666667E-09, -1.9499999999999988E-11
DataValue, 5, 1.642E-12, -1.4E-10, -3.2, 2.736666666666667E-11, 2.3333333333333335E-09, 1.8999999999999963E-11
DataValue, 5, 1.6780000000000001E-12, -1.3000000000000002E-10, -3.1500000000000004, 2.796666666666667E-11, 2.166666666666667E-09, 4.1666666666666482E-12
DataValue, 5, 1.667E-12, -1.4E-10, -3.1, 2.7783333333333335E-11, 2.3333333333333335E-09, -1.0166666666666674E-11
DataValue, 5, 1.617E-12, -1.3000000000000002E-10, -3.0500000000000003, 2.695E-11, 2.166666666666667E-09, -1.6333333333333393E-11
DataValue, 5, 1.569E-12, -1.4E-10, -3.0000000000000004, 2.615E-11, 2.3333333333333335E-09, -1.499999999999974E-12
DataValue, 5, 1.6080000000000002E-12, -1.3000000000000002E-10, -2.95, 2.6800000000000004E-11, 2.166666666666667E-09, 1.4500000000000008E-11
DataValue, 5, 1.6560000000000002E-12, -1.3000000000000002E-10, -2.9000000000000004, 2.7600000000000004E-11, 2.166666666666667E-09, -1.0166666666666641E-11
DataValue, 5, 1.5470000000000002E-12, -1.3000000000000002E-10, -2.85, 2.5783333333333339E-11, 2.166666666666667E-09, -2.3499999999999983E-11
DataValue, 5, 1.5150000000000001E-12, -1.3000000000000002E-10, -2.8000000000000003, 2.5250000000000003E-11, 2.166666666666667E-09, -5.1666666666666868E-12
DataValue, 5, 1.5160000000000002E-12, -1.2E-10, -2.7500000000000004, 2.5266666666666672E-11, 2E-09, 1.3666666666666645E-11
DataValue, 5, 1.5970000000000002E-12, -1.2E-10, -2.7, 2.6616666666666669E-11, 2E-09, 3.333333333333319E-12
DataValue, 5, 1.5360000000000001E-12, -1.2E-10, -2.6500000000000004, 2.5600000000000004E-11, 2E-09, 3.5000000000000041E-12
DataValue, 5, 1.6180000000000002E-12, -1.2E-10, -2.6, 2.696666666666667E-11, 2E-09, 1.089999999999999E-10
DataValue, 5, 2.19E-12, -1.2E-10, -2.5500000000000003, 3.65E-11, 2E-09, 6.85833333333333E-10
DataValue, 5, 5.7330000000000007E-12, -1.2E-10, -2.5, 9.5550000000000022E-11, 2E-09, 4.6503333333333288E-09
DataValue, 5, 3.0092E-11, -1.3000000000000002E-10, -2.45, 5.0153333333333332E-10, 2.166666666666667E-09, 3.0390666666666774E-08
DataValue, 5, 1.88077E-10, -1.3000000000000002E-10, -2.4000000000000004, 3.1346166666666668E-09, 2.166666666666667E-09, 2.037763333333332E-07
DataValue, 5, 1.25275E-09, -1.2E-10, -2.35, 2.0879166666666669E-08, 2E-09, 1.2212871666666656E-06
DataValue, 5, 7.5158E-09, -1.2E-10, -2.3000000000000003, 1.2526333333333334E-07, 2E-09, 7.5237083333333245E-06
DataValue, 5, 4.6394999999999993E-08, -1.2E-10, -2.25, 7.7324999999999986E-07, 2E-09, 3.9672199999999969E-05
DataValue, 5, 2.45549E-07, -1.2E-10, -2.2, 4.0924833333333335E-06, 2E-09, 0.00017235583333333396
DataValue, 5, 1.08053E-06, -1.1000000000000001E-10, -2.1500000000000004, 1.8008833333333336E-05, 1.8333333333333336E-09, 0.00058899516666666629
DataValue, 5, 3.7795200000000005E-06, -1.2E-10, -2.1, 6.2992000000000009E-05, 2E-09, 0.0016445283333333318
DataValue, 5, 1.09477E-05, -1.2E-10, -2.0500000000000003, 0.00018246166666666667, 2E-09, 0.003635046666666664
DataValue, 5, 2.55898E-05, -1.1000000000000001E-10, -2, 0.0004264966666666667, 1.8333333333333336E-09, 0.00667966666666666
DataValue, 5, 5.10257E-05, -1.1000000000000001E-10, -1.9500000000000002, 0.00085042833333333334, 1.8333333333333336E-09, 0.010682850000000015
DataValue, 5, 8.96869E-05, -1.1000000000000001E-10, -1.9000000000000001, 0.0014947816666666667, 1.8333333333333336E-09, 0.015509216666666652
DataValue, 5, 0.000144081, -1.2E-10, -1.85, 0.00240135, 2E-09, 0.020198349999999983
DataValue, 5, 0.00021087700000000002, -1.2E-10, -1.8, 0.0035146166666666671, 2E-09, 0.024633500000000037
DataValue, 5, 0.00029188200000000004, -1.1000000000000001E-10, -1.7500000000000002, 0.0048647000000000004, 1.8333333333333336E-09, 0.029126500000000041
DataValue, 5, 0.000385636, -1.1000000000000001E-10, -1.7000000000000002, 0.0064272666666666672, 1.8333333333333336E-09, 0.03334816666666663
DataValue, 5, 0.000491971, -1.1000000000000001E-10, -1.6500000000000001, 0.0081995166666666668, 1.8333333333333336E-09, 0.037444833333333295
DataValue, 5, 0.000610305, -1.1000000000000001E-10, -1.6, 0.01017175, 1.8333333333333336E-09, 0.041003499999999971
DataValue, 5, 0.000737992, -1.1000000000000001E-10, -1.55, 0.012299866666666668, 1.8333333333333336E-09, 0.044148333333333407
DataValue, 5, 0.000875195, -1.1000000000000001E-10, -1.5000000000000002, 0.014586583333333335, 1.8333333333333336E-09, 0.047399666666666729
DataValue, 5, 0.00102239, -1.0000000000000002E-10, -1.4500000000000002, 0.017039833333333334, 1.6666666666666669E-09, 0.051069166666666631
DataValue, 5, 0.00118161, -1.1000000000000001E-10, -1.4000000000000001, 0.019693500000000003, 1.8333333333333336E-09, 0.053513333333333281
DataValue, 5, 0.00134347, -1.1000000000000001E-10, -1.35, 0.022391166666666667, 1.8333333333333336E-09, 0.0555316666666666
DataValue, 5, 0.0015148, -1.1000000000000001E-10, -1.3, 0.025246666666666667, 1.8333333333333336E-09, 0.058298333333333313
DataValue, 5, 0.00169326, -1.0000000000000002E-10, -1.25, 0.028221000000000003, 1.6666666666666669E-09, 0.060670000000000113
DataValue, 5, 0.00187882, -1.0000000000000002E-10, -1.2000000000000002, 0.03131366666666667, 1.6666666666666669E-09, 0.062665000000000026
DataValue, 5, 0.00206925, -1.1000000000000001E-10, -1.1500000000000001, 0.0344875, 1.8333333333333336E-09, 0.0646433333333333
DataValue, 5, 0.00226668, -1.1000000000000001E-10, -1.1, 0.037778000000000006, 1.8333333333333336E-09, 0.06674166666666663
DataValue, 5, 0.0024697, -1.1000000000000001E-10, -1.05, 0.041161666666666666, 1.8333333333333336E-09, 0.068616666666666562
DataValue, 5, 0.00267838, -1.1000000000000001E-10, -1, 0.044639666666666668, 1.8333333333333336E-09, 0.07053833333333337
DataValue, 5, 0.00289293, -1.0000000000000002E-10, -0.95000000000000007, 0.0482155, 1.6666666666666669E-09, 0.072250000000000036
DataValue, 5, 0.00311188, -1.0000000000000002E-10, -0.9, 0.05186466666666667, 1.6666666666666669E-09, 0.073475000000000082
DataValue, 5, 0.00333378, -1.0000000000000002E-10, -0.85000000000000009, 0.055563000000000008, 1.6666666666666669E-09, 0.075065
DataValue, 5, 0.00356227, -1.0000000000000002E-10, -0.8, 0.059371166666666669, 1.6666666666666669E-09, 0.076796666666666624
DataValue, 5, 0.00379456, -1.0000000000000002E-10, -0.75000000000000011, 0.063242666666666669, 1.6666666666666669E-09, 0.078093333333333362
DataValue, 5, 0.00403083, -1.0000000000000002E-10, -0.70000000000000007, 0.0671805, 1.6666666666666669E-09, 0.079538333333333336
DataValue, 5, 0.00427179, -9.0000000000000012E-11, -0.65, 0.07119650000000001, 1.5000000000000002E-09, 0.080543333333333314
DataValue, 5, 0.00451409, -1.0000000000000002E-10, -0.60000000000000009, 0.075234833333333334, 1.6666666666666669E-09, 0.081486666666666666
DataValue, 5, 0.0047607100000000005, -9.0000000000000012E-11, -0.55, 0.079345166666666675, 1.5000000000000002E-09, 0.083034999999999984
DataValue, 5, 0.0050123, -9.0000000000000012E-11, -0.5, 0.083538333333333339, 1.5000000000000002E-09, 0.08413000000000001
DataValue, 5, 0.00526549, -9.0000000000000012E-11, -0.45, 0.087758166666666679, 1.5000000000000002E-09, 0.08483166666666668
DataValue, 5, 0.00552129, -9.0000000000000012E-11, -0.4, 0.0920215, 1.5000000000000002E-09, 0.085903333333333262
DataValue, 5, 0.00578091, -9.0000000000000012E-11, -0.35000000000000003, 0.0963485, 1.5000000000000002E-09, 0.087121666666666611
DataValue, 5, 0.00604402, -9.0000000000000012E-11, -0.30000000000000004, 0.10073366666666667, 1.5000000000000002E-09, 0.088094999999999951
DataValue, 5, 0.00630948, -8.0000000000000008E-11, -0.25, 0.105158, 1.3333333333333335E-09, 0.088836666666666758
DataValue, 5, 0.00657704, -8.0000000000000008E-11, -0.2, 0.10961733333333334, 1.3333333333333335E-09, 0.08977833333333339
DataValue, 5, 0.00684815, -9.0000000000000012E-11, -0.15000000000000002, 0.11413583333333334, 1.5000000000000002E-09, 0.09076333333333339
DataValue, 5, 0.00712162, -9.0000000000000012E-11, -0.1, 0.11869366666666668, 1.5000000000000002E-09, 0.091476666666666637
DataValue, 5, 0.00739701, -8.0000000000000008E-11, -0.05, 0.1232835, 1.3333333333333335E-09, 0.092353333333333315
DataValue, 5, 0.00767574, -8.0000000000000008E-11, 0, 0.12792900000000002, 1.3333333333333335E-09, 0.093188333333333456
DataValue, 5, 0.00795614, -8.0000000000000008E-11, 0.05, 0.13260233333333335, 1.3333333333333335E-09, 0.093721666666666537
DataValue, 5, 0.00823807, -8.0000000000000008E-11, 0.1, 0.13730116666666667, 1.3333333333333335E-09, 0.094828333333333278
DataValue, 5, 0.00852511, -8.0000000000000008E-11, 0.15000000000000002, 0.14208516666666668, 1.3333333333333335E-09, 0.095458333333333367
DataValue, 5, 0.00881082, -8.0000000000000008E-11, 0.2, 0.146847, 1.3333333333333335E-09, 0.0958366666666666
