
SetupTitle, HEMT_transfer
PrimitiveTest, I/V Sweep
TestParameter, Context.MainFrame, B1500A
TestParameter, Channel.UnitType, SMU, SMU, SMU
TestParameter, Channel.Unit, SMU1:MP, SMU2:MC, GNDU:GND
TestParameter, Channel.IName, Id, Ig, Is
TestParameter, Channel.VName, Vd, Vg, Vs
TestParameter, Channel.Mode, V, V, COMMON
TestParameter, Channel.Func, CONST, VAR1, CONST
TestParameter, Channel.Index, 
TestParameter, Channel.Time, 
TestParameter, Measurement.Port.Unit, SMU1:MP, SMU2:MC, GNDU:GND
TestParameter, Measurement.Port.SeriesResistor, NONE, NONE, NONE
TestParameter, Measurement.Port.Filter, ON, ON, ON
TestParameter, Measurement.Port.OutputVoltageComparison, 0, 0, 0
TestParameter, Measurement.Primary.Locus, Single
TestParameter, Measurement.Primary.Scale, LINEAR
TestParameter, Measurement.Primary.Start, -5
TestParameter, Measurement.Primary.Stop, 5
TestParameter, Measurement.Primary.Step, 0.05
TestParameter, Measurement.Primary.Compliance, 0.001
TestParameter, Measurement.Primary.PowerCompliance, 0
TestParameter, Measurement.Aborting.Condition, CONTINUE AT ANY
TestParameter, Measurement.PostOutput.Value, START
TestParameter, Measurement.PostOutput.Retention, OFF
TestParameter, Measurement.Bias.Source, 5, -5, 0
TestParameter, Measurement.Bias.Compliance, 0.1, 0.001, 2
TestParameter, Measurement.Monitor.Unit, SMU1:MP, SMU2:MC, GNDU:GND
TestParameter, Measurement.Monitor.Adc, HR ADC, HS ADC, HR ADC
TestParameter, Measurement.Monitor.Measurement, Compliance Side, Force and Compliance Sides, Compliance Side
TestParameter, Measurement.Monitor.RangingMode, LIMITED, LIMITED, LIMITED
TestParameter, Measurement.Monitor.RangeBoundary, 1nA, 10uA, 1nA
TestParameter, Measurement.Monitor.RangeRating, BY FULL RANGE, BY FULL RANGE, BY FULL RANGE
TestParameter, Measurement.Monitor.RangeRatingCoeff, 50, 50, 50
TestParameter, Measurement.Timing.Hold, 0
TestParameter, Measurement.Timing.Delay, 0
TestParameter, Measurement.Adc.HighSpeed.Mode, PLC
TestParameter, Measurement.Adc.HighSpeed.Coeff, 2
TestParameter, Measurement.Adc.HighResolution.AutoZero, OFF
TestParameter, Measurement.Adc.HighResolution.Mode, PLC
TestParameter, Measurement.Adc.HighResolution.Coeff, 2
TestParameter, Measurement.WaitTime.Source.Coeff, 1
TestParameter, Measurement.WaitTime.Source.Offset, 0
TestParameter, Measurement.WaitTime.Monitor.Coeff, 1
TestParameter, Measurement.WaitTime.Monitor.Offset, 0
TestParameter, Function.User.Name, Id_dens, Ig_dens, gm
TestParameter, Function.User.Unit, A/mm, A/mm, S/mm
TestParameter, Function.User.Definition, Id/0.06, abs(Ig)/0.06, diff(Id_dens,Vg)
TestParameter, Output.Graph.Enabled, true
TestParameter, Output.Graph.AutoScaling, false
TestParameter, Output.Graph.XAxis.Data, Vg
TestParameter, Output.Graph.XAxis.Scale, Linear
TestParameter, Output.Graph.XAxis.Left, -2
TestParameter, Output.Graph.XAxis.Right, 10
TestParameter, Output.Graph.XAxis.RunTimeAutoScale, false
TestParameter, Output.Graph.YAxis.Data, Id_dens, Id_dens, gm, Ig_dens
TestParameter, Output.Graph.YAxis.Scale, Log, Linear, Linear, Log
TestParameter, Output.Graph.YAxis.Bottom, 0, 0, 0, 0
TestParameter, Output.Graph.YAxis.Top, 1, 1, 1, 1
TestParameter, Output.Graph.YAxis.Group, , , , 
TestParameter, Output.Graph.YAxis.RunTimeAutoScale, false, false, false, false
TestParameter, Output.List.Data, Vg, Id_dens, Ig_dens, Vd, gm
TestParameter, AutoAnalysis.Interpolation, false
TestParameter, AutoAnalysis.Line1.Enabled, false
TestParameter, AutoAnalysis.Line1.Type, 1
TestParameter, AutoAnalysis.Line1.Fix, True
TestParameter, AutoAnalysis.Line1.YAxis, 0
TestParameter, AutoAnalysis.Line1.Point1.Type, 0
TestParameter, AutoAnalysis.Line1.Point1.XY.X, 
TestParameter, AutoAnalysis.Line1.Point1.XY.Y, 
TestParameter, AutoAnalysis.Line1.Point1.Data.Var, 
TestParameter, AutoAnalysis.Line1.Point1.Data.Condition, 
TestParameter, AutoAnalysis.Line1.Point1.Data.Start, false
TestParameter, AutoAnalysis.Line1.Point1.Data.StartVar, 
TestParameter, AutoAnalysis.Line1.Point1.Data.StartCondition, 
TestParameter, AutoAnalysis.Line1.Point2.Type, 0
TestParameter, AutoAnalysis.Line1.Point2.XY.X, 
TestParameter, AutoAnalysis.Line1.Point2.XY.Y, 
TestParameter, AutoAnalysis.Line1.Point2.Data.Var, 
TestParameter, AutoAnalysis.Line1.Point2.Data.Condition, 
TestParameter, AutoAnalysis.Line1.Point2.Data.Start, false
TestParameter, AutoAnalysis.Line1.Point2.Data.StartVar, 
TestParameter, AutoAnalysis.Line1.Point2.Data.StartCondition, 
TestParameter, AutoAnalysis.Line1.GradientExpr, 0
TestParameter, AutoAnalysis.Line2.Enabled, false
TestParameter, AutoAnalysis.Line2.Type, 1
TestParameter, AutoAnalysis.Line2.Fix, True
TestParameter, AutoAnalysis.Line2.YAxis, 0
TestParameter, AutoAnalysis.Line2.Point1.Type, 0
TestParameter, AutoAnalysis.Line2.Point1.XY.X, 
TestParameter, AutoAnalysis.Line2.Point1.XY.Y, 
TestParameter, AutoAnalysis.Line2.Point1.Data.Var, 
TestParameter, AutoAnalysis.Line2.Point1.Data.Condition, 
TestParameter, AutoAnalysis.Line2.Point1.Data.Start, false
TestParameter, AutoAnalysis.Line2.Point1.Data.StartVar, 
TestParameter, AutoAnalysis.Line2.Point1.Data.StartCondition, 
TestParameter, AutoAnalysis.Line2.Point2.Type, 0
TestParameter, AutoAnalysis.Line2.Point2.XY.X, 
TestParameter, AutoAnalysis.Line2.Point2.XY.Y, 
TestParameter, AutoAnalysis.Line2.Point2.Data.Var, 
TestParameter, AutoAnalysis.Line2.Point2.Data.Condition, 
TestParameter, AutoAnalysis.Line2.Point2.Data.Start, false
TestParameter, AutoAnalysis.Line2.Point2.Data.StartVar, 
TestParameter, AutoAnalysis.Line2.Point2.Data.StartCondition, 
TestParameter, AutoAnalysis.Line2.GradientExpr, 0
TestParameter, AutoAnalysis.Marker.Enabled, false
TestParameter, AutoAnalysis.Marker.Data.Var, 
TestParameter, AutoAnalysis.Marker.Data.Condition, 
TestParameter, AutoAnalysis.Marker.Data.Start, false
TestParameter, AutoAnalysis.Marker.Data.StartVar, 
TestParameter, AutoAnalysis.Marker.Data.StartCondition, 
MetaData, TestRecord.EntryPoint, true
MetaData, TestRecord.RecordTime, 08/16/2019 12:30:30
MetaData, TestRecord.TestTarget, 
MetaData, TestRecord.IterationIndex, 1
MetaData, TestRecord.Preservation, true
MetaData, TestRecord.Flag, #
MetaData, TestRecord.Remarks, #089_LPCVD_trigate_die3_r1c3_SFP_W150
MetaData, TestRecord.LinkKey, 5c728f2d-e070-413a-89ac-3ebe5cf90057
Dimension1, 201, 201, 201, 201, 201, 201, 201
Dimension2, 1, 1, 1, 1, 1, 1, 1
DataName, Vd, Id, Ig, Vg, Id_dens, Ig_dens, gm
DataValue, 5, 6.3980000000000008E-12, -2.2000000000000002E-10, -5, 1.0663333333333336E-10, 3.6666666666666672E-09, -4.0766666666666857E-10
DataValue, 5, 5.175E-12, -1.8000000000000003E-10, -4.95, 8.625E-11, 3.0000000000000004E-09, -3.0783333333333465E-10
DataValue, 5, 4.551E-12, -1.7E-10, -4.9, 7.585E-11, 2.8333333333333335E-09, -2.3333333333333413E-10
DataValue, 5, 3.775E-12, -1.7E-10, -4.8500000000000005, 6.2916666666666669E-11, 2.8333333333333335E-09, -1.4016666666666711E-10
DataValue, 5, 3.71E-12, -1.7E-10, -4.8000000000000007, 6.183333333333334E-11, 2.8333333333333335E-09, -6.1499999999999671E-11
DataValue, 5, 3.4060000000000002E-12, -1.8000000000000003E-10, -4.75, 5.676666666666667E-11, 3.0000000000000004E-09, -1.0483333333333275E-10
DataValue, 5, 3.0810000000000003E-12, -1.7E-10, -4.7, 5.1350000000000009E-11, 2.8333333333333335E-09, -7.55000000000003E-11
DataValue, 5, 2.953E-12, -1.7E-10, -4.65, 4.9216666666666667E-11, 2.8333333333333335E-09, -6.0166666666666924E-11
DataValue, 5, 2.72E-12, -1.7E-10, -4.6000000000000005, 4.5333333333333338E-11, 2.8333333333333335E-09, -4.5166666666666789E-11
DataValue, 5, 2.682E-12, -1.7E-10, -4.5500000000000007, 4.4700000000000005E-11, 2.8333333333333335E-09, -1.4833333333333217E-11
DataValue, 5, 2.6310000000000004E-12, -1.7E-10, -4.5, 4.3850000000000009E-11, 2.8333333333333335E-09, -7.7499999999999577E-11
DataValue, 5, 2.2170000000000003E-12, -1.6000000000000002E-10, -4.45, 3.6950000000000006E-11, 2.666666666666667E-09, -1.1166666666666707E-11
DataValue, 5, 2.5640000000000004E-12, -1.6000000000000002E-10, -4.4, 4.2733333333333342E-11, 2.666666666666667E-09, 1.3000000000000028E-11
DataValue, 5, 2.2950000000000002E-12, -1.6000000000000002E-10, -4.3500000000000005, 3.8250000000000004E-11, 2.666666666666667E-09, -6.3333333333333657E-11
DataValue, 5, 2.184E-12, -1.6000000000000002E-10, -4.3000000000000007, 3.64E-11, 2.666666666666667E-09, -2.3999999999999865E-11
DataValue, 5, 2.151E-12, -1.6000000000000002E-10, -4.25, 3.5850000000000004E-11, 2.666666666666667E-09, -3.0999999999999777E-11
DataValue, 5, 1.998E-12, -1.6000000000000002E-10, -4.2, 3.3300000000000004E-11, 2.666666666666667E-09, -1.0000000000000001E-11
DataValue, 5, 2.0910000000000003E-12, -1.4E-10, -4.15, 3.4850000000000008E-11, 2.3333333333333335E-09, -1.9999999999999745E-12
DataValue, 5, 1.9860000000000002E-12, -1.5000000000000003E-10, -4.1000000000000005, 3.3100000000000007E-11, 2.5000000000000005E-09, -2.4833333333333477E-11
DataValue, 5, 1.942E-12, -1.6000000000000002E-10, -4.0500000000000007, 3.2366666666666669E-11, 2.666666666666667E-09, 8.8333333333332172E-12
DataValue, 5, 2.039E-12, -1.5000000000000003E-10, -4, 3.3983333333333334E-11, 2.5000000000000005E-09, 4.2666666666666474E-11
DataValue, 5, 2.198E-12, -1.5000000000000003E-10, -3.95, 3.6633333333333339E-11, 2.5000000000000005E-09, -7.9999999999999627E-12
DataValue, 5, 1.9910000000000003E-12, -1.4E-10, -3.9000000000000004, 3.318333333333334E-11, 2.3333333333333335E-09, -4.8833333333333559E-11
DataValue, 5, 1.905E-12, -1.5000000000000003E-10, -3.8500000000000005, 3.175E-11, 2.5000000000000005E-09, -1.7333333333333335E-11
DataValue, 5, 1.8870000000000003E-12, -1.4E-10, -3.8000000000000003, 3.1450000000000005E-11, 2.3333333333333335E-09, -6.6666666666661206E-13
DataValue, 5, 1.901E-12, -1.4E-10, -3.7500000000000004, 3.1683333333333339E-11, 2.3333333333333335E-09, -3.2166666666666685E-11
DataValue, 5, 1.694E-12, -1.5000000000000003E-10, -3.7, 2.8233333333333334E-11, 2.5000000000000005E-09, -2.1333333333333331E-11
DataValue, 5, 1.7730000000000002E-12, -1.4E-10, -3.6500000000000004, 2.9550000000000004E-11, 2.3333333333333335E-09, 3.3333333333333834E-13
DataValue, 5, 1.696E-12, -1.4E-10, -3.6, 2.8266666666666668E-11, 2.3333333333333335E-09, 2.3666666666666666E-11
DataValue, 5, 1.9150000000000002E-12, -1.3000000000000002E-10, -3.5500000000000003, 3.1916666666666673E-11, 2.166666666666667E-09, 1.0833333333333367E-11
DataValue, 5, 1.761E-12, -1.4E-10, -3.5000000000000004, 2.935E-11, 2.3333333333333335E-09, -5.2166666666666661E-11
DataValue, 5, 1.602E-12, -1.3000000000000002E-10, -3.45, 2.6700000000000002E-11, 2.166666666666667E-09, 8.16666666666671E-12
DataValue, 5, 1.8100000000000002E-12, -1.3000000000000002E-10, -3.4000000000000004, 3.0166666666666672E-11, 2.166666666666667E-09, 5.6666666666666552E-12
DataValue, 5, 1.636E-12, -1.4E-10, -3.35, 2.7266666666666668E-11, 2.3333333333333335E-09, -2.0166666666666662E-11
DataValue, 5, 1.6890000000000002E-12, -1.3000000000000002E-10, -3.3000000000000003, 2.8150000000000004E-11, 2.166666666666667E-09, 1.4833333333333411E-11
DataValue, 5, 1.7250000000000002E-12, -1.3000000000000002E-10, -3.2500000000000004, 2.8750000000000004E-11, 2.166666666666667E-09, -3.2333333333333306E-11
DataValue, 5, 1.4950000000000002E-12, -1.4E-10, -3.2, 2.4916666666666671E-11, 2.3333333333333335E-09, -1.6000000000000016E-11
DataValue, 5, 1.629E-12, -1.3000000000000002E-10, -3.1500000000000004, 2.715E-11, 2.166666666666667E-09, 7.9999999999999918E-12
DataValue, 5, 1.5430000000000002E-12, -1.4E-10, -3.1, 2.5716666666666671E-11, 2.3333333333333335E-09, -1.4499999999999976E-11
DataValue, 5, 1.542E-12, -1.3000000000000002E-10, -3.0500000000000003, 2.5700000000000002E-11, 2.166666666666667E-09, 1.3000000000000028E-11
DataValue, 5, 1.621E-12, -1.4E-10, -3.0000000000000004, 2.7016666666666669E-11, 2.3333333333333335E-09, -8.1666666666666449E-12
DataValue, 5, 1.4930000000000002E-12, -1.4E-10, -2.95, 2.4883333333333337E-11, 2.3333333333333335E-09, -1.9666666666666641E-11
DataValue, 5, 1.5030000000000002E-12, -1.3000000000000002E-10, -2.9000000000000004, 2.5050000000000003E-11, 2.166666666666667E-09, 3.1666666666666335E-12
DataValue, 5, 1.512E-12, -1.3000000000000002E-10, -2.85, 2.52E-11, 2.166666666666667E-09, -5.6666666666666552E-12
DataValue, 5, 1.4690000000000001E-12, -1.3000000000000002E-10, -2.8000000000000003, 2.4483333333333337E-11, 2.166666666666667E-09, -1.3333333333333367E-11
DataValue, 5, 1.4320000000000002E-12, -1.2E-10, -2.7500000000000004, 2.3866666666666669E-11, 2E-09, 1.0166666666666641E-11
DataValue, 5, 1.5300000000000001E-12, -1.2E-10, -2.7, 2.5500000000000002E-11, 2E-09, 1.9166666666666681E-11
DataValue, 5, 1.5470000000000002E-12, -1.2E-10, -2.6500000000000004, 2.5783333333333339E-11, 2E-09, -3.9833333333333306E-11
DataValue, 5, 1.291E-12, -1.3000000000000002E-10, -2.6, 2.1516666666666669E-11, 2.166666666666667E-09, -1.750000000000002E-11
DataValue, 5, 1.4420000000000001E-12, -1.3000000000000002E-10, -2.5500000000000003, 2.4033333333333335E-11, 2.166666666666667E-09, 2.6333333333333343E-11
DataValue, 5, 1.4490000000000002E-12, -1.2E-10, -2.5, 2.4150000000000005E-11, 2E-09, -2.2999999999999959E-11
DataValue, 5, 1.304E-12, -1.3000000000000002E-10, -2.45, 2.1733333333333337E-11, 2.166666666666667E-09, 2.4333333333333421E-11
DataValue, 5, 1.5950000000000002E-12, -1.3000000000000002E-10, -2.4000000000000004, 2.6583333333333338E-11, 2.166666666666667E-09, 6.2499999999999952E-11
DataValue, 5, 1.6790000000000002E-12, -1.2E-10, -2.35, 2.7983333333333338E-11, 2E-09, -1.5E-11
DataValue, 5, 1.5050000000000002E-12, -1.2E-10, -2.3000000000000003, 2.5083333333333337E-11, 2E-09, -2.6666666666666681E-11
DataValue, 5, 1.519E-12, -1.2E-10, -2.25, 2.5316666666666668E-11, 2E-09, 3.5499999999999968E-11
DataValue, 5, 1.7180000000000002E-12, -1.2E-10, -2.2, 2.8633333333333337E-11, 2E-09, 6.8333333333333857E-12
DataValue, 5, 1.5600000000000002E-12, -1.2E-10, -2.1500000000000004, 2.6000000000000004E-11, 2E-09, -2.2499999999999968E-11
DataValue, 5, 1.5830000000000002E-12, -1.2E-10, -2.1, 2.6383333333333339E-11, 2E-09, 1.3683333333333322E-10
DataValue, 5, 2.381E-12, -1.1000000000000001E-10, -2.0500000000000003, 3.9683333333333337E-11, 1.8333333333333336E-09, 7.9033333333333267E-10
DataValue, 5, 6.3250000000000006E-12, -1.2E-10, -2, 1.0541666666666668E-10, 2E-09, 5.2281666666666619E-09
DataValue, 5, 3.375E-11, -1.1000000000000001E-10, -1.9500000000000002, 5.625E-10, 1.8333333333333336E-09, 3.4542166666666717E-08
DataValue, 5, 2.13578E-10, -1.2E-10, -1.9000000000000001, 3.5596333333333337E-09, 2E-09, 2.2469666666666649E-07
DataValue, 5, 1.38193E-09, -1.2E-10, -1.85, 2.3032166666666669E-08, 2E-09, 1.4956736666666654E-06
DataValue, 5, 9.18762E-09, -1.1000000000000001E-10, -1.8, 1.5312700000000002E-07, 1.8333333333333336E-09, 9.1147616666666776E-06
DataValue, 5, 5.6070499999999992E-08, -1.2E-10, -1.7500000000000002, 9.3450833333333326E-07, 2E-09, 4.5102896666666728E-05
DataValue, 5, 2.79805E-07, -1.2E-10, -1.7000000000000002, 4.6634166666666668E-06, 2E-09, 0.00019423158333333314
DataValue, 5, 1.22146E-06, -1.2E-10, -1.6500000000000001, 2.0357666666666667E-05, 2E-09, 0.00068886416666666611
DataValue, 5, 4.41299E-06, -1.1000000000000001E-10, -1.6, 7.3549833333333339E-05, 1.8333333333333336E-09, 0.0019479899999999984
DataValue, 5, 1.29094E-05, -1.1000000000000001E-10, -1.55, 0.00021515666666666668, 1.8333333333333336E-09, 0.0043108016666666728
DataValue, 5, 3.02778E-05, -1.2E-10, -1.5000000000000002, 0.00050463, 2E-09, 0.0079708333333333437
DataValue, 5, 6.07344E-05, -1.1000000000000001E-10, -1.4500000000000002, 0.00101224, 1.8333333333333336E-09, 0.012785616666666656
DataValue, 5, 0.0001069915, -1.1000000000000001E-10, -1.4000000000000001, 0.0017831916666666667, 1.8333333333333336E-09, 0.018404099999999989
DataValue, 5, 0.00017115900000000002, -1.1000000000000001E-10, -1.35, 0.0028526500000000004, 1.8333333333333336E-09, 0.023591583333333315
DataValue, 5, 0.000248541, -1.0000000000000002E-10, -1.3, 0.00414235, 1.6666666666666669E-09, 0.028311499999999972
DataValue, 5, 0.000341028, -1.0000000000000002E-10, -1.25, 0.0056838, 1.6666666666666669E-09, 0.033326000000000043
DataValue, 5, 0.000448497, -1.0000000000000002E-10, -1.2000000000000002, 0.00747495, 1.6666666666666669E-09, 0.037835000000000049
DataValue, 5, 0.000568038, -1.0000000000000002E-10, -1.1500000000000001, 0.0094673, 1.6666666666666669E-09, 0.0418083333333333
DataValue, 5, 0.000699347, -1.0000000000000002E-10, -1.1, 0.011655783333333334, 1.6666666666666669E-09, 0.045812666666666647
DataValue, 5, 0.00084291400000000005, -1.0000000000000002E-10, -1.05, 0.014048566666666668, 1.6666666666666669E-09, 0.049414166666666641
DataValue, 5, 0.000995832, -1.0000000000000002E-10, -1, 0.016597200000000003, 1.6666666666666669E-09, 0.053146000000000006
DataValue, 5, 0.00116179, -1.0000000000000002E-10, -0.95000000000000007, 0.019363166666666667, 1.6666666666666669E-09, 0.055646333333333339
DataValue, 5, 0.00132971, -1.0000000000000002E-10, -0.9, 0.022161833333333335, 1.6666666666666669E-09, 0.057440000000000005
DataValue, 5, 0.00150643, -1.0000000000000002E-10, -0.85000000000000009, 0.025107166666666667, 1.6666666666666669E-09, 0.060273333333333338
DataValue, 5, 0.00169135, -1.0000000000000002E-10, -0.8, 0.028189166666666668, 1.6666666666666669E-09, 0.06272833333333333
DataValue, 5, 0.0018828, -1.0000000000000002E-10, -0.75000000000000011, 0.03138, 1.6666666666666669E-09, 0.064680000000000029
DataValue, 5, 0.00207943, -1.0000000000000002E-10, -0.70000000000000007, 0.034657166666666669, 1.6666666666666669E-09, 0.066828333333333337
DataValue, 5, 0.00228377, -1.0000000000000002E-10, -0.65, 0.038062833333333337, 1.6666666666666669E-09, 0.0690133333333333
DataValue, 5, 0.00249351, -9.0000000000000012E-11, -0.60000000000000009, 0.0415585, 1.5000000000000002E-09, 0.07048
DataValue, 5, 0.00270665, -1.0000000000000002E-10, -0.55, 0.045110833333333336, 1.6666666666666669E-09, 0.071969999999999951
DataValue, 5, 0.00292533, -9.0000000000000012E-11, -0.5, 0.0487555, 1.5000000000000002E-09, 0.073458333333333264
DataValue, 5, 0.0031474, -1.0000000000000002E-10, -0.45, 0.052456666666666665, 1.6666666666666669E-09, 0.074941666666666712
DataValue, 5, 0.00337498, -9.0000000000000012E-11, -0.4, 0.05624966666666667, 1.5000000000000002E-09, 0.076365000000000058
DataValue, 5, 0.00360559, -9.0000000000000012E-11, -0.35000000000000003, 0.06009316666666667, 1.5000000000000002E-09, 0.077566666666666631
DataValue, 5, 0.00384038, -9.0000000000000012E-11, -0.30000000000000004, 0.064006333333333332, 1.5000000000000002E-09, 0.078776666666666689
DataValue, 5, 0.00407825, -9.0000000000000012E-11, -0.25, 0.067970833333333341, 1.5000000000000002E-09, 0.079998333333333421
DataValue, 5, 0.0043203700000000005, -1.0000000000000002E-10, -0.2, 0.072006166666666677, 1.6666666666666669E-09, 0.081024999999999861
DataValue, 5, 0.0045644, -9.0000000000000012E-11, -0.15000000000000002, 0.076073333333333326, 1.5000000000000002E-09, 0.0823199999999999
DataValue, 5, 0.00481429, -1.0000000000000002E-10, -0.1, 0.080238166666666666, 1.6666666666666669E-09, 0.083651666666666721
DataValue, 5, 0.00506631, -1.0000000000000002E-10, -0.05, 0.0844385, 1.6666666666666669E-09, 0.084208333333333357
DataValue, 5, 0.00531954, -9.0000000000000012E-11, 0, 0.088659, 1.5000000000000002E-09, 0.085203333333333381
DataValue, 5, 0.00557753, -1.0000000000000002E-10, 0.05, 0.092958833333333338, 1.6666666666666669E-09, 0.086839999999999973
DataValue, 5, 0.00584058, -9.0000000000000012E-11, 0.1, 0.097343, 1.5000000000000002E-09, 0.087765000000000051
DataValue, 5, 0.00610412, -9.0000000000000012E-11, 0.15000000000000002, 0.10173533333333334, 1.5000000000000002E-09, 0.088405000000000011
DataValue, 5, 0.00637101, -8.0000000000000008E-11, 0.2, 0.1061835, 1.3333333333333335E-09, 0.089473333333333363
DataValue, 5, 0.0066409600000000004, -9.0000000000000012E-11, 0.25, 0.11068266666666668, 1.5000000000000002E-09, 0.090298333333333314
