
SetupTitle, HEMT_transfer
PrimitiveTest, I/V Sweep
TestParameter, Context.MainFrame, B1500A
TestParameter, Channel.UnitType, SMU, SMU, SMU
TestParameter, Channel.Unit, SMU1:MP, SMU2:MC, GNDU:GND
TestParameter, Channel.IName, Id, Ig, Is
TestParameter, Channel.VName, Vd, Vg, Vs
TestParameter, Channel.Mode, V, V, COMMON
TestParameter, Channel.Func, CONST, VAR1, CONST
TestParameter, Channel.Index, 
TestParameter, Channel.Time, 
TestParameter, Measurement.Port.Unit, SMU1:MP, SMU2:MC, GNDU:GND
TestParameter, Measurement.Port.SeriesResistor, NONE, NONE, NONE
TestParameter, Measurement.Port.Filter, ON, ON, ON
TestParameter, Measurement.Port.OutputVoltageComparison, 0, 0, 0
TestParameter, Measurement.Primary.Locus, Single
TestParameter, Measurement.Primary.Scale, LINEAR
TestParameter, Measurement.Primary.Start, -5
TestParameter, Measurement.Primary.Stop, 5
TestParameter, Measurement.Primary.Step, 0.05
TestParameter, Measurement.Primary.Compliance, 0.001
TestParameter, Measurement.Primary.PowerCompliance, 0
TestParameter, Measurement.Aborting.Condition, CONTINUE AT ANY
TestParameter, Measurement.PostOutput.Value, START
TestParameter, Measurement.PostOutput.Retention, OFF
TestParameter, Measurement.Bias.Source, 5, -5, 0
TestParameter, Measurement.Bias.Compliance, 0.1, 0.001, 2
TestParameter, Measurement.Monitor.Unit, SMU1:MP, SMU2:MC, GNDU:GND
TestParameter, Measurement.Monitor.Adc, HR ADC, HS ADC, HR ADC
TestParameter, Measurement.Monitor.Measurement, Compliance Side, Force and Compliance Sides, Compliance Side
TestParameter, Measurement.Monitor.RangingMode, LIMITED, LIMITED, LIMITED
TestParameter, Measurement.Monitor.RangeBoundary, 1nA, 10uA, 1nA
TestParameter, Measurement.Monitor.RangeRating, BY FULL RANGE, BY FULL RANGE, BY FULL RANGE
TestParameter, Measurement.Monitor.RangeRatingCoeff, 50, 50, 50
TestParameter, Measurement.Timing.Hold, 0
TestParameter, Measurement.Timing.Delay, 0
TestParameter, Measurement.Adc.HighSpeed.Mode, PLC
TestParameter, Measurement.Adc.HighSpeed.Coeff, 2
TestParameter, Measurement.Adc.HighResolution.AutoZero, OFF
TestParameter, Measurement.Adc.HighResolution.Mode, PLC
TestParameter, Measurement.Adc.HighResolution.Coeff, 2
TestParameter, Measurement.WaitTime.Source.Coeff, 1
TestParameter, Measurement.WaitTime.Source.Offset, 0
TestParameter, Measurement.WaitTime.Monitor.Coeff, 1
TestParameter, Measurement.WaitTime.Monitor.Offset, 0
TestParameter, Function.User.Name, Id_dens, Ig_dens, gm
TestParameter, Function.User.Unit, A/mm, A/mm, S/mm
TestParameter, Function.User.Definition, Id/0.06, abs(Ig)/0.06, diff(Id_dens,Vg)
TestParameter, Output.Graph.Enabled, true
TestParameter, Output.Graph.AutoScaling, false
TestParameter, Output.Graph.XAxis.Data, Vg
TestParameter, Output.Graph.XAxis.Scale, Linear
TestParameter, Output.Graph.XAxis.Left, -2
TestParameter, Output.Graph.XAxis.Right, 10
TestParameter, Output.Graph.XAxis.RunTimeAutoScale, false
TestParameter, Output.Graph.YAxis.Data, Id_dens, Id_dens, gm, Ig_dens
TestParameter, Output.Graph.YAxis.Scale, Log, Linear, Linear, Log
TestParameter, Output.Graph.YAxis.Bottom, 0, 0, 0, 0
TestParameter, Output.Graph.YAxis.Top, 1, 1, 1, 1
TestParameter, Output.Graph.YAxis.Group, , , , 
TestParameter, Output.Graph.YAxis.RunTimeAutoScale, false, false, false, false
TestParameter, Output.List.Data, Vg, Id_dens, Ig_dens, Vd, gm
TestParameter, AutoAnalysis.Interpolation, false
TestParameter, AutoAnalysis.Line1.Enabled, false
TestParameter, AutoAnalysis.Line1.Type, 1
TestParameter, AutoAnalysis.Line1.Fix, True
TestParameter, AutoAnalysis.Line1.YAxis, 0
TestParameter, AutoAnalysis.Line1.Point1.Type, 0
TestParameter, AutoAnalysis.Line1.Point1.XY.X, 
TestParameter, AutoAnalysis.Line1.Point1.XY.Y, 
TestParameter, AutoAnalysis.Line1.Point1.Data.Var, 
TestParameter, AutoAnalysis.Line1.Point1.Data.Condition, 
TestParameter, AutoAnalysis.Line1.Point1.Data.Start, false
TestParameter, AutoAnalysis.Line1.Point1.Data.StartVar, 
TestParameter, AutoAnalysis.Line1.Point1.Data.StartCondition, 
TestParameter, AutoAnalysis.Line1.Point2.Type, 0
TestParameter, AutoAnalysis.Line1.Point2.XY.X, 
TestParameter, AutoAnalysis.Line1.Point2.XY.Y, 
TestParameter, AutoAnalysis.Line1.Point2.Data.Var, 
TestParameter, AutoAnalysis.Line1.Point2.Data.Condition, 
TestParameter, AutoAnalysis.Line1.Point2.Data.Start, false
TestParameter, AutoAnalysis.Line1.Point2.Data.StartVar, 
TestParameter, AutoAnalysis.Line1.Point2.Data.StartCondition, 
TestParameter, AutoAnalysis.Line1.GradientExpr, 0
TestParameter, AutoAnalysis.Line2.Enabled, false
TestParameter, AutoAnalysis.Line2.Type, 1
TestParameter, AutoAnalysis.Line2.Fix, True
TestParameter, AutoAnalysis.Line2.YAxis, 0
TestParameter, AutoAnalysis.Line2.Point1.Type, 0
TestParameter, AutoAnalysis.Line2.Point1.XY.X, 
TestParameter, AutoAnalysis.Line2.Point1.XY.Y, 
TestParameter, AutoAnalysis.Line2.Point1.Data.Var, 
TestParameter, AutoAnalysis.Line2.Point1.Data.Condition, 
TestParameter, AutoAnalysis.Line2.Point1.Data.Start, false
TestParameter, AutoAnalysis.Line2.Point1.Data.StartVar, 
TestParameter, AutoAnalysis.Line2.Point1.Data.StartCondition, 
TestParameter, AutoAnalysis.Line2.Point2.Type, 0
TestParameter, AutoAnalysis.Line2.Point2.XY.X, 
TestParameter, AutoAnalysis.Line2.Point2.XY.Y, 
TestParameter, AutoAnalysis.Line2.Point2.Data.Var, 
TestParameter, AutoAnalysis.Line2.Point2.Data.Condition, 
TestParameter, AutoAnalysis.Line2.Point2.Data.Start, false
TestParameter, AutoAnalysis.Line2.Point2.Data.StartVar, 
TestParameter, AutoAnalysis.Line2.Point2.Data.StartCondition, 
TestParameter, AutoAnalysis.Line2.GradientExpr, 0
TestParameter, AutoAnalysis.Marker.Enabled, false
TestParameter, AutoAnalysis.Marker.Data.Var, 
TestParameter, AutoAnalysis.Marker.Data.Condition, 
TestParameter, AutoAnalysis.Marker.Data.Start, false
TestParameter, AutoAnalysis.Marker.Data.StartVar, 
TestParameter, AutoAnalysis.Marker.Data.StartCondition, 
MetaData, TestRecord.EntryPoint, true
MetaData, TestRecord.RecordTime, 08/16/2019 16:06:45
MetaData, TestRecord.TestTarget, 
MetaData, TestRecord.IterationIndex, 1
MetaData, TestRecord.Preservation, true
MetaData, TestRecord.Flag, #
MetaData, TestRecord.Remarks, #089_LPCVD_trigate_die3_r2c2_W100
MetaData, TestRecord.LinkKey, e32085da-2888-4578-8033-e74316774f0c
Dimension1, 201, 201, 201, 201, 201, 201, 201
Dimension2, 1, 1, 1, 1, 1, 1, 1
DataName, Vd, Id, Ig, Vg, Id_dens, Ig_dens, gm
DataValue, 5, 5.069E-12, -1.7E-10, -5, 8.4483333333333347E-11, 2.8333333333333335E-09, -3.2600000000000136E-10
DataValue, 5, 4.091E-12, -1.3000000000000002E-10, -4.95, 6.8183333333333336E-11, 2.166666666666667E-09, -2.4716666666666762E-10
DataValue, 5, 3.5860000000000003E-12, -1.3000000000000002E-10, -4.9, 5.9766666666666672E-11, 2.166666666666667E-09, -1.1150000000000035E-10
DataValue, 5, 3.422E-12, -1.3000000000000002E-10, -4.8500000000000005, 5.7033333333333341E-11, 2.166666666666667E-09, -7.8500000000000259E-11
DataValue, 5, 3.1150000000000004E-12, -1.3000000000000002E-10, -4.8000000000000007, 5.1916666666666675E-11, 2.166666666666667E-09, -1.0383333333333283E-10
DataValue, 5, 2.799E-12, -1.3000000000000002E-10, -4.75, 4.665E-11, 2.166666666666667E-09, -7.5166666666666252E-11
DataValue, 5, 2.6640000000000004E-12, -1.3000000000000002E-10, -4.7, 4.440000000000001E-11, 2.166666666666667E-09, -4.1166666666666841E-11
DataValue, 5, 2.552E-12, -1.3000000000000002E-10, -4.65, 4.2533333333333333E-11, 2.166666666666667E-09, -5.3833333333333561E-11
DataValue, 5, 2.3410000000000002E-12, -1.3000000000000002E-10, -4.6000000000000005, 3.9016666666666673E-11, 2.166666666666667E-09, -6.3000000000000157E-11
DataValue, 5, 2.1740000000000002E-12, -1.2E-10, -4.5500000000000007, 3.6233333333333339E-11, 2E-09, -8.6666666666666287E-12
DataValue, 5, 2.289E-12, -1.2E-10, -4.5, 3.8150000000000005E-11, 2E-09, -3.4999999999999564E-12
DataValue, 5, 2.1530000000000002E-12, -1.3000000000000002E-10, -4.45, 3.5883333333333341E-11, 2.166666666666667E-09, -6.016666666666686E-11
DataValue, 5, 1.9280000000000003E-12, -1.3000000000000002E-10, -4.4, 3.2133333333333341E-11, 2.166666666666667E-09, -1.9000000000000144E-11
DataValue, 5, 2.039E-12, -1.2E-10, -4.3500000000000005, 3.3983333333333334E-11, 2E-09, -1.8333333333333852E-12
DataValue, 5, 1.917E-12, -1.2E-10, -4.3000000000000007, 3.1950000000000003E-11, 2E-09, -3.3999999999999779E-11
DataValue, 5, 1.835E-12, -1.2E-10, -4.25, 3.0583333333333338E-11, 2E-09, 3.6666666666666734E-12
DataValue, 5, 1.939E-12, -1.1000000000000001E-10, -4.2, 3.2316666666666673E-11, 1.8333333333333336E-09, 2.2166666666666758E-11
DataValue, 5, 1.968E-12, -1.1000000000000001E-10, -4.15, 3.2800000000000006E-11, 1.8333333333333336E-09, -3.83333333333335E-11
DataValue, 5, 1.709E-12, -1.1000000000000001E-10, -4.1000000000000005, 2.8483333333333336E-11, 1.8333333333333336E-09, -5.9833333333333579E-11
DataValue, 5, 1.6090000000000001E-12, -1.2E-10, -4.0500000000000007, 2.6816666666666669E-11, 2E-09, 4.9999999999999884E-12
DataValue, 5, 1.7390000000000002E-12, -1.1000000000000001E-10, -4, 2.8983333333333338E-11, 1.8333333333333336E-09, 3.7999999999999791E-11
DataValue, 5, 1.837E-12, -1.1000000000000001E-10, -3.95, 3.0616666666666668E-11, 1.8333333333333336E-09, -3.0000000000000129E-11
DataValue, 5, 1.5590000000000001E-12, -1.2E-10, -3.9000000000000004, 2.5983333333333335E-11, 2E-09, -4.3666666666666807E-11
DataValue, 5, 1.575E-12, -1.1000000000000001E-10, -3.8500000000000005, 2.6250000000000003E-11, 1.8333333333333336E-09, 2.6666666666666744E-12
DataValue, 5, 1.575E-12, -1.1000000000000001E-10, -3.8000000000000003, 2.6250000000000003E-11, 1.8333333333333336E-09, -1.3333333333333308E-11
DataValue, 5, 1.4950000000000002E-12, -1.1000000000000001E-10, -3.7500000000000004, 2.4916666666666671E-11, 1.8333333333333336E-09, 2.8333333333333307E-11
DataValue, 5, 1.7450000000000001E-12, -1.1000000000000001E-10, -3.7, 2.9083333333333336E-11, 1.8333333333333336E-09, 3.883333333333329E-11
DataValue, 5, 1.7280000000000001E-12, -1.1000000000000001E-10, -3.6500000000000004, 2.8800000000000003E-11, 1.8333333333333336E-09, -4.2666666666666662E-11
DataValue, 5, 1.489E-12, -1.1000000000000001E-10, -3.6, 2.4816666666666666E-11, 1.8333333333333336E-09, 5.0000000000002372E-13
DataValue, 5, 1.7310000000000002E-12, -1.1000000000000001E-10, -3.5500000000000003, 2.8850000000000006E-11, 1.8333333333333336E-09, 4.0500000000000157E-11
DataValue, 5, 1.732E-12, -1.1000000000000001E-10, -3.5000000000000004, 2.8866666666666668E-11, 1.8333333333333336E-09, -4.7499999999999985E-11
DataValue, 5, 1.446E-12, -1.1000000000000001E-10, -3.45, 2.4100000000000003E-11, 1.8333333333333336E-09, -6.7499999999999935E-11
DataValue, 5, 1.3270000000000001E-12, -1.0000000000000002E-10, -3.4000000000000004, 2.2116666666666668E-11, 1.6666666666666669E-09, -2.1666666666666669E-11
DataValue, 5, 1.316E-12, -1.1000000000000001E-10, -3.35, 2.1933333333333334E-11, 1.8333333333333336E-09, -2.7999999999999968E-11
DataValue, 5, 1.159E-12, -1.1000000000000001E-10, -3.3000000000000003, 1.9316666666666669E-11, 1.8333333333333336E-09, -1.2833333333333373E-11
DataValue, 5, 1.239E-12, -1.1000000000000001E-10, -3.2500000000000004, 2.065E-11, 1.8333333333333336E-09, 4.18333333333333E-11
DataValue, 5, 1.41E-12, -1.0000000000000002E-10, -3.2, 2.3500000000000003E-11, 1.6666666666666669E-09, 1.5500000000000024E-11
DataValue, 5, 1.3320000000000002E-12, -1.1000000000000001E-10, -3.1500000000000004, 2.2200000000000005E-11, 1.8333333333333336E-09, -1.3499999999999994E-11
DataValue, 5, 1.329E-12, -1.0000000000000002E-10, -3.1, 2.2150000000000002E-11, 1.6666666666666669E-09, 3.8166666666666612E-11
DataValue, 5, 1.5610000000000001E-12, -1.1000000000000001E-10, -3.0500000000000003, 2.6016666666666669E-11, 1.8333333333333336E-09, -9.50000000000004E-12
DataValue, 5, 1.272E-12, -1.0000000000000002E-10, -3.0000000000000004, 2.1200000000000002E-11, 1.6666666666666669E-09, -5.4499999999999935E-11
DataValue, 5, 1.2340000000000002E-12, -1.0000000000000002E-10, -2.95, 2.0566666666666671E-11, 1.6666666666666669E-09, -4.66666666666664E-12
DataValue, 5, 1.2440000000000002E-12, -1.0000000000000002E-10, -2.9000000000000004, 2.0733333333333337E-11, 1.6666666666666669E-09, -1.1499999999999996E-11
DataValue, 5, 1.1650000000000002E-12, -1.0000000000000002E-10, -2.85, 1.9416666666666671E-11, 1.6666666666666669E-09, -8.3333333333333288E-12
DataValue, 5, 1.1940000000000002E-12, -1.0000000000000002E-10, -2.8000000000000003, 1.9900000000000004E-11, 1.6666666666666669E-09, 2.6833333333333389E-11
DataValue, 5, 1.326E-12, -9.0000000000000012E-11, -2.7500000000000004, 2.21E-11, 1.5000000000000002E-09, 1.7333333333333303E-11
DataValue, 5, 1.2980000000000001E-12, -9.0000000000000012E-11, -2.7, 2.1633333333333336E-11, 1.5000000000000002E-09, 8.8333333333333529E-12
DataValue, 5, 1.379E-12, -9.0000000000000012E-11, -2.6500000000000004, 2.2983333333333336E-11, 1.5000000000000002E-09, 1.1499999999999996E-11
DataValue, 5, 1.3670000000000001E-12, -1.0000000000000002E-10, -2.6, 2.2783333333333336E-11, 1.6666666666666669E-09, -4.58333333333333E-11
DataValue, 5, 1.1040000000000001E-12, -9.0000000000000012E-11, -2.5500000000000003, 1.8400000000000002E-11, 1.5000000000000002E-09, -3.1333333333333322E-11
DataValue, 5, 1.1790000000000001E-12, -1.0000000000000002E-10, -2.5, 1.965E-11, 1.6666666666666669E-09, 5.500000000000002E-12
DataValue, 5, 1.1370000000000001E-12, -9.0000000000000012E-11, -2.45, 1.8950000000000003E-11, 1.5000000000000002E-09, -2.4333333333333388E-11
DataValue, 5, 1.0330000000000001E-12, -9.0000000000000012E-11, -2.4000000000000004, 1.7216666666666671E-11, 1.5000000000000002E-09, 4.8333333333333255E-12
DataValue, 5, 1.166E-12, -9.0000000000000012E-11, -2.35, 1.9433333333333336E-11, 1.5000000000000002E-09, 3.0833333333333266E-11
DataValue, 5, 1.218E-12, -9.0000000000000012E-11, -2.3000000000000003, 2.03E-11, 1.5000000000000002E-09, 4.3333333333333337E-12
DataValue, 5, 1.1920000000000002E-12, -9.0000000000000012E-11, -2.25, 1.986666666666667E-11, 1.5000000000000002E-09, -1.1166666666666657E-11
DataValue, 5, 1.151E-12, -1.0000000000000002E-10, -2.2, 1.9183333333333334E-11, 1.6666666666666669E-09, -4.4500000000000169E-11
DataValue, 5, 9.25E-13, -9.0000000000000012E-11, -2.1500000000000004, 1.5416666666666668E-11, 1.5000000000000002E-09, 7.5000000000000323E-12
DataValue, 5, 1.1960000000000002E-12, -9.0000000000000012E-11, -2.1, 1.9933333333333338E-11, 1.5000000000000002E-09, 5.4999999999999952E-11
DataValue, 5, 1.255E-12, -9.0000000000000012E-11, -2.0500000000000003, 2.0916666666666669E-11, 1.5000000000000002E-09, -2.8166666666666653E-11
DataValue, 5, 1.0270000000000002E-12, -9.0000000000000012E-11, -2, 1.711666666666667E-11, 1.5000000000000002E-09, 2.6666666666666744E-12
DataValue, 5, 1.2710000000000001E-12, -9.0000000000000012E-11, -1.9500000000000002, 2.1183333333333336E-11, 1.5000000000000002E-09, 3.11666666666667E-11
DataValue, 5, 1.214E-12, -8.0000000000000008E-11, -1.9000000000000001, 2.0233333333333336E-11, 1.3333333333333335E-09, -3.7666666666666653E-11
DataValue, 5, 1.045E-12, -9.0000000000000012E-11, -1.85, 1.7416666666666668E-11, 1.5000000000000002E-09, -3.1666666666666658E-12
DataValue, 5, 1.195E-12, -9.0000000000000012E-11, -1.8, 1.9916666666666669E-11, 1.5000000000000002E-09, -1.6333333333333358E-11
DataValue, 5, 9.470000000000001E-13, -9.0000000000000012E-11, -1.7500000000000002, 1.5783333333333334E-11, 1.5000000000000002E-09, -3.9500000000000051E-11
DataValue, 5, 9.5800000000000016E-13, -9.0000000000000012E-11, -1.7000000000000002, 1.5966666666666669E-11, 1.5000000000000002E-09, 2.5833333333333318E-11
DataValue, 5, 1.1020000000000002E-12, -9.0000000000000012E-11, -1.6500000000000001, 1.8366666666666669E-11, 1.5000000000000002E-09, 4.1666666666666613E-11
DataValue, 5, 1.2080000000000001E-12, -9.0000000000000012E-11, -1.6, 2.0133333333333334E-11, 1.5000000000000002E-09, 4.066666666666663E-11
DataValue, 5, 1.3460000000000001E-12, -8.0000000000000008E-11, -1.55, 2.2433333333333335E-11, 1.3333333333333335E-09, 1.5166666666666685E-11
DataValue, 5, 1.299E-12, -9.0000000000000012E-11, -1.5000000000000002, 2.165E-11, 1.5000000000000002E-09, 2.45666666666667E-10
DataValue, 5, 2.82E-12, -8.0000000000000008E-11, -1.4500000000000002, 4.7000000000000006E-11, 1.3333333333333335E-09, 1.9368333333333319E-09
DataValue, 5, 1.292E-11, -8.0000000000000008E-11, -1.4000000000000001, 2.1533333333333337E-10, 1.3333333333333335E-09, 1.4295499999999989E-08
DataValue, 5, 8.8593E-11, -9.0000000000000012E-11, -1.35, 1.47655E-09, 1.5000000000000002E-09, 9.16416666666666E-08
DataValue, 5, 5.6277E-10, -8.0000000000000008E-11, -1.3, 9.3795000000000014E-09, 1.3333333333333335E-09, 6.0687449999999947E-07
DataValue, 5, 3.72984E-09, -8.0000000000000008E-11, -1.25, 6.2164E-08, 1.3333333333333335E-09, 3.5944550000000045E-06
DataValue, 5, 2.2129499999999996E-08, -8.0000000000000008E-11, -1.2000000000000002, 3.6882499999999997E-07, 1.3333333333333335E-09, 2.036486000000003E-05
DataValue, 5, 1.25919E-07, -8.0000000000000008E-11, -1.1500000000000001, 2.0986500000000002E-06, 1.3333333333333335E-09, 9.788758333333325E-05
DataValue, 5, 6.09455E-07, -8.0000000000000008E-11, -1.1, 1.0157583333333334E-05, 1.3333333333333335E-09, 0.00037607183333333307
DataValue, 5, 2.38235E-06, -8.0000000000000008E-11, -1.05, 3.9705833333333335E-05, 1.3333333333333335E-09, 0.0011033341666666658
DataValue, 5, 7.2294600000000006E-06, -7E-11, -1, 0.00012049100000000001, 1.1666666666666668E-09, 0.0027277083333333342
DataValue, 5, 1.8748600000000002E-05, -8.0000000000000008E-11, -0.95000000000000007, 0.0003124766666666667, 1.3333333333333335E-09, 0.0053426900000000024
DataValue, 5, 3.92856E-05, -8.0000000000000008E-11, -0.9, 0.00065476000000000011, 1.3333333333333335E-09, 0.0091170833333333381
DataValue, 5, 7.34511E-05, -7E-11, -0.85000000000000009, 0.0012241850000000003, 1.1666666666666668E-09, 0.013795733333333339
DataValue, 5, 0.00012206000000000001, -7E-11, -0.8, 0.0020343333333333337, 1.1666666666666668E-09, 0.018412316666666671
DataValue, 5, 0.000183925, -8.0000000000000008E-11, -0.75000000000000011, 0.0030654166666666668, 1.3333333333333335E-09, 0.022930166666666675
DataValue, 5, 0.000259641, -8.0000000000000008E-11, -0.70000000000000007, 0.0043273500000000006, 1.3333333333333335E-09, 0.027336833333333314
DataValue, 5, 0.000347946, -7E-11, -0.65, 0.0057991000000000006, 1.1666666666666668E-09, 0.03164150000000001
DataValue, 5, 0.00044949000000000003, -7E-11, -0.60000000000000009, 0.0074915000000000008, 1.1666666666666668E-09, 0.03558833333333334
DataValue, 5, 0.000561476, -7E-11, -0.55, 0.0093579333333333337, 1.1666666666666668E-09, 0.0388328333333333
DataValue, 5, 0.00068248700000000007, -7E-11, -0.5, 0.011374783333333334, 1.1666666666666668E-09, 0.04207683333333332
DataValue, 5, 0.000813937, -7E-11, -0.45, 0.013565616666666667, 1.1666666666666668E-09, 0.04515000000000001
DataValue, 5, 0.00095338700000000009, -6E-11, -0.4, 0.015889783333333334, 1E-09, 0.047595000000000026
DataValue, 5, 0.001099507, -7E-11, -0.35000000000000003, 0.018325116666666669, 1.1666666666666668E-09, 0.05061216666666668
DataValue, 5, 0.00125706, -7E-11, -0.30000000000000004, 0.020951, 1.1666666666666668E-09, 0.052402166666666632
DataValue, 5, 0.00141392, -7E-11, -0.25, 0.023565333333333334, 1.1666666666666668E-09, 0.053451666666666661
DataValue, 5, 0.00157777, -7E-11, -0.2, 0.026296166666666669, 1.1666666666666668E-09, 0.055496666666666694
DataValue, 5, 0.0017469, -7E-11, -0.15000000000000002, 0.029115000000000002, 1.1666666666666668E-09, 0.057195000000000024
DataValue, 5, 0.00192094, -7E-11, -0.1, 0.032015666666666671, 1.1666666666666668E-09, 0.058758333333333357
DataValue, 5, 0.00209945, -7E-11, -0.05, 0.034990833333333339, 1.1666666666666668E-09, 0.060776666666666618
DataValue, 5, 0.0022856, -6E-11, 0, 0.038093333333333333, 1E-09, 0.062688333333333346
DataValue, 5, 0.0024755800000000002, -6E-11, 0.05, 0.041259666666666674, 1E-09, 0.063878333333333426
DataValue, 5, 0.0026688700000000003, -7E-11, 0.1, 0.044481166666666676, 1.1666666666666668E-09, 0.065214999999999981
