
SetupTitle, HEMT_transfer
PrimitiveTest, I/V Sweep
TestParameter, Context.MainFrame, B1500A
TestParameter, Channel.UnitType, SMU, SMU, SMU
TestParameter, Channel.Unit, SMU1:MP, SMU2:MC, GNDU:GND
TestParameter, Channel.IName, Id, Ig, Is
TestParameter, Channel.VName, Vd, Vg, Vs
TestParameter, Channel.Mode, V, V, COMMON
TestParameter, Channel.Func, CONST, VAR1, CONST
TestParameter, Channel.Index, 
TestParameter, Channel.Time, 
TestParameter, Measurement.Port.Unit, SMU1:MP, SMU2:MC, GNDU:GND
TestParameter, Measurement.Port.SeriesResistor, NONE, NONE, NONE
TestParameter, Measurement.Port.Filter, ON, ON, ON
TestParameter, Measurement.Port.OutputVoltageComparison, 0, 0, 0
TestParameter, Measurement.Primary.Locus, Single
TestParameter, Measurement.Primary.Scale, LINEAR
TestParameter, Measurement.Primary.Start, -5
TestParameter, Measurement.Primary.Stop, 5
TestParameter, Measurement.Primary.Step, 0.05
TestParameter, Measurement.Primary.Compliance, 0.001
TestParameter, Measurement.Primary.PowerCompliance, 0
TestParameter, Measurement.Aborting.Condition, CONTINUE AT ANY
TestParameter, Measurement.PostOutput.Value, START
TestParameter, Measurement.PostOutput.Retention, OFF
TestParameter, Measurement.Bias.Source, 5, -5, 0
TestParameter, Measurement.Bias.Compliance, 0.1, 0.001, 2
TestParameter, Measurement.Monitor.Unit, SMU1:MP, SMU2:MC, GNDU:GND
TestParameter, Measurement.Monitor.Adc, HR ADC, HS ADC, HR ADC
TestParameter, Measurement.Monitor.Measurement, Compliance Side, Force and Compliance Sides, Compliance Side
TestParameter, Measurement.Monitor.RangingMode, LIMITED, LIMITED, LIMITED
TestParameter, Measurement.Monitor.RangeBoundary, 1nA, 10uA, 1nA
TestParameter, Measurement.Monitor.RangeRating, BY FULL RANGE, BY FULL RANGE, BY FULL RANGE
TestParameter, Measurement.Monitor.RangeRatingCoeff, 50, 50, 50
TestParameter, Measurement.Timing.Hold, 0
TestParameter, Measurement.Timing.Delay, 0
TestParameter, Measurement.Adc.HighSpeed.Mode, PLC
TestParameter, Measurement.Adc.HighSpeed.Coeff, 2
TestParameter, Measurement.Adc.HighResolution.AutoZero, OFF
TestParameter, Measurement.Adc.HighResolution.Mode, PLC
TestParameter, Measurement.Adc.HighResolution.Coeff, 2
TestParameter, Measurement.WaitTime.Source.Coeff, 1
TestParameter, Measurement.WaitTime.Source.Offset, 0
TestParameter, Measurement.WaitTime.Monitor.Coeff, 1
TestParameter, Measurement.WaitTime.Monitor.Offset, 0
TestParameter, Function.User.Name, Id_dens, Ig_dens, gm
TestParameter, Function.User.Unit, A/mm, A/mm, S/mm
TestParameter, Function.User.Definition, Id/0.06, abs(Ig)/0.06, diff(Id_dens,Vg)
TestParameter, Output.Graph.Enabled, true
TestParameter, Output.Graph.AutoScaling, false
TestParameter, Output.Graph.XAxis.Data, Vg
TestParameter, Output.Graph.XAxis.Scale, Linear
TestParameter, Output.Graph.XAxis.Left, -2
TestParameter, Output.Graph.XAxis.Right, 10
TestParameter, Output.Graph.XAxis.RunTimeAutoScale, false
TestParameter, Output.Graph.YAxis.Data, Id_dens, Id_dens, gm, Ig_dens
TestParameter, Output.Graph.YAxis.Scale, Log, Linear, Linear, Log
TestParameter, Output.Graph.YAxis.Bottom, 0, 0, 0, 0
TestParameter, Output.Graph.YAxis.Top, 1, 1, 1, 1
TestParameter, Output.Graph.YAxis.Group, , , , 
TestParameter, Output.Graph.YAxis.RunTimeAutoScale, false, false, false, false
TestParameter, Output.List.Data, Vg, Id_dens, Ig_dens, Vd, gm
TestParameter, AutoAnalysis.Interpolation, false
TestParameter, AutoAnalysis.Line1.Enabled, false
TestParameter, AutoAnalysis.Line1.Type, 1
TestParameter, AutoAnalysis.Line1.Fix, True
TestParameter, AutoAnalysis.Line1.YAxis, 0
TestParameter, AutoAnalysis.Line1.Point1.Type, 0
TestParameter, AutoAnalysis.Line1.Point1.XY.X, 
TestParameter, AutoAnalysis.Line1.Point1.XY.Y, 
TestParameter, AutoAnalysis.Line1.Point1.Data.Var, 
TestParameter, AutoAnalysis.Line1.Point1.Data.Condition, 
TestParameter, AutoAnalysis.Line1.Point1.Data.Start, false
TestParameter, AutoAnalysis.Line1.Point1.Data.StartVar, 
TestParameter, AutoAnalysis.Line1.Point1.Data.StartCondition, 
TestParameter, AutoAnalysis.Line1.Point2.Type, 0
TestParameter, AutoAnalysis.Line1.Point2.XY.X, 
TestParameter, AutoAnalysis.Line1.Point2.XY.Y, 
TestParameter, AutoAnalysis.Line1.Point2.Data.Var, 
TestParameter, AutoAnalysis.Line1.Point2.Data.Condition, 
TestParameter, AutoAnalysis.Line1.Point2.Data.Start, false
TestParameter, AutoAnalysis.Line1.Point2.Data.StartVar, 
TestParameter, AutoAnalysis.Line1.Point2.Data.StartCondition, 
TestParameter, AutoAnalysis.Line1.GradientExpr, 0
TestParameter, AutoAnalysis.Line2.Enabled, false
TestParameter, AutoAnalysis.Line2.Type, 1
TestParameter, AutoAnalysis.Line2.Fix, True
TestParameter, AutoAnalysis.Line2.YAxis, 0
TestParameter, AutoAnalysis.Line2.Point1.Type, 0
TestParameter, AutoAnalysis.Line2.Point1.XY.X, 
TestParameter, AutoAnalysis.Line2.Point1.XY.Y, 
TestParameter, AutoAnalysis.Line2.Point1.Data.Var, 
TestParameter, AutoAnalysis.Line2.Point1.Data.Condition, 
TestParameter, AutoAnalysis.Line2.Point1.Data.Start, false
TestParameter, AutoAnalysis.Line2.Point1.Data.StartVar, 
TestParameter, AutoAnalysis.Line2.Point1.Data.StartCondition, 
TestParameter, AutoAnalysis.Line2.Point2.Type, 0
TestParameter, AutoAnalysis.Line2.Point2.XY.X, 
TestParameter, AutoAnalysis.Line2.Point2.XY.Y, 
TestParameter, AutoAnalysis.Line2.Point2.Data.Var, 
TestParameter, AutoAnalysis.Line2.Point2.Data.Condition, 
TestParameter, AutoAnalysis.Line2.Point2.Data.Start, false
TestParameter, AutoAnalysis.Line2.Point2.Data.StartVar, 
TestParameter, AutoAnalysis.Line2.Point2.Data.StartCondition, 
TestParameter, AutoAnalysis.Line2.GradientExpr, 0
TestParameter, AutoAnalysis.Marker.Enabled, false
TestParameter, AutoAnalysis.Marker.Data.Var, 
TestParameter, AutoAnalysis.Marker.Data.Condition, 
TestParameter, AutoAnalysis.Marker.Data.Start, false
TestParameter, AutoAnalysis.Marker.Data.StartVar, 
TestParameter, AutoAnalysis.Marker.Data.StartCondition, 
MetaData, TestRecord.EntryPoint, true
MetaData, TestRecord.RecordTime, 08/16/2019 12:26:12
MetaData, TestRecord.TestTarget, 
MetaData, TestRecord.IterationIndex, 1
MetaData, TestRecord.Preservation, true
MetaData, TestRecord.Flag, #
MetaData, TestRecord.Remarks, #089_LPCVD_trigate_die3_r1c3_W150
MetaData, TestRecord.LinkKey, ee851295-c805-4b66-b6b2-97f4f82d7fdd
Dimension1, 201, 201, 201, 201, 201, 201, 201
Dimension2, 1, 1, 1, 1, 1, 1, 1
DataName, Vd, Id, Ig, Vg, Id_dens, Ig_dens, gm
DataValue, 5, 6.147E-12, -2.2000000000000002E-10, -5, 1.0245E-10, 3.6666666666666672E-09, -4.1500000000000136E-10
DataValue, 5, 4.9020000000000007E-12, -1.8000000000000003E-10, -4.95, 8.1700000000000013E-11, 3.0000000000000004E-09, -2.5750000000000092E-10
DataValue, 5, 4.602E-12, -1.7E-10, -4.9, 7.67E-11, 2.8333333333333335E-09, -1.6233333333333394E-10
DataValue, 5, 3.928E-12, -1.7E-10, -4.8500000000000005, 6.5466666666666676E-11, 2.8333333333333335E-09, -1.516666666666672E-10
DataValue, 5, 3.692E-12, -1.7E-10, -4.8000000000000007, 6.1533333333333338E-11, 2.8333333333333335E-09, -9.7499999999999534E-11
DataValue, 5, 3.343E-12, -1.7E-10, -4.75, 5.5716666666666671E-11, 2.8333333333333335E-09, -3.74999999999998E-11
DataValue, 5, 3.467E-12, -1.7E-10, -4.7, 5.7783333333333338E-11, 2.8333333333333335E-09, -2.9000000000000081E-11
DataValue, 5, 3.1690000000000003E-12, -1.6000000000000002E-10, -4.65, 5.2816666666666673E-11, 2.666666666666667E-09, -9.4166666666667E-11
DataValue, 5, 2.9020000000000004E-12, -1.7E-10, -4.6000000000000005, 4.8366666666666672E-11, 2.8333333333333335E-09, -8.3333333333333666E-11
DataValue, 5, 2.669E-12, -1.6000000000000002E-10, -4.5500000000000007, 4.4483333333333336E-11, 2.666666666666667E-09, -3.6166666666666451E-11
DataValue, 5, 2.6850000000000004E-12, -1.6000000000000002E-10, -4.5, 4.4750000000000007E-11, 2.666666666666667E-09, -5.7833333333333056E-11
DataValue, 5, 2.322E-12, -1.6000000000000002E-10, -4.45, 3.87E-11, 2.666666666666667E-09, -4.3000000000000226E-11
DataValue, 5, 2.427E-12, -1.6000000000000002E-10, -4.4, 4.045E-11, 2.666666666666667E-09, 1.9166666666666798E-11
DataValue, 5, 2.4370000000000002E-12, -1.5000000000000003E-10, -4.3500000000000005, 4.0616666666666672E-11, 2.5000000000000005E-09, 1.5833333333333463E-11
DataValue, 5, 2.5220000000000004E-12, -1.5000000000000003E-10, -4.3000000000000007, 4.2033333333333341E-11, 2.5000000000000005E-09, -2.9999999999999864E-11
DataValue, 5, 2.257E-12, -1.5000000000000003E-10, -4.25, 3.761666666666667E-11, 2.5000000000000005E-09, -6.4333333333333008E-11
DataValue, 5, 2.136E-12, -1.5000000000000003E-10, -4.2, 3.5600000000000005E-11, 2.5000000000000005E-09, 5.8333333333333988E-12
DataValue, 5, 2.2920000000000003E-12, -1.4E-10, -4.15, 3.8200000000000008E-11, 2.3333333333333335E-09, 7.9999999999999627E-12
DataValue, 5, 2.184E-12, -1.5000000000000003E-10, -4.1000000000000005, 3.64E-11, 2.5000000000000005E-09, -6.6000000000000315E-11
DataValue, 5, 1.896E-12, -1.5000000000000003E-10, -4.0500000000000007, 3.16E-11, 2.5000000000000005E-09, -4.0333333333333084E-11
DataValue, 5, 1.942E-12, -1.5000000000000003E-10, -4, 3.2366666666666669E-11, 2.5000000000000005E-09, 3.7499999999999864E-11
DataValue, 5, 2.1210000000000004E-12, -1.4E-10, -3.95, 3.5350000000000006E-11, 2.3333333333333335E-09, -1.4999999999999484E-12
DataValue, 5, 1.9330000000000003E-12, -1.5000000000000003E-10, -3.9000000000000004, 3.2216666666666674E-11, 2.5000000000000005E-09, -3.883333333333349E-11
DataValue, 5, 1.888E-12, -1.4E-10, -3.8500000000000005, 3.146666666666667E-11, 2.3333333333333335E-09, -3.5833333333333339E-11
DataValue, 5, 1.7180000000000002E-12, -1.4E-10, -3.8000000000000003, 2.8633333333333337E-11, 2.3333333333333335E-09, 6.4999999999999848E-12
DataValue, 5, 1.927E-12, -1.4E-10, -3.7500000000000004, 3.2116666666666669E-11, 2.3333333333333335E-09, 2.6666666666666649E-11
DataValue, 5, 1.8780000000000003E-12, -1.4E-10, -3.7, 3.1300000000000004E-11, 2.3333333333333335E-09, -6.66666666666666E-11
DataValue, 5, 1.527E-12, -1.4E-10, -3.6500000000000004, 2.5450000000000003E-11, 2.3333333333333335E-09, -3.6833333333333322E-11
DataValue, 5, 1.6570000000000001E-12, -1.3000000000000002E-10, -3.6, 2.7616666666666669E-11, 2.166666666666667E-09, 6.23333333333333E-11
DataValue, 5, 1.901E-12, -1.4E-10, -3.5500000000000003, 3.1683333333333339E-11, 2.3333333333333335E-09, 5.6666666666667125E-12
DataValue, 5, 1.6910000000000002E-12, -1.4E-10, -3.5000000000000004, 2.8183333333333338E-11, 2.3333333333333335E-09, -5.7666666666666629E-11
DataValue, 5, 1.5550000000000001E-12, -1.3000000000000002E-10, -3.45, 2.5916666666666671E-11, 2.166666666666667E-09, -2.2166666666666694E-11
DataValue, 5, 1.558E-12, -1.3000000000000002E-10, -3.4000000000000004, 2.5966666666666667E-11, 2.166666666666667E-09, 2.7499999999999976E-11
DataValue, 5, 1.7200000000000001E-12, -1.4E-10, -3.35, 2.8666666666666671E-11, 2.3333333333333335E-09, -7.166666666666629E-12
DataValue, 5, 1.5150000000000001E-12, -1.3000000000000002E-10, -3.3000000000000003, 2.5250000000000003E-11, 2.166666666666667E-09, -6.000000000000052E-12
DataValue, 5, 1.684E-12, -1.4E-10, -3.2500000000000004, 2.8066666666666668E-11, 2.3333333333333335E-09, 1.3666666666666645E-11
DataValue, 5, 1.5970000000000002E-12, -1.3000000000000002E-10, -3.2, 2.6616666666666669E-11, 2.166666666666667E-09, 2.3666666666666666E-11
DataValue, 5, 1.826E-12, -1.3000000000000002E-10, -3.1500000000000004, 3.0433333333333337E-11, 2.166666666666667E-09, -4.3333333333333337E-12
DataValue, 5, 1.571E-12, -1.2E-10, -3.1, 2.6183333333333335E-11, 2E-09, -2.7833333333333315E-11
DataValue, 5, 1.659E-12, -1.3000000000000002E-10, -3.0500000000000003, 2.7650000000000003E-11, 2.166666666666667E-09, 3.3333333333333658E-12
DataValue, 5, 1.5910000000000002E-12, -1.3000000000000002E-10, -3.0000000000000004, 2.6516666666666671E-11, 2.166666666666667E-09, -5.2666666666666621E-11
DataValue, 5, 1.343E-12, -1.3000000000000002E-10, -2.95, 2.2383333333333336E-11, 2.166666666666667E-09, -1.5000000000000063E-12
DataValue, 5, 1.5820000000000001E-12, -1.3000000000000002E-10, -2.9000000000000004, 2.636666666666667E-11, 2.166666666666667E-09, 1.049999999999998E-11
DataValue, 5, 1.406E-12, -1.2E-10, -2.85, 2.3433333333333335E-11, 2E-09, 1.6666666666668533E-13
DataValue, 5, 1.5830000000000002E-12, -1.2E-10, -2.8000000000000003, 2.6383333333333339E-11, 2E-09, 6.83333333333336E-11
DataValue, 5, 1.8160000000000001E-12, -1.2E-10, -2.7500000000000004, 3.0266666666666671E-11, 2E-09, 9.99999999999999E-12
DataValue, 5, 1.6430000000000002E-12, -1.2E-10, -2.7, 2.7383333333333338E-11, 2E-09, -5.0166666666666629E-11
DataValue, 5, 1.5150000000000001E-12, -1.2E-10, -2.6500000000000004, 2.5250000000000003E-11, 2E-09, -2.7499999999999976E-11
DataValue, 5, 1.4780000000000002E-12, -1.2E-10, -2.6, 2.4633333333333338E-11, 2E-09, -4.333333333333366E-12
DataValue, 5, 1.489E-12, -1.2E-10, -2.5500000000000003, 2.4816666666666666E-11, 2E-09, 1.2499999999999978E-11
DataValue, 5, 1.5530000000000002E-12, -1.2E-10, -2.5, 2.5883333333333337E-11, 2E-09, -3.133333333333329E-11
DataValue, 5, 1.301E-12, -1.2E-10, -2.45, 2.1683333333333335E-11, 2E-09, -2.2000000000000073E-11
DataValue, 5, 1.4210000000000001E-12, -1.1000000000000001E-10, -2.4000000000000004, 2.3683333333333337E-11, 1.8333333333333336E-09, 7.3999999999999951E-11
DataValue, 5, 1.7450000000000001E-12, -1.1000000000000001E-10, -2.35, 2.9083333333333336E-11, 1.8333333333333336E-09, 2.3999999999999972E-11
DataValue, 5, 1.565E-12, -1.2E-10, -2.3000000000000003, 2.6083333333333337E-11, 2E-09, -4.5166666666666621E-11
DataValue, 5, 1.4740000000000002E-12, -1.1000000000000001E-10, -2.25, 2.456666666666667E-11, 1.8333333333333336E-09, -2.6833333333333334E-11
DataValue, 5, 1.404E-12, -1.1000000000000001E-10, -2.2, 2.34E-11, 1.8333333333333336E-09, 6.8333333333333534E-12
DataValue, 5, 1.5150000000000001E-12, -1.1000000000000001E-10, -2.1500000000000004, 2.5250000000000003E-11, 1.8333333333333336E-09, 4.899999999999996E-11
DataValue, 5, 1.698E-12, -1.1000000000000001E-10, -2.1, 2.8300000000000002E-11, 1.8333333333333336E-09, 1.4599999999999986E-10
DataValue, 5, 2.3910000000000002E-12, -1.1000000000000001E-10, -2.0500000000000003, 3.9850000000000003E-11, 1.8333333333333336E-09, 1.0396666666666659E-09
DataValue, 5, 7.936E-12, -1.1000000000000001E-10, -2, 1.3226666666666668E-10, 1.8333333333333336E-09, 7.1739999999999936E-09
DataValue, 5, 4.5435E-11, -1.1000000000000001E-10, -1.9500000000000002, 7.5725E-10, 1.8333333333333336E-09, 4.8662500000000069E-08
DataValue, 5, 2.99911E-10, -1.1000000000000001E-10, -1.9000000000000001, 4.9985166666666674E-09, 1.8333333333333336E-09, 3.2330083333333308E-07
DataValue, 5, 1.98524E-09, -1.1000000000000001E-10, -1.85, 3.3087333333333333E-08, 1.8333333333333336E-09, 2.0216314999999981E-06
DataValue, 5, 1.2429699999999998E-08, -1.0000000000000002E-10, -1.8, 2.0716166666666664E-07, 1.6666666666666669E-09, 1.1738060000000015E-05
DataValue, 5, 7.24136E-08, -1.0000000000000002E-10, -1.7500000000000002, 1.2068933333333332E-06, 1.6666666666666669E-09, 5.9824216666666747E-05
DataValue, 5, 3.71375E-07, -1.1000000000000001E-10, -1.7000000000000002, 6.1895833333333333E-06, 1.8333333333333336E-09, 0.00025280773333333315
DataValue, 5, 1.5892600000000001E-06, -1.1000000000000001E-10, -1.6500000000000001, 2.6487666666666671E-05, 1.8333333333333336E-09, 0.00081894583333333275
DataValue, 5, 5.28505E-06, -1.0000000000000002E-10, -1.6, 8.808416666666668E-05, 1.6666666666666669E-09, 0.0021221566666666646
DataValue, 5, 1.43222E-05, -1.0000000000000002E-10, -1.55, 0.00023870333333333334, 1.6666666666666669E-09, 0.0043721250000000053
DataValue, 5, 3.15178E-05, -1.0000000000000002E-10, -1.5000000000000002, 0.00052529666666666661, 1.6666666666666669E-09, 0.0075499000000000122
DataValue, 5, 5.9621600000000005E-05, -1.0000000000000002E-10, -1.4500000000000002, 0.00099369333333333351, 1.6666666666666669E-09, 0.011434583333333326
DataValue, 5, 0.0001001253, -1.0000000000000002E-10, -1.4000000000000001, 0.001668755, 1.6666666666666669E-09, 0.015884399999999986
DataValue, 5, 0.000154928, -1.0000000000000002E-10, -1.35, 0.0025821333333333335, 1.6666666666666669E-09, 0.01967078333333332
DataValue, 5, 0.00021815000000000002, -1.0000000000000002E-10, -1.3, 0.0036358333333333338, 1.6666666666666669E-09, 0.022942499999999984
DataValue, 5, 0.000292583, -1.0000000000000002E-10, -1.25, 0.0048763833333333338, 1.6666666666666669E-09, 0.026367500000000037
DataValue, 5, 0.00037635500000000004, -1.0000000000000002E-10, -1.2000000000000002, 0.006272583333333334, 1.6666666666666669E-09, 0.029281666666666706
DataValue, 5, 0.000468273, -1.0000000000000002E-10, -1.1500000000000001, 0.00780455, 1.6666666666666669E-09, 0.0318703333333333
DataValue, 5, 0.000567577, -1.0000000000000002E-10, -1.1, 0.0094596166666666669, 1.6666666666666669E-09, 0.034184833333333317
DataValue, 5, 0.000673382, -1.0000000000000002E-10, -1.05, 0.011223033333333335, 1.6666666666666669E-09, 0.036274666666666643
DataValue, 5, 0.00078522500000000007, -1.0000000000000002E-10, -1, 0.013087083333333334, 1.6666666666666669E-09, 0.03834166666666667
DataValue, 5, 0.000903432, -1.0000000000000002E-10, -0.95000000000000007, 0.015057200000000002, 1.6666666666666669E-09, 0.040177833333333364
DataValue, 5, 0.001026292, -1.0000000000000002E-10, -0.9, 0.01710486666666667, 1.6666666666666669E-09, 0.042344666666666683
DataValue, 5, 0.0011575000000000001, -1.0000000000000002E-10, -0.85000000000000009, 0.019291666666666669, 1.6666666666666669E-09, 0.043539666666666678
DataValue, 5, 0.00128753, -1.0000000000000002E-10, -0.8, 0.021458833333333337, 1.6666666666666669E-09, 0.044276666666666672
DataValue, 5, 0.0014231600000000001, -1.0000000000000002E-10, -0.75000000000000011, 0.023719333333333335, 1.6666666666666669E-09, 0.045971666666666633
DataValue, 5, 0.00156336, -1.0000000000000002E-10, -0.70000000000000007, 0.026056, 1.6666666666666669E-09, 0.047296666666666626
DataValue, 5, 0.00170694, -1.0000000000000002E-10, -0.65, 0.028449000000000002, 1.6666666666666669E-09, 0.048345000000000034
DataValue, 5, 0.00185343, -9.0000000000000012E-11, -0.60000000000000009, 0.0308905, 1.5000000000000002E-09, 0.04948666666666672
DataValue, 5, 0.00200386, -9.0000000000000012E-11, -0.55, 0.033397666666666673, 1.5000000000000002E-09, 0.050519999999999968
DataValue, 5, 0.00215655, -8.0000000000000008E-11, -0.5, 0.0359425, 1.3333333333333335E-09, 0.051286666666666619
DataValue, 5, 0.00231158, -8.0000000000000008E-11, -0.45, 0.038526333333333336, 1.3333333333333335E-09, 0.052313333333333323
DataValue, 5, 0.00247043, -9.0000000000000012E-11, -0.4, 0.041173833333333333, 1.5000000000000002E-09, 0.053333333333333371
DataValue, 5, 0.00263158, -9.0000000000000012E-11, -0.35000000000000003, 0.043859666666666672, 1.5000000000000002E-09, 0.054063333333333338
DataValue, 5, 0.00279481, -1.0000000000000002E-10, -0.30000000000000004, 0.046580166666666666, 1.6666666666666669E-09, 0.054644999999999951
DataValue, 5, 0.00295945, -9.0000000000000012E-11, -0.25, 0.049324166666666669, 1.5000000000000002E-09, 0.055198333333333328
DataValue, 5, 0.003126, -9.0000000000000012E-11, -0.2, 0.0521, 1.5000000000000002E-09, 0.055965000000000056
DataValue, 5, 0.00329524, -9.0000000000000012E-11, -0.15000000000000002, 0.054920666666666673, 1.5000000000000002E-09, 0.056870000000000046
DataValue, 5, 0.00346722, -9.0000000000000012E-11, -0.1, 0.057787000000000005, 1.5000000000000002E-09, 0.0572366666666666
DataValue, 5, 0.00363866, -9.0000000000000012E-11, -0.05, 0.060644333333333335, 1.5000000000000002E-09, 0.057663333333333316
DataValue, 5, 0.0038132, -9.0000000000000012E-11, 0, 0.063553333333333337, 1.5000000000000002E-09, 0.058425000000000074
DataValue, 5, 0.00398921, -1.0000000000000002E-10, 0.05, 0.066486833333333342, 1.6666666666666669E-09, 0.05904500000000007
DataValue, 5, 0.00416747, -8.0000000000000008E-11, 0.1, 0.069457833333333344, 1.3333333333333335E-09, 0.059363333333333337
DataValue, 5, 0.00434539, -9.0000000000000012E-11, 0.15000000000000002, 0.072423166666666677, 1.5000000000000002E-09, 0.059789999999999982
