
SetupTitle, HEMT_transfer
PrimitiveTest, I/V Sweep
TestParameter, Context.MainFrame, B1500A
TestParameter, Channel.UnitType, SMU, SMU, SMU
TestParameter, Channel.Unit, SMU1:MP, SMU2:MC, GNDU:GND
TestParameter, Channel.IName, Id, Ig, Is
TestParameter, Channel.VName, Vd, Vg, Vs
TestParameter, Channel.Mode, V, V, COMMON
TestParameter, Channel.Func, CONST, VAR1, CONST
TestParameter, Channel.Index, 
TestParameter, Channel.Time, 
TestParameter, Measurement.Port.Unit, SMU1:MP, SMU2:MC, GNDU:GND
TestParameter, Measurement.Port.SeriesResistor, NONE, NONE, NONE
TestParameter, Measurement.Port.Filter, ON, ON, ON
TestParameter, Measurement.Port.OutputVoltageComparison, 0, 0, 0
TestParameter, Measurement.Primary.Locus, Single
TestParameter, Measurement.Primary.Scale, LINEAR
TestParameter, Measurement.Primary.Start, -5
TestParameter, Measurement.Primary.Stop, 5
TestParameter, Measurement.Primary.Step, 0.05
TestParameter, Measurement.Primary.Compliance, 0.001
TestParameter, Measurement.Primary.PowerCompliance, 0
TestParameter, Measurement.Aborting.Condition, CONTINUE AT ANY
TestParameter, Measurement.PostOutput.Value, START
TestParameter, Measurement.PostOutput.Retention, OFF
TestParameter, Measurement.Bias.Source, 5, -5, 0
TestParameter, Measurement.Bias.Compliance, 0.1, 0.001, 2
TestParameter, Measurement.Monitor.Unit, SMU1:MP, SMU2:MC, GNDU:GND
TestParameter, Measurement.Monitor.Adc, HR ADC, HS ADC, HR ADC
TestParameter, Measurement.Monitor.Measurement, Compliance Side, Force and Compliance Sides, Compliance Side
TestParameter, Measurement.Monitor.RangingMode, LIMITED, LIMITED, LIMITED
TestParameter, Measurement.Monitor.RangeBoundary, 1nA, 10uA, 1nA
TestParameter, Measurement.Monitor.RangeRating, BY FULL RANGE, BY FULL RANGE, BY FULL RANGE
TestParameter, Measurement.Monitor.RangeRatingCoeff, 50, 50, 50
TestParameter, Measurement.Timing.Hold, 0
TestParameter, Measurement.Timing.Delay, 0
TestParameter, Measurement.Adc.HighSpeed.Mode, PLC
TestParameter, Measurement.Adc.HighSpeed.Coeff, 2
TestParameter, Measurement.Adc.HighResolution.AutoZero, OFF
TestParameter, Measurement.Adc.HighResolution.Mode, PLC
TestParameter, Measurement.Adc.HighResolution.Coeff, 2
TestParameter, Measurement.WaitTime.Source.Coeff, 1
TestParameter, Measurement.WaitTime.Source.Offset, 0
TestParameter, Measurement.WaitTime.Monitor.Coeff, 1
TestParameter, Measurement.WaitTime.Monitor.Offset, 0
TestParameter, Function.User.Name, Id_dens, Ig_dens, gm
TestParameter, Function.User.Unit, A/mm, A/mm, S/mm
TestParameter, Function.User.Definition, Id/0.06, abs(Ig)/0.06, diff(Id_dens,Vg)
TestParameter, Output.Graph.Enabled, true
TestParameter, Output.Graph.AutoScaling, false
TestParameter, Output.Graph.XAxis.Data, Vg
TestParameter, Output.Graph.XAxis.Scale, Linear
TestParameter, Output.Graph.XAxis.Left, -2
TestParameter, Output.Graph.XAxis.Right, 10
TestParameter, Output.Graph.XAxis.RunTimeAutoScale, false
TestParameter, Output.Graph.YAxis.Data, Id_dens, Id_dens, gm, Ig_dens
TestParameter, Output.Graph.YAxis.Scale, Log, Linear, Linear, Log
TestParameter, Output.Graph.YAxis.Bottom, 0, 0, 0, 0
TestParameter, Output.Graph.YAxis.Top, 1, 1, 1, 1
TestParameter, Output.Graph.YAxis.Group, , , , 
TestParameter, Output.Graph.YAxis.RunTimeAutoScale, false, false, false, false
TestParameter, Output.List.Data, Vg, Id_dens, Ig_dens, Vd, gm
TestParameter, AutoAnalysis.Interpolation, false
TestParameter, AutoAnalysis.Line1.Enabled, false
TestParameter, AutoAnalysis.Line1.Type, 1
TestParameter, AutoAnalysis.Line1.Fix, True
TestParameter, AutoAnalysis.Line1.YAxis, 0
TestParameter, AutoAnalysis.Line1.Point1.Type, 0
TestParameter, AutoAnalysis.Line1.Point1.XY.X, 
TestParameter, AutoAnalysis.Line1.Point1.XY.Y, 
TestParameter, AutoAnalysis.Line1.Point1.Data.Var, 
TestParameter, AutoAnalysis.Line1.Point1.Data.Condition, 
TestParameter, AutoAnalysis.Line1.Point1.Data.Start, false
TestParameter, AutoAnalysis.Line1.Point1.Data.StartVar, 
TestParameter, AutoAnalysis.Line1.Point1.Data.StartCondition, 
TestParameter, AutoAnalysis.Line1.Point2.Type, 0
TestParameter, AutoAnalysis.Line1.Point2.XY.X, 
TestParameter, AutoAnalysis.Line1.Point2.XY.Y, 
TestParameter, AutoAnalysis.Line1.Point2.Data.Var, 
TestParameter, AutoAnalysis.Line1.Point2.Data.Condition, 
TestParameter, AutoAnalysis.Line1.Point2.Data.Start, false
TestParameter, AutoAnalysis.Line1.Point2.Data.StartVar, 
TestParameter, AutoAnalysis.Line1.Point2.Data.StartCondition, 
TestParameter, AutoAnalysis.Line1.GradientExpr, 0
TestParameter, AutoAnalysis.Line2.Enabled, false
TestParameter, AutoAnalysis.Line2.Type, 1
TestParameter, AutoAnalysis.Line2.Fix, True
TestParameter, AutoAnalysis.Line2.YAxis, 0
TestParameter, AutoAnalysis.Line2.Point1.Type, 0
TestParameter, AutoAnalysis.Line2.Point1.XY.X, 
TestParameter, AutoAnalysis.Line2.Point1.XY.Y, 
TestParameter, AutoAnalysis.Line2.Point1.Data.Var, 
TestParameter, AutoAnalysis.Line2.Point1.Data.Condition, 
TestParameter, AutoAnalysis.Line2.Point1.Data.Start, false
TestParameter, AutoAnalysis.Line2.Point1.Data.StartVar, 
TestParameter, AutoAnalysis.Line2.Point1.Data.StartCondition, 
TestParameter, AutoAnalysis.Line2.Point2.Type, 0
TestParameter, AutoAnalysis.Line2.Point2.XY.X, 
TestParameter, AutoAnalysis.Line2.Point2.XY.Y, 
TestParameter, AutoAnalysis.Line2.Point2.Data.Var, 
TestParameter, AutoAnalysis.Line2.Point2.Data.Condition, 
TestParameter, AutoAnalysis.Line2.Point2.Data.Start, false
TestParameter, AutoAnalysis.Line2.Point2.Data.StartVar, 
TestParameter, AutoAnalysis.Line2.Point2.Data.StartCondition, 
TestParameter, AutoAnalysis.Line2.GradientExpr, 0
TestParameter, AutoAnalysis.Marker.Enabled, false
TestParameter, AutoAnalysis.Marker.Data.Var, 
TestParameter, AutoAnalysis.Marker.Data.Condition, 
TestParameter, AutoAnalysis.Marker.Data.Start, false
TestParameter, AutoAnalysis.Marker.Data.StartVar, 
TestParameter, AutoAnalysis.Marker.Data.StartCondition, 
MetaData, TestRecord.EntryPoint, true
MetaData, TestRecord.RecordTime, 08/14/2019 12:10:15
MetaData, TestRecord.TestTarget, 
MetaData, TestRecord.IterationIndex, 1
MetaData, TestRecord.Preservation, true
MetaData, TestRecord.Flag, #
MetaData, TestRecord.Remarks, #188_F_implant_5nm_cap_die2_r4c2_F20
MetaData, TestRecord.LinkKey, 343641c4-ecb8-4caa-bc34-99e473ca39cc
Dimension1, 201, 201, 201, 201, 201, 201, 201
Dimension2, 1, 1, 1, 1, 1, 1, 1
DataName, Vd, Id, Ig, Vg, Id_dens, Ig_dens, gm
DataValue, 5, 2.5250000000000002E-12, -1.6000000000000002E-10, -5, 4.2083333333333337E-11, 2.666666666666667E-09, -2.2233333333333422E-10
DataValue, 5, 1.858E-12, -1.2E-10, -4.95, 3.0966666666666666E-11, 2E-09, -1.7066666666666727E-10
DataValue, 5, 1.5010000000000002E-12, -1.1000000000000001E-10, -4.9, 2.5016666666666669E-11, 1.8333333333333336E-09, -6.55000000000002E-11
DataValue, 5, 1.4650000000000001E-12, -1.2E-10, -4.8500000000000005, 2.441666666666667E-11, 2E-09, -5.7333333333333549E-11
DataValue, 5, 1.157E-12, -1.1000000000000001E-10, -4.8000000000000007, 1.9283333333333335E-11, 1.8333333333333336E-09, -2.0499999999999878E-11
DataValue, 5, 1.3420000000000001E-12, -1.1000000000000001E-10, -4.75, 2.2366666666666671E-11, 1.8333333333333336E-09, 2.4833333333333193E-11
DataValue, 5, 1.306E-12, -1.1000000000000001E-10, -4.7, 2.1766666666666668E-11, 1.8333333333333336E-09, -3.2333333333333448E-11
DataValue, 5, 1.1480000000000002E-12, -1.1000000000000001E-10, -4.65, 1.9133333333333338E-11, 1.8333333333333336E-09, -3.4500000000000107E-11
DataValue, 5, 1.099E-12, -1.1000000000000001E-10, -4.6000000000000005, 1.8316666666666669E-11, 1.8333333333333336E-09, -4.2833333333333509E-11
DataValue, 5, 8.91E-13, -1.0000000000000002E-10, -4.5500000000000007, 1.4850000000000002E-11, 1.6666666666666669E-09, -1.6999999999999922E-11
DataValue, 5, 9.97E-13, -1.0000000000000002E-10, -4.5, 1.6616666666666668E-11, 1.6666666666666669E-09, 2.5499999999999834E-11
DataValue, 5, 1.044E-12, -1.1000000000000001E-10, -4.45, 1.74E-11, 1.8333333333333336E-09, 7.3333333333333791E-12
DataValue, 5, 1.0410000000000001E-12, -1.0000000000000002E-10, -4.4, 1.7350000000000003E-11, 1.6666666666666669E-09, -1.4333333333333355E-11
DataValue, 5, 9.5800000000000016E-13, -1.0000000000000002E-10, -4.3500000000000005, 1.5966666666666669E-11, 1.6666666666666669E-09, -3.616666666666682E-11
DataValue, 5, 8.24E-13, -1.1000000000000001E-10, -4.3000000000000007, 1.3733333333333334E-11, 1.8333333333333336E-09, -1.79999999999999E-11
DataValue, 5, 8.5000000000000011E-13, -1.1000000000000001E-10, -4.25, 1.4166666666666669E-11, 1.8333333333333336E-09, 1.0000000000000107E-12
DataValue, 5, 8.300000000000001E-13, -1.0000000000000002E-10, -4.2, 1.3833333333333336E-11, 1.6666666666666669E-09, -7.8333333333333725E-12
DataValue, 5, 8.0300000000000011E-13, -9.0000000000000012E-11, -4.15, 1.3383333333333335E-11, 1.5000000000000002E-09, 2.0166666666666736E-11
DataValue, 5, 9.51E-13, -1.0000000000000002E-10, -4.1000000000000005, 1.5850000000000002E-11, 1.6666666666666669E-09, 6.33333333333336E-12
DataValue, 5, 8.4100000000000005E-13, -1.0000000000000002E-10, -4.0500000000000007, 1.4016666666666669E-11, 1.6666666666666669E-09, -2.2666666666666553E-11
DataValue, 5, 8.1500000000000006E-13, -1.1000000000000001E-10, -4, 1.3583333333333335E-11, 1.8333333333333336E-09, -1.1833333333333281E-11
DataValue, 5, 7.7000000000000005E-13, -1.0000000000000002E-10, -3.95, 1.2833333333333334E-11, 1.6666666666666669E-09, -2.1333333333333408E-11
DataValue, 5, 6.870000000000001E-13, -1.0000000000000002E-10, -3.9000000000000004, 1.1450000000000002E-11, 1.6666666666666669E-09, -3.2000000000000109E-11
DataValue, 5, 5.7800000000000006E-13, -1.0000000000000002E-10, -3.8500000000000005, 9.633333333333335E-12, 1.6666666666666669E-09, 1.2333333333333325E-11
DataValue, 5, 7.6100000000000009E-13, -1.0000000000000002E-10, -3.8000000000000003, 1.2683333333333335E-11, 1.6666666666666669E-09, 3.0333333333333306E-11
DataValue, 5, 7.6000000000000009E-13, -9.0000000000000012E-11, -3.7500000000000004, 1.2666666666666668E-11, 1.5000000000000002E-09, -1.8333333333333448E-12
DataValue, 5, 7.5E-13, -1.0000000000000002E-10, -3.7, 1.25E-11, 1.6666666666666669E-09, 7.33333333333333E-12
DataValue, 5, 8.0400000000000011E-13, -9.0000000000000012E-11, -3.6500000000000004, 1.3400000000000002E-11, 1.5000000000000002E-09, 4.1666666666666644E-12
DataValue, 5, 7.75E-13, -9.0000000000000012E-11, -3.6, 1.2916666666666667E-11, 1.5000000000000002E-09, -2.6833333333333318E-11
DataValue, 5, 6.4300000000000009E-13, -9.0000000000000012E-11, -3.5500000000000003, 1.0716666666666668E-11, 1.5000000000000002E-09, -2.7833333333333425E-11
DataValue, 5, 6.08E-13, -9.0000000000000012E-11, -3.5000000000000004, 1.0133333333333335E-11, 1.5000000000000002E-09, -4.9999999999999141E-13
DataValue, 5, 6.400000000000001E-13, -9.0000000000000012E-11, -3.45, 1.0666666666666669E-11, 1.5000000000000002E-09, 1.6833333333333311E-11
DataValue, 5, 7.09E-13, -8.0000000000000008E-11, -3.4000000000000004, 1.1816666666666668E-11, 1.3333333333333335E-09, 1.5666666666666661E-11
DataValue, 5, 7.340000000000001E-13, -9.0000000000000012E-11, -3.35, 1.2233333333333336E-11, 1.5000000000000002E-09, -1.2499999999999994E-11
DataValue, 5, 6.34E-13, -9.0000000000000012E-11, -3.3000000000000003, 1.0566666666666667E-11, 1.5000000000000002E-09, -2.4833333333333445E-11
DataValue, 5, 5.85E-13, -9.0000000000000012E-11, -3.2500000000000004, 9.75E-12, 1.5000000000000002E-09, 0
DataValue, 5, 6.34E-13, -9.0000000000000012E-11, -3.2, 1.0566666666666667E-11, 1.5000000000000002E-09, 4.6666666666666724E-12
DataValue, 5, 6.13E-13, -9.0000000000000012E-11, -3.1500000000000004, 1.0216666666666668E-11, 1.5000000000000002E-09, -4.9999999999999141E-13
DataValue, 5, 6.31E-13, -9.0000000000000012E-11, -3.1, 1.0516666666666668E-11, 1.5000000000000002E-09, 1.5999999999999984E-11
DataValue, 5, 7.09E-13, -9.0000000000000012E-11, -3.0500000000000003, 1.1816666666666668E-11, 1.5000000000000002E-09, -1.1666666666666733E-12
DataValue, 5, 6.2400000000000007E-13, -9.0000000000000012E-11, -3.0000000000000004, 1.0400000000000001E-11, 1.5000000000000002E-09, -2.0499999999999984E-11
DataValue, 5, 5.86E-13, -9.0000000000000012E-11, -2.95, 9.7666666666666672E-12, 1.5000000000000002E-09, -2.3999999999999972E-11
DataValue, 5, 4.8000000000000008E-13, -9.0000000000000012E-11, -2.9000000000000004, 8.0000000000000015E-12, 1.5000000000000002E-09, -1.5666666666666645E-11
DataValue, 5, 4.92E-13, -9.0000000000000012E-11, -2.85, 8.2000000000000014E-12, 1.5000000000000002E-09, 8.3333333333333288E-12
DataValue, 5, 5.3000000000000006E-13, -9.0000000000000012E-11, -2.8000000000000003, 8.8333333333333351E-12, 1.5000000000000002E-09, 1.0500000000000043E-11
DataValue, 5, 5.5500000000000006E-13, -9.0000000000000012E-11, -2.7500000000000004, 9.250000000000002E-12, 1.5000000000000002E-09, 8.99999999999999E-12
DataValue, 5, 5.84E-13, -9.0000000000000012E-11, -2.7, 9.7333333333333349E-12, 1.5000000000000002E-09, 4.4999999999999869E-12
DataValue, 5, 5.82E-13, -1.0000000000000002E-10, -2.6500000000000004, 9.7000000000000011E-12, 1.6666666666666669E-09, -6.8333333333333388E-12
DataValue, 5, 5.43E-13, -1.0000000000000002E-10, -2.6, 9.05E-12, 1.6666666666666669E-09, -1.3666666666666662E-11
DataValue, 5, 5E-13, -9.0000000000000012E-11, -2.5500000000000003, 8.3333333333333336E-12, 1.5000000000000002E-09, -3.3333333333333834E-13
DataValue, 5, 5.41E-13, -9.0000000000000012E-11, -2.5, 9.0166666666666665E-12, 1.5000000000000002E-09, 1.6666666666668533E-13
DataValue, 5, 5.0100000000000009E-13, -9.0000000000000012E-11, -2.45, 8.3500000000000022E-12, 1.5000000000000002E-09, 1.1833333333333386E-11
DataValue, 5, 6.12E-13, -9.0000000000000012E-11, -2.4000000000000004, 1.0200000000000001E-11, 1.5000000000000002E-09, 1.4333333333333307E-11
DataValue, 5, 5.87E-13, -9.0000000000000012E-11, -2.35, 9.7833333333333341E-12, 1.5000000000000002E-09, -1.5666666666666661E-11
DataValue, 5, 5.18E-13, -8.0000000000000008E-11, -2.3000000000000003, 8.6333333333333336E-12, 1.3333333333333335E-09, -9.99999999999999E-13
DataValue, 5, 5.81E-13, -9.0000000000000012E-11, -2.25, 9.6833333333333341E-12, 1.5000000000000002E-09, -1.7499999999999982E-11
DataValue, 5, 4.13E-13, -9.0000000000000012E-11, -2.2, 6.883333333333334E-12, 1.5000000000000002E-09, -1.8000000000000077E-11
DataValue, 5, 4.73E-13, -9.0000000000000012E-11, -2.1500000000000004, 7.8833333333333329E-12, 1.5000000000000002E-09, 6.4999999999999929E-12
DataValue, 5, 4.5200000000000004E-13, -9.0000000000000012E-11, -2.1, 7.5333333333333338E-12, 1.5000000000000002E-09, 2.0000000000000141E-12
DataValue, 5, 4.8500000000000005E-13, -9.0000000000000012E-11, -2.0500000000000003, 8.0833333333333345E-12, 1.5000000000000002E-09, 3.6666666666666572E-12
DataValue, 5, 4.74E-13, -9.0000000000000012E-11, -2, 7.9E-12, 1.5000000000000002E-09, 1.1499999999999996E-11
DataValue, 5, 5.5400000000000006E-13, -8.0000000000000008E-11, -1.9500000000000002, 9.2333333333333351E-12, 1.3333333333333335E-09, 1.5500000000000024E-11
DataValue, 5, 5.67E-13, -9.0000000000000012E-11, -1.9000000000000001, 9.45E-12, 1.5000000000000002E-09, -2.9666666666666655E-11
DataValue, 5, 3.76E-13, -9.0000000000000012E-11, -1.85, 6.2666666666666672E-12, 1.5000000000000002E-09, -5.6666666666666552E-12
DataValue, 5, 5.3300000000000005E-13, -9.0000000000000012E-11, -1.8, 8.8833333333333343E-12, 1.5000000000000002E-09, 1.1666666666666683E-11
DataValue, 5, 4.46E-13, -9.0000000000000012E-11, -1.7500000000000002, 7.4333333333333338E-12, 1.5000000000000002E-09, -1.7166666666666688E-11
DataValue, 5, 4.3000000000000004E-13, -1.0000000000000002E-10, -1.7000000000000002, 7.1666666666666678E-12, 1.6666666666666669E-09, 9.8333333333333365E-12
DataValue, 5, 5.0500000000000007E-13, -9.0000000000000012E-11, -1.6500000000000001, 8.4166666666666683E-12, 1.5000000000000002E-09, -4.3333333333333337E-12
DataValue, 5, 4.0400000000000005E-13, -9.0000000000000012E-11, -1.6, 6.733333333333334E-12, 1.5000000000000002E-09, -3.3333333333333834E-13
DataValue, 5, 5.0300000000000008E-13, -9.0000000000000012E-11, -1.55, 8.3833333333333344E-12, 1.5000000000000002E-09, -3.33333333333331E-13
DataValue, 5, 4.0200000000000005E-13, -9.0000000000000012E-11, -1.5000000000000002, 6.7000000000000009E-12, 1.5000000000000002E-09, -1.2000000000000022E-11
DataValue, 5, 4.3100000000000003E-13, -9.0000000000000012E-11, -1.4500000000000002, 7.1833333333333339E-12, 1.5000000000000002E-09, 5.6666666666666552E-12
DataValue, 5, 4.36E-13, -9.0000000000000012E-11, -1.4000000000000001, 7.2666666666666669E-12, 1.5000000000000002E-09, 1.8499999999999978E-11
DataValue, 5, 5.42E-13, -9.0000000000000012E-11, -1.35, 9.0333333333333335E-12, 1.5000000000000002E-09, 2.7833333333333324E-11
DataValue, 5, 6.0300000000000006E-13, -9.0000000000000012E-11, -1.3, 1.0050000000000002E-11, 1.5000000000000002E-09, -1.1833333333333317E-11
DataValue, 5, 4.71E-13, -9.0000000000000012E-11, -1.25, 7.85E-12, 1.5000000000000002E-09, -4.5833333333333408E-11
DataValue, 5, 3.28E-13, -9.0000000000000012E-11, -1.2000000000000002, 5.4666666666666673E-12, 1.5000000000000002E-09, -6.5000000000000074E-12
DataValue, 5, 4.3200000000000003E-13, -9.0000000000000012E-11, -1.1500000000000001, 7.2000000000000008E-12, 1.5000000000000002E-09, 8.33333333333332E-12
DataValue, 5, 3.78E-13, -1.0000000000000002E-10, -1.1, 6.3E-12, 1.6666666666666669E-09, -8.66666666666666E-12
DataValue, 5, 3.8000000000000005E-13, -9.0000000000000012E-11, -1.05, 6.3333333333333341E-12, 1.5000000000000002E-09, 2.6833333333333318E-11
DataValue, 5, 5.39E-13, -9.0000000000000012E-11, -1, 8.9833333333333343E-12, 1.5000000000000002E-09, 2.1333333333333337E-11
DataValue, 5, 5.0800000000000006E-13, -9.0000000000000012E-11, -0.95000000000000007, 8.4666666666666675E-12, 1.5000000000000002E-09, -1.216666666666667E-11
DataValue, 5, 4.66E-13, -1.0000000000000002E-10, -0.9, 7.7666666666666676E-12, 1.6666666666666669E-09, -1.116666666666667E-11
DataValue, 5, 4.4100000000000004E-13, -9.0000000000000012E-11, -0.85000000000000009, 7.35E-12, 1.5000000000000002E-09, 1.3500000000000008E-11
DataValue, 5, 5.4700000000000009E-13, -9.0000000000000012E-11, -0.8, 9.1166666666666681E-12, 1.5000000000000002E-09, 1.3E-11
DataValue, 5, 5.19E-13, -8.0000000000000008E-11, -0.75000000000000011, 8.65E-12, 1.3333333333333335E-09, 1.3600000000000007E-10
DataValue, 5, 1.3630000000000002E-12, -9.0000000000000012E-11, -0.70000000000000007, 2.2716666666666672E-11, 1.5000000000000002E-09, 7.6149999999999939E-10
DataValue, 5, 5.088E-12, -9.0000000000000012E-11, -0.65, 8.4800000000000007E-11, 1.5000000000000002E-09, 2.8785000000000012E-09
DataValue, 5, 1.8634E-11, -9.0000000000000012E-11, -0.60000000000000009, 3.105666666666667E-10, 1.5000000000000002E-09, 1.1802833333333337E-08
DataValue, 5, 7.5905000000000008E-11, -9.0000000000000012E-11, -0.55, 1.2650833333333334E-09, 1.5000000000000002E-09, 4.0248833333333308E-08
DataValue, 5, 2.6012700000000004E-10, -9.0000000000000012E-11, -0.5, 4.3354500000000008E-09, 1.5000000000000002E-09, 1.5198416666666661E-07
DataValue, 5, 9.8781E-10, -9.0000000000000012E-11, -0.45, 1.64635E-08, 1.5000000000000002E-09, 5.5548716666666675E-07
DataValue, 5, 3.59305E-09, -9.0000000000000012E-11, -0.4, 5.9884166666666667E-08, 1.5000000000000002E-09, 1.8680983333333337E-06
DataValue, 5, 1.2196399999999999E-08, -9.0000000000000012E-11, -0.35000000000000003, 2.0327333333333331E-07, 1.5000000000000002E-09, 4.9655083333333343E-06
DataValue, 5, 3.33861E-08, -1.0000000000000002E-10, -0.30000000000000004, 5.56435E-07, 1.6666666666666669E-09, 1.2077216666666662E-05
DataValue, 5, 8.4659699999999989E-08, -1.0000000000000002E-10, -0.25, 1.4109949999999998E-06, 1.6666666666666669E-09, 2.8236149999999989E-05
DataValue, 5, 2.02803E-07, -1.0000000000000002E-10, -0.2, 3.38005E-06, 1.6666666666666669E-09, 5.9879883333333359E-05
DataValue, 5, 4.43939E-07, -9.0000000000000012E-11, -0.15000000000000002, 7.3989833333333339E-06, 1.5000000000000002E-09, 0.00011199566666666667
