
SetupTitle, HEMT_transfer
PrimitiveTest, I/V Sweep
TestParameter, Context.MainFrame, B1500A
TestParameter, Channel.UnitType, SMU, SMU, SMU
TestParameter, Channel.Unit, SMU1:MP, SMU2:MC, GNDU:GND
TestParameter, Channel.IName, Id, Ig, Is
TestParameter, Channel.VName, Vd, Vg, Vs
TestParameter, Channel.Mode, V, V, COMMON
TestParameter, Channel.Func, CONST, VAR1, CONST
TestParameter, Channel.Index, 
TestParameter, Channel.Time, 
TestParameter, Measurement.Port.Unit, SMU1:MP, SMU2:MC, GNDU:GND
TestParameter, Measurement.Port.SeriesResistor, NONE, NONE, NONE
TestParameter, Measurement.Port.Filter, ON, ON, ON
TestParameter, Measurement.Port.OutputVoltageComparison, 0, 0, 0
TestParameter, Measurement.Primary.Locus, Single
TestParameter, Measurement.Primary.Scale, LINEAR
TestParameter, Measurement.Primary.Start, -5
TestParameter, Measurement.Primary.Stop, 5
TestParameter, Measurement.Primary.Step, 0.05
TestParameter, Measurement.Primary.Compliance, 0.001
TestParameter, Measurement.Primary.PowerCompliance, 0
TestParameter, Measurement.Aborting.Condition, CONTINUE AT ANY
TestParameter, Measurement.PostOutput.Value, START
TestParameter, Measurement.PostOutput.Retention, OFF
TestParameter, Measurement.Bias.Source, 5, -5, 0
TestParameter, Measurement.Bias.Compliance, 0.1, 0.001, 2
TestParameter, Measurement.Monitor.Unit, SMU1:MP, SMU2:MC, GNDU:GND
TestParameter, Measurement.Monitor.Adc, HR ADC, HS ADC, HR ADC
TestParameter, Measurement.Monitor.Measurement, Compliance Side, Force and Compliance Sides, Compliance Side
TestParameter, Measurement.Monitor.RangingMode, LIMITED, LIMITED, LIMITED
TestParameter, Measurement.Monitor.RangeBoundary, 1nA, 10uA, 1nA
TestParameter, Measurement.Monitor.RangeRating, BY FULL RANGE, BY FULL RANGE, BY FULL RANGE
TestParameter, Measurement.Monitor.RangeRatingCoeff, 50, 50, 50
TestParameter, Measurement.Timing.Hold, 0
TestParameter, Measurement.Timing.Delay, 0
TestParameter, Measurement.Adc.HighSpeed.Mode, PLC
TestParameter, Measurement.Adc.HighSpeed.Coeff, 2
TestParameter, Measurement.Adc.HighResolution.AutoZero, OFF
TestParameter, Measurement.Adc.HighResolution.Mode, PLC
TestParameter, Measurement.Adc.HighResolution.Coeff, 2
TestParameter, Measurement.WaitTime.Source.Coeff, 1
TestParameter, Measurement.WaitTime.Source.Offset, 0
TestParameter, Measurement.WaitTime.Monitor.Coeff, 1
TestParameter, Measurement.WaitTime.Monitor.Offset, 0
TestParameter, Function.User.Name, Id_dens, Ig_dens, gm
TestParameter, Function.User.Unit, A/mm, A/mm, S/mm
TestParameter, Function.User.Definition, Id/0.06, abs(Ig)/0.06, diff(Id_dens,Vg)
TestParameter, Output.Graph.Enabled, true
TestParameter, Output.Graph.AutoScaling, false
TestParameter, Output.Graph.XAxis.Data, Vg
TestParameter, Output.Graph.XAxis.Scale, Linear
TestParameter, Output.Graph.XAxis.Left, -2
TestParameter, Output.Graph.XAxis.Right, 10
TestParameter, Output.Graph.XAxis.RunTimeAutoScale, false
TestParameter, Output.Graph.YAxis.Data, Id_dens, Id_dens, gm, Ig_dens
TestParameter, Output.Graph.YAxis.Scale, Log, Linear, Linear, Log
TestParameter, Output.Graph.YAxis.Bottom, 0, 0, 0, 0
TestParameter, Output.Graph.YAxis.Top, 1, 1, 1, 1
TestParameter, Output.Graph.YAxis.Group, , , , 
TestParameter, Output.Graph.YAxis.RunTimeAutoScale, false, false, false, false
TestParameter, Output.List.Data, Vg, Id_dens, Ig_dens, Vd, gm
TestParameter, AutoAnalysis.Interpolation, false
TestParameter, AutoAnalysis.Line1.Enabled, false
TestParameter, AutoAnalysis.Line1.Type, 1
TestParameter, AutoAnalysis.Line1.Fix, True
TestParameter, AutoAnalysis.Line1.YAxis, 0
TestParameter, AutoAnalysis.Line1.Point1.Type, 0
TestParameter, AutoAnalysis.Line1.Point1.XY.X, 
TestParameter, AutoAnalysis.Line1.Point1.XY.Y, 
TestParameter, AutoAnalysis.Line1.Point1.Data.Var, 
TestParameter, AutoAnalysis.Line1.Point1.Data.Condition, 
TestParameter, AutoAnalysis.Line1.Point1.Data.Start, false
TestParameter, AutoAnalysis.Line1.Point1.Data.StartVar, 
TestParameter, AutoAnalysis.Line1.Point1.Data.StartCondition, 
TestParameter, AutoAnalysis.Line1.Point2.Type, 0
TestParameter, AutoAnalysis.Line1.Point2.XY.X, 
TestParameter, AutoAnalysis.Line1.Point2.XY.Y, 
TestParameter, AutoAnalysis.Line1.Point2.Data.Var, 
TestParameter, AutoAnalysis.Line1.Point2.Data.Condition, 
TestParameter, AutoAnalysis.Line1.Point2.Data.Start, false
TestParameter, AutoAnalysis.Line1.Point2.Data.StartVar, 
TestParameter, AutoAnalysis.Line1.Point2.Data.StartCondition, 
TestParameter, AutoAnalysis.Line1.GradientExpr, 0
TestParameter, AutoAnalysis.Line2.Enabled, false
TestParameter, AutoAnalysis.Line2.Type, 1
TestParameter, AutoAnalysis.Line2.Fix, True
TestParameter, AutoAnalysis.Line2.YAxis, 0
TestParameter, AutoAnalysis.Line2.Point1.Type, 0
TestParameter, AutoAnalysis.Line2.Point1.XY.X, 
TestParameter, AutoAnalysis.Line2.Point1.XY.Y, 
TestParameter, AutoAnalysis.Line2.Point1.Data.Var, 
TestParameter, AutoAnalysis.Line2.Point1.Data.Condition, 
TestParameter, AutoAnalysis.Line2.Point1.Data.Start, false
TestParameter, AutoAnalysis.Line2.Point1.Data.StartVar, 
TestParameter, AutoAnalysis.Line2.Point1.Data.StartCondition, 
TestParameter, AutoAnalysis.Line2.Point2.Type, 0
TestParameter, AutoAnalysis.Line2.Point2.XY.X, 
TestParameter, AutoAnalysis.Line2.Point2.XY.Y, 
TestParameter, AutoAnalysis.Line2.Point2.Data.Var, 
TestParameter, AutoAnalysis.Line2.Point2.Data.Condition, 
TestParameter, AutoAnalysis.Line2.Point2.Data.Start, false
TestParameter, AutoAnalysis.Line2.Point2.Data.StartVar, 
TestParameter, AutoAnalysis.Line2.Point2.Data.StartCondition, 
TestParameter, AutoAnalysis.Line2.GradientExpr, 0
TestParameter, AutoAnalysis.Marker.Enabled, false
TestParameter, AutoAnalysis.Marker.Data.Var, 
TestParameter, AutoAnalysis.Marker.Data.Condition, 
TestParameter, AutoAnalysis.Marker.Data.Start, false
TestParameter, AutoAnalysis.Marker.Data.StartVar, 
TestParameter, AutoAnalysis.Marker.Data.StartCondition, 
MetaData, TestRecord.EntryPoint, true
MetaData, TestRecord.RecordTime, 08/14/2019 11:12:55
MetaData, TestRecord.TestTarget, 
MetaData, TestRecord.IterationIndex, 2
MetaData, TestRecord.Preservation, true
MetaData, TestRecord.Flag, #
MetaData, TestRecord.Remarks, #188_F_implant_5nm_cap_die2_r4c1_W70_S70
MetaData, TestRecord.LinkKey, 9c3e772f-fb7e-4dc3-8831-28108b5409e2
Dimension1, 201, 201, 201, 201, 201, 201, 201
Dimension2, 1, 1, 1, 1, 1, 1, 1
DataName, Vd, Id, Ig, Vg, Id_dens, Ig_dens, gm
DataValue, 5, 2.967E-12, -2.0000000000000003E-10, -5, 4.9450000000000008E-11, 3.3333333333333338E-09, -2.0766666666666753E-10
DataValue, 5, 2.344E-12, -1.5000000000000003E-10, -4.95, 3.9066666666666669E-11, 2.5000000000000005E-09, -1.3633333333333382E-10
DataValue, 5, 2.1490000000000002E-12, -1.5000000000000003E-10, -4.9, 3.5816666666666674E-11, 2.5000000000000005E-09, -7.3000000000000226E-11
DataValue, 5, 1.906E-12, -1.5000000000000003E-10, -4.8500000000000005, 3.1766666666666672E-11, 2.5000000000000005E-09, -6.61666666666669E-11
DataValue, 5, 1.7520000000000002E-12, -1.5000000000000003E-10, -4.8000000000000007, 2.9200000000000006E-11, 2.5000000000000005E-09, -4.9499999999999764E-11
DataValue, 5, 1.6090000000000001E-12, -1.4E-10, -4.75, 2.6816666666666669E-11, 2.3333333333333335E-09, -6.1333333333333044E-11
DataValue, 5, 1.3840000000000002E-12, -1.5000000000000003E-10, -4.7, 2.3066666666666669E-11, 2.5000000000000005E-09, -3.5500000000000129E-11
DataValue, 5, 1.3960000000000001E-12, -1.6000000000000002E-10, -4.65, 2.3266666666666669E-11, 2.666666666666667E-09, 2.8333333333333724E-12
DataValue, 5, 1.4010000000000002E-12, -1.5000000000000003E-10, -4.6000000000000005, 2.3350000000000005E-11, 2.5000000000000005E-09, -2.4833333333333445E-11
DataValue, 5, 1.247E-12, -1.4E-10, -4.5500000000000007, 2.0783333333333333E-11, 2.3333333333333335E-09, -1.7666666666666628E-11
DataValue, 5, 1.295E-12, -1.5000000000000003E-10, -4.5, 2.1583333333333333E-11, 2.5000000000000005E-09, -1.5499999999999888E-11
DataValue, 5, 1.1540000000000001E-12, -1.4E-10, -4.45, 1.9233333333333336E-11, 2.3333333333333335E-09, -2.016666666666672E-11
DataValue, 5, 1.174E-12, -1.3000000000000002E-10, -4.4, 1.9566666666666668E-11, 2.166666666666667E-09, 5.6666666666667125E-12
DataValue, 5, 1.1880000000000002E-12, -1.3000000000000002E-10, -4.3500000000000005, 1.9800000000000005E-11, 2.166666666666667E-09, -1.6666666666666732E-11
DataValue, 5, 1.074E-12, -1.3000000000000002E-10, -4.3000000000000007, 1.79E-11, 2.166666666666667E-09, -2.1999999999999911E-11
DataValue, 5, 1.0560000000000002E-12, -1.3000000000000002E-10, -4.25, 1.7600000000000003E-11, 2.166666666666667E-09, -5.1666666666666407E-12
DataValue, 5, 1.043E-12, -1.3000000000000002E-10, -4.2, 1.7383333333333334E-11, 2.166666666666667E-09, 5.1666666666666868E-12
DataValue, 5, 1.0870000000000001E-12, -1.3000000000000002E-10, -4.15, 1.8116666666666669E-11, 2.166666666666667E-09, -6.4999999999999816E-12
DataValue, 5, 1.0040000000000002E-12, -1.4E-10, -4.1000000000000005, 1.6733333333333338E-11, 2.3333333333333335E-09, -2.6333333333333459E-11
DataValue, 5, 9.29E-13, -1.4E-10, -4.0500000000000007, 1.5483333333333333E-11, 2.3333333333333335E-09, -4.8333333333333683E-12
DataValue, 5, 9.75E-13, -1.4E-10, -4, 1.625E-11, 2.3333333333333335E-09, -6.8333333333332928E-12
DataValue, 5, 8.8800000000000005E-13, -1.3000000000000002E-10, -3.95, 1.48E-11, 2.166666666666667E-09, -1.7000000000000025E-11
DataValue, 5, 8.7300000000000012E-13, -1.4E-10, -3.9000000000000004, 1.4550000000000002E-11, 2.3333333333333335E-09, -2.1666666666666718E-11
DataValue, 5, 7.580000000000001E-13, -1.3000000000000002E-10, -3.8500000000000005, 1.2633333333333336E-11, 2.166666666666667E-09, 8.333333333333459E-13
DataValue, 5, 8.780000000000001E-13, -1.3000000000000002E-10, -3.8000000000000003, 1.4633333333333337E-11, 2.166666666666667E-09, 1.0833333333333302E-11
DataValue, 5, 8.23E-13, -1.3000000000000002E-10, -3.7500000000000004, 1.3716666666666667E-11, 2.166666666666667E-09, -5.8333333333333568E-12
DataValue, 5, 8.43E-13, -1.3000000000000002E-10, -3.7, 1.4050000000000001E-11, 2.166666666666667E-09, 2.8333333333333437E-12
DataValue, 5, 8.4000000000000006E-13, -1.4E-10, -3.6500000000000004, 1.4000000000000002E-11, 2.3333333333333335E-09, -2.6999999999999971E-11
DataValue, 5, 6.81E-13, -1.3000000000000002E-10, -3.6, 1.1350000000000002E-11, 2.166666666666667E-09, -9.99999999999999E-12
DataValue, 5, 7.8000000000000011E-13, -1.3000000000000002E-10, -3.5500000000000003, 1.3000000000000002E-11, 2.166666666666667E-09, 1.4333333333333387E-11
DataValue, 5, 7.6700000000000006E-13, -1.3000000000000002E-10, -3.5000000000000004, 1.2783333333333335E-11, 2.166666666666667E-09, -1.5000000000000063E-12
DataValue, 5, 7.71E-13, -1.3000000000000002E-10, -3.45, 1.2850000000000001E-11, 2.166666666666667E-09, 3.9999999999999959E-12
DataValue, 5, 7.9100000000000006E-13, -1.3000000000000002E-10, -3.4000000000000004, 1.3183333333333335E-11, 2.166666666666667E-09, -2.9999999999999965E-12
DataValue, 5, 7.53E-13, -1.3000000000000002E-10, -3.35, 1.2550000000000001E-11, 2.166666666666667E-09, -4.4999999999999869E-12
DataValue, 5, 7.6400000000000008E-13, -1.2E-10, -3.3000000000000003, 1.2733333333333336E-11, 2E-09, -5.1666666666666868E-12
DataValue, 5, 7.2200000000000005E-13, -1.3000000000000002E-10, -3.2500000000000004, 1.2033333333333334E-11, 2.166666666666667E-09, 3.9999999999999959E-12
DataValue, 5, 7.8800000000000008E-13, -1.3000000000000002E-10, -3.2, 1.3133333333333336E-11, 2.166666666666667E-09, 5.6666666666666552E-12
DataValue, 5, 7.56E-13, -1.3000000000000002E-10, -3.1500000000000004, 1.26E-11, 2.166666666666667E-09, -1.7500000000000004E-11
DataValue, 5, 6.83E-13, -1.3000000000000002E-10, -3.1, 1.1383333333333334E-11, 2.166666666666667E-09, -1.4666666666666645E-11
DataValue, 5, 6.6800000000000008E-13, -1.3000000000000002E-10, -3.0500000000000003, 1.1133333333333335E-11, 2.166666666666667E-09, 1.1833333333333386E-11
DataValue, 5, 7.54E-13, -1.3000000000000002E-10, -3.0000000000000004, 1.2566666666666668E-11, 2.166666666666667E-09, -1.3499999999999994E-11
DataValue, 5, 5.87E-13, -1.2E-10, -2.95, 9.7833333333333341E-12, 2E-09, -4.6666666666666724E-12
DataValue, 5, 7.26E-13, -1.2E-10, -2.9000000000000004, 1.21E-11, 2E-09, 1.6333333333333322E-11
DataValue, 5, 6.85E-13, -1.3000000000000002E-10, -2.85, 1.1416666666666668E-11, 2.166666666666667E-09, -1.8333333333333318E-11
DataValue, 5, 6.16E-13, -1.3000000000000002E-10, -2.8000000000000003, 1.0266666666666667E-11, 2.166666666666667E-09, -6.6666666666666832E-12
DataValue, 5, 6.4500000000000008E-13, -1.3000000000000002E-10, -2.7500000000000004, 1.0750000000000002E-11, 2.166666666666667E-09, 1.5000000000000063E-12
DataValue, 5, 6.2500000000000006E-13, -1.2E-10, -2.7, 1.0416666666666668E-11, 2E-09, 1.9999999999999979E-12
DataValue, 5, 6.57E-13, -1.3000000000000002E-10, -2.6500000000000004, 1.0950000000000002E-11, 2.166666666666667E-09, -1.3333333333333211E-12
DataValue, 5, 6.170000000000001E-13, -1.3000000000000002E-10, -2.6, 1.0283333333333336E-11, 2.166666666666667E-09, -2.6666666666666583E-12
DataValue, 5, 6.410000000000001E-13, -1.2E-10, -2.5500000000000003, 1.0683333333333336E-11, 2E-09, 3.1666666666666497E-12
DataValue, 5, 6.36E-13, -1.3000000000000002E-10, -2.5, 1.0600000000000001E-11, 2.166666666666667E-09, -1.5000000000000063E-12
DataValue, 5, 6.32E-13, -1.3000000000000002E-10, -2.45, 1.0533333333333335E-11, 2.166666666666667E-09, 1.0666666666666712E-11
DataValue, 5, 7E-13, -1.2E-10, -2.4000000000000004, 1.1666666666666668E-11, 2E-09, -7.1666666666666613E-12
DataValue, 5, 5.89E-13, -1.3000000000000002E-10, -2.35, 9.816666666666668E-12, 2.166666666666667E-09, -1.9666666666666657E-11
DataValue, 5, 5.82E-13, -1.2E-10, -2.3000000000000003, 9.7000000000000011E-12, 2E-09, -1.8333333333333286E-12
DataValue, 5, 5.7800000000000006E-13, -1.2E-10, -2.25, 9.633333333333335E-12, 2E-09, 2.0000000000000141E-12
DataValue, 5, 5.9400000000000009E-13, -1.1000000000000001E-10, -2.2, 9.9000000000000026E-12, 1.8333333333333336E-09, 7.0000000000000235E-12
DataValue, 5, 6.2000000000000008E-13, -1.1000000000000001E-10, -2.1500000000000004, 1.0333333333333335E-11, 1.8333333333333336E-09, -3.333333333333545E-13
DataValue, 5, 5.92E-13, -1.3000000000000002E-10, -2.1, 9.8666666666666672E-12, 2.166666666666667E-09, -9.4999999999999979E-12
DataValue, 5, 5.63E-13, -1.2E-10, -2.0500000000000003, 9.3833333333333342E-12, 2E-09, -5.6666666666666552E-12
DataValue, 5, 5.58E-13, -1.2E-10, -2, 9.3000000000000012E-12, 2E-09, 6.66666666666667E-12
DataValue, 5, 6.0300000000000006E-13, -1.1000000000000001E-10, -1.9500000000000002, 1.0050000000000002E-11, 1.8333333333333336E-09, 6.1666666666666761E-12
DataValue, 5, 5.9500000000000009E-13, -1.2E-10, -1.9000000000000001, 9.916666666666668E-12, 2E-09, -1.4666666666666661E-11
DataValue, 5, 5.15E-13, -1.2E-10, -1.85, 8.5833333333333344E-12, 2E-09, -9.4999999999999979E-12
DataValue, 5, 5.38E-13, -1.2E-10, -1.8, 8.9666666666666674E-12, 2E-09, 3.1666666666666727E-12
DataValue, 5, 5.34E-13, -1.2E-10, -1.7500000000000002, 8.9000000000000013E-12, 2E-09, 7.1666666666666775E-12
DataValue, 5, 5.81E-13, -1.2E-10, -1.7000000000000002, 9.6833333333333341E-12, 2E-09, -1.1333333333333327E-11
DataValue, 5, 4.66E-13, -1.2E-10, -1.6500000000000001, 7.7666666666666676E-12, 2E-09, -2.6666666666666583E-12
DataValue, 5, 5.65E-13, -1.1000000000000001E-10, -1.6, 9.4166666666666681E-12, 1.8333333333333336E-09, 1.3499999999999994E-11
DataValue, 5, 5.4700000000000009E-13, -1.1000000000000001E-10, -1.55, 9.1166666666666681E-12, 1.8333333333333336E-09, -5.3333333333333448E-12
DataValue, 5, 5.3300000000000005E-13, -1.1000000000000001E-10, -1.5000000000000002, 8.8833333333333343E-12, 1.8333333333333336E-09, 2.6666666666666643E-12
DataValue, 5, 5.63E-13, -1.1000000000000001E-10, -1.4500000000000002, 9.3833333333333342E-12, 1.8333333333333336E-09, -1.0499999999999996E-11
DataValue, 5, 4.7E-13, -1.1000000000000001E-10, -1.4000000000000001, 7.8333333333333337E-12, 1.8333333333333336E-09, -3.1666666666666658E-12
DataValue, 5, 5.44E-13, -1.2E-10, -1.35, 9.0666666666666673E-12, 2E-09, 1.0166666666666674E-11
DataValue, 5, 5.3100000000000006E-13, -1.1000000000000001E-10, -1.3, 8.8500000000000021E-12, 1.8333333333333336E-09, 5.8333333333333407E-12
DataValue, 5, 5.7900000000000006E-13, -1.1000000000000001E-10, -1.25, 9.6500000000000019E-12, 1.8333333333333336E-09, 1.8666666666666683E-11
DataValue, 5, 6.4300000000000009E-13, -1.1000000000000001E-10, -1.2000000000000002, 1.0716666666666668E-11, 1.8333333333333336E-09, 2.2000000000000024E-11
DataValue, 5, 7.110000000000001E-13, -1.1000000000000001E-10, -1.1500000000000001, 1.1850000000000001E-11, 1.8333333333333336E-09, 3.6666666666666734E-12
DataValue, 5, 6.6500000000000009E-13, -1.1000000000000001E-10, -1.1, 1.1083333333333335E-11, 1.8333333333333336E-09, 1.0666666666666649E-11
DataValue, 5, 7.75E-13, -1.2E-10, -1.05, 1.2916666666666667E-11, 2E-09, 2.78333333333333E-11
DataValue, 5, 8.3200000000000009E-13, -1.2E-10, -1, 1.3866666666666668E-11, 2E-09, 1.8166666666666685E-11
DataValue, 5, 8.8400000000000007E-13, -1.2E-10, -0.95000000000000007, 1.4733333333333335E-11, 2E-09, 4.8000000000000035E-11
DataValue, 5, 1.12E-12, -1.1000000000000001E-10, -0.9, 1.866666666666667E-11, 1.8333333333333336E-09, 8.3500000000000009E-11
DataValue, 5, 1.385E-12, -1.1000000000000001E-10, -0.85000000000000009, 2.3083333333333334E-11, 1.8333333333333336E-09, 9.3833333333333384E-11
DataValue, 5, 1.6830000000000002E-12, -1.1000000000000001E-10, -0.8, 2.8050000000000006E-11, 1.8333333333333336E-09, 1.4333333333333341E-10
DataValue, 5, 2.2450000000000002E-12, -1.1000000000000001E-10, -0.75000000000000011, 3.7416666666666673E-11, 1.8333333333333336E-09, 2.7816666666666674E-10
DataValue, 5, 3.3520000000000003E-12, -1.1000000000000001E-10, -0.70000000000000007, 5.5866666666666671E-11, 1.8333333333333336E-09, 5.1416666666666618E-10
DataValue, 5, 5.33E-12, -1.1000000000000001E-10, -0.65, 8.8833333333333337E-11, 1.8333333333333336E-09, 1.2865000000000005E-09
DataValue, 5, 1.1071E-11, -1.1000000000000001E-10, -0.60000000000000009, 1.8451666666666668E-10, 1.8333333333333336E-09, 3.8638333333333352E-09
DataValue, 5, 2.8513000000000003E-11, -1.1000000000000001E-10, -0.55, 4.7521666666666675E-10, 1.8333333333333336E-09, 1.0786333333333326E-08
DataValue, 5, 7.5789000000000008E-11, -1.1000000000000001E-10, -0.5, 1.2631500000000001E-09, 1.8333333333333336E-09, 3.0045999999999997E-08
DataValue, 5, 2.0878900000000003E-10, -1.1000000000000001E-10, -0.45, 3.4798166666666672E-09, 1.8333333333333336E-09, 7.33376666666667E-08
DataValue, 5, 5.15815E-10, -1.0000000000000002E-10, -0.4, 8.5969166666666685E-09, 1.6666666666666669E-09, 1.9868683333333339E-07
DataValue, 5, 1.40091E-09, -1.1000000000000001E-10, -0.35000000000000003, 2.3348500000000002E-08, 1.8333333333333336E-09, 5.5502250000000007E-07
DataValue, 5, 3.84595E-09, -1.1000000000000001E-10, -0.30000000000000004, 6.4099166666666668E-08, 1.8333333333333336E-09, 1.4062316666666663E-06
DataValue, 5, 9.8383E-09, -1.1000000000000001E-10, -0.25, 1.6397166666666667E-07, 1.8333333333333336E-09, 3.4831416666666652E-06
DataValue, 5, 2.4744799999999997E-08, -1.1000000000000001E-10, -0.2, 4.1241333333333329E-07, 1.8333333333333336E-09, 8.2671666666666677E-06
DataValue, 5, 5.9441299999999992E-08, -1.1000000000000001E-10, -0.15000000000000002, 9.9068833333333333E-07, 1.8333333333333336E-09, 1.8388033333333334E-05
DataValue, 5, 1.35073E-07, -1.1000000000000001E-10, -0.1, 2.2512166666666669E-06, 1.8333333333333336E-09, 3.9427449999999991E-05
DataValue, 5, 2.96006E-07, -1.1000000000000001E-10, -0.05, 4.9334333333333335E-06, 1.8333333333333336E-09, 8.1949166666666658E-05
DataValue, 5, 6.2676799999999994E-07, -1.1000000000000001E-10, 0, 1.0446133333333333E-05, 1.8333333333333336E-09, 0.00015549066666666669
DataValue, 5, 1.2289500000000001E-06, -1.1000000000000001E-10, 0.05, 2.0482500000000003E-05, 1.8333333333333336E-09, 0.0002866886666666667
