
SetupTitle, HEMT_transfer
PrimitiveTest, I/V Sweep
TestParameter, Context.MainFrame, B1500A
TestParameter, Channel.UnitType, SMU, SMU, SMU
TestParameter, Channel.Unit, SMU1:MP, SMU2:MC, GNDU:GND
TestParameter, Channel.IName, Id, Ig, Is
TestParameter, Channel.VName, Vd, Vg, Vs
TestParameter, Channel.Mode, V, V, COMMON
TestParameter, Channel.Func, CONST, VAR1, CONST
TestParameter, Channel.Index, 
TestParameter, Channel.Time, 
TestParameter, Measurement.Port.Unit, SMU1:MP, SMU2:MC, GNDU:GND
TestParameter, Measurement.Port.SeriesResistor, NONE, NONE, NONE
TestParameter, Measurement.Port.Filter, ON, ON, ON
TestParameter, Measurement.Port.OutputVoltageComparison, 0, 0, 0
TestParameter, Measurement.Primary.Locus, Single
TestParameter, Measurement.Primary.Scale, LINEAR
TestParameter, Measurement.Primary.Start, -5
TestParameter, Measurement.Primary.Stop, 5
TestParameter, Measurement.Primary.Step, 0.05
TestParameter, Measurement.Primary.Compliance, 0.001
TestParameter, Measurement.Primary.PowerCompliance, 0
TestParameter, Measurement.Aborting.Condition, CONTINUE AT ANY
TestParameter, Measurement.PostOutput.Value, START
TestParameter, Measurement.PostOutput.Retention, OFF
TestParameter, Measurement.Bias.Source, 5, -5, 0
TestParameter, Measurement.Bias.Compliance, 0.1, 0.001, 2
TestParameter, Measurement.Monitor.Unit, SMU1:MP, SMU2:MC, GNDU:GND
TestParameter, Measurement.Monitor.Adc, HR ADC, HS ADC, HR ADC
TestParameter, Measurement.Monitor.Measurement, Compliance Side, Force and Compliance Sides, Compliance Side
TestParameter, Measurement.Monitor.RangingMode, LIMITED, LIMITED, LIMITED
TestParameter, Measurement.Monitor.RangeBoundary, 1nA, 10uA, 1nA
TestParameter, Measurement.Monitor.RangeRating, BY FULL RANGE, BY FULL RANGE, BY FULL RANGE
TestParameter, Measurement.Monitor.RangeRatingCoeff, 50, 50, 50
TestParameter, Measurement.Timing.Hold, 0
TestParameter, Measurement.Timing.Delay, 0
TestParameter, Measurement.Adc.HighSpeed.Mode, PLC
TestParameter, Measurement.Adc.HighSpeed.Coeff, 2
TestParameter, Measurement.Adc.HighResolution.AutoZero, OFF
TestParameter, Measurement.Adc.HighResolution.Mode, PLC
TestParameter, Measurement.Adc.HighResolution.Coeff, 2
TestParameter, Measurement.WaitTime.Source.Coeff, 1
TestParameter, Measurement.WaitTime.Source.Offset, 0
TestParameter, Measurement.WaitTime.Monitor.Coeff, 1
TestParameter, Measurement.WaitTime.Monitor.Offset, 0
TestParameter, Function.User.Name, Id_dens, Ig_dens, gm
TestParameter, Function.User.Unit, A/mm, A/mm, S/mm
TestParameter, Function.User.Definition, Id/0.06, abs(Ig)/0.06, diff(Id_dens,Vg)
TestParameter, Output.Graph.Enabled, true
TestParameter, Output.Graph.AutoScaling, false
TestParameter, Output.Graph.XAxis.Data, Vg
TestParameter, Output.Graph.XAxis.Scale, Linear
TestParameter, Output.Graph.XAxis.Left, -2
TestParameter, Output.Graph.XAxis.Right, 10
TestParameter, Output.Graph.XAxis.RunTimeAutoScale, false
TestParameter, Output.Graph.YAxis.Data, Id_dens, Id_dens, gm, Ig_dens
TestParameter, Output.Graph.YAxis.Scale, Log, Linear, Linear, Log
TestParameter, Output.Graph.YAxis.Bottom, 0, 0, 0, 0
TestParameter, Output.Graph.YAxis.Top, 1, 1, 1, 1
TestParameter, Output.Graph.YAxis.Group, , , , 
TestParameter, Output.Graph.YAxis.RunTimeAutoScale, false, false, false, false
TestParameter, Output.List.Data, Vg, Id_dens, Ig_dens, Vd, gm
TestParameter, AutoAnalysis.Interpolation, false
TestParameter, AutoAnalysis.Line1.Enabled, false
TestParameter, AutoAnalysis.Line1.Type, 1
TestParameter, AutoAnalysis.Line1.Fix, True
TestParameter, AutoAnalysis.Line1.YAxis, 0
TestParameter, AutoAnalysis.Line1.Point1.Type, 0
TestParameter, AutoAnalysis.Line1.Point1.XY.X, 
TestParameter, AutoAnalysis.Line1.Point1.XY.Y, 
TestParameter, AutoAnalysis.Line1.Point1.Data.Var, 
TestParameter, AutoAnalysis.Line1.Point1.Data.Condition, 
TestParameter, AutoAnalysis.Line1.Point1.Data.Start, false
TestParameter, AutoAnalysis.Line1.Point1.Data.StartVar, 
TestParameter, AutoAnalysis.Line1.Point1.Data.StartCondition, 
TestParameter, AutoAnalysis.Line1.Point2.Type, 0
TestParameter, AutoAnalysis.Line1.Point2.XY.X, 
TestParameter, AutoAnalysis.Line1.Point2.XY.Y, 
TestParameter, AutoAnalysis.Line1.Point2.Data.Var, 
TestParameter, AutoAnalysis.Line1.Point2.Data.Condition, 
TestParameter, AutoAnalysis.Line1.Point2.Data.Start, false
TestParameter, AutoAnalysis.Line1.Point2.Data.StartVar, 
TestParameter, AutoAnalysis.Line1.Point2.Data.StartCondition, 
TestParameter, AutoAnalysis.Line1.GradientExpr, 0
TestParameter, AutoAnalysis.Line2.Enabled, false
TestParameter, AutoAnalysis.Line2.Type, 1
TestParameter, AutoAnalysis.Line2.Fix, True
TestParameter, AutoAnalysis.Line2.YAxis, 0
TestParameter, AutoAnalysis.Line2.Point1.Type, 0
TestParameter, AutoAnalysis.Line2.Point1.XY.X, 
TestParameter, AutoAnalysis.Line2.Point1.XY.Y, 
TestParameter, AutoAnalysis.Line2.Point1.Data.Var, 
TestParameter, AutoAnalysis.Line2.Point1.Data.Condition, 
TestParameter, AutoAnalysis.Line2.Point1.Data.Start, false
TestParameter, AutoAnalysis.Line2.Point1.Data.StartVar, 
TestParameter, AutoAnalysis.Line2.Point1.Data.StartCondition, 
TestParameter, AutoAnalysis.Line2.Point2.Type, 0
TestParameter, AutoAnalysis.Line2.Point2.XY.X, 
TestParameter, AutoAnalysis.Line2.Point2.XY.Y, 
TestParameter, AutoAnalysis.Line2.Point2.Data.Var, 
TestParameter, AutoAnalysis.Line2.Point2.Data.Condition, 
TestParameter, AutoAnalysis.Line2.Point2.Data.Start, false
TestParameter, AutoAnalysis.Line2.Point2.Data.StartVar, 
TestParameter, AutoAnalysis.Line2.Point2.Data.StartCondition, 
TestParameter, AutoAnalysis.Line2.GradientExpr, 0
TestParameter, AutoAnalysis.Marker.Enabled, false
TestParameter, AutoAnalysis.Marker.Data.Var, 
TestParameter, AutoAnalysis.Marker.Data.Condition, 
TestParameter, AutoAnalysis.Marker.Data.Start, false
TestParameter, AutoAnalysis.Marker.Data.StartVar, 
TestParameter, AutoAnalysis.Marker.Data.StartCondition, 
MetaData, TestRecord.EntryPoint, true
MetaData, TestRecord.RecordTime, 08/14/2019 12:18:44
MetaData, TestRecord.TestTarget, 
MetaData, TestRecord.IterationIndex, 2
MetaData, TestRecord.Preservation, true
MetaData, TestRecord.Flag, #
MetaData, TestRecord.Remarks, #188_F_implant_5nm_cap_die2_r4c2_F70
MetaData, TestRecord.LinkKey, bbab0272-7569-493e-9db0-b714c90ef1ea
Dimension1, 201, 201, 201, 201, 201, 201, 201
Dimension2, 1, 1, 1, 1, 1, 1, 1
DataName, Vd, Id, Ig, Vg, Id_dens, Ig_dens, gm
DataValue, 5, 2.378E-12, -1.6000000000000002E-10, -5, 3.9633333333333335E-11, 2.666666666666667E-09, -1.8666666666666734E-10
DataValue, 5, 1.8180000000000001E-12, -1.2E-10, -4.95, 3.03E-11, 2E-09, -1.01666666666667E-10
DataValue, 5, 1.7680000000000001E-12, -1.2E-10, -4.9, 2.9466666666666671E-11, 2E-09, -6.7333333333333579E-11
DataValue, 5, 1.414E-12, -1.3000000000000002E-10, -4.8500000000000005, 2.3566666666666667E-11, 2.166666666666667E-09, -7.4333333333333619E-11
DataValue, 5, 1.322E-12, -1.2E-10, -4.8000000000000007, 2.2033333333333335E-11, 2E-09, -4.0166666666666431E-11
DataValue, 5, 1.1730000000000002E-12, -1.2E-10, -4.75, 1.9550000000000003E-11, 2E-09, -3.3333333333333173E-11
DataValue, 5, 1.122E-12, -1.2E-10, -4.7, 1.87E-11, 2E-09, -4.0166666666666819E-11
DataValue, 5, 9.32E-13, -1.1000000000000001E-10, -4.65, 1.5533333333333335E-11, 1.8333333333333336E-09, -3.75000000000001E-11
DataValue, 5, 8.9700000000000012E-13, -1.2E-10, -4.6000000000000005, 1.4950000000000004E-11, 2E-09, 1.133333333333336E-11
DataValue, 5, 1E-12, -1.1000000000000001E-10, -4.5500000000000007, 1.6666666666666667E-11, 1.8333333333333336E-09, 2.3833333333333183E-11
DataValue, 5, 1.04E-12, -1.1000000000000001E-10, -4.5, 1.7333333333333335E-11, 1.8333333333333336E-09, -2.5499999999999867E-11
DataValue, 5, 8.47E-13, -1.1000000000000001E-10, -4.45, 1.4116666666666667E-11, 1.8333333333333336E-09, -5.1833333333333516E-11
DataValue, 5, 7.29E-13, -1.1000000000000001E-10, -4.4, 1.2150000000000001E-11, 1.8333333333333336E-09, -1.6166666666666724E-11
DataValue, 5, 7.5E-13, -1.1000000000000001E-10, -4.3500000000000005, 1.25E-11, 1.8333333333333336E-09, -3.00000000000001E-12
DataValue, 5, 7.110000000000001E-13, -1.1000000000000001E-10, -4.3000000000000007, 1.1850000000000001E-11, 1.8333333333333336E-09, 1.0166666666666628E-11
DataValue, 5, 8.1100000000000008E-13, -1.0000000000000002E-10, -4.25, 1.3516666666666669E-11, 1.6666666666666669E-09, 3.9999999999999781E-12
DataValue, 5, 7.350000000000001E-13, -1.0000000000000002E-10, -4.2, 1.2250000000000001E-11, 1.6666666666666669E-09, 5.0000000000000167E-12
DataValue, 5, 8.4100000000000005E-13, -1.0000000000000002E-10, -4.15, 1.4016666666666669E-11, 1.6666666666666669E-09, -2.0000000000000083E-11
DataValue, 5, 6.15E-13, -1.0000000000000002E-10, -4.1000000000000005, 1.025E-11, 1.6666666666666669E-09, -2.9833333333333444E-11
DataValue, 5, 6.62E-13, -1.0000000000000002E-10, -4.0500000000000007, 1.1033333333333335E-11, 1.6666666666666669E-09, 6.6666666666666404E-12
DataValue, 5, 6.55E-13, -1.0000000000000002E-10, -4, 1.0916666666666668E-11, 1.6666666666666669E-09, -3.3666666666666492E-11
DataValue, 5, 4.6000000000000006E-13, -1.0000000000000002E-10, -3.95, 7.6666666666666677E-12, 1.6666666666666669E-09, -2.6833333333333438E-11
DataValue, 5, 4.94E-13, -1.0000000000000002E-10, -3.9000000000000004, 8.2333333333333337E-12, 1.6666666666666669E-09, 4.1666666666666833E-11
DataValue, 5, 7.100000000000001E-13, -1.0000000000000002E-10, -3.8500000000000005, 1.1833333333333336E-11, 1.6666666666666669E-09, 1.9499999999999988E-11
DataValue, 5, 6.11E-13, -1.0000000000000002E-10, -3.8000000000000003, 1.0183333333333334E-11, 1.6666666666666669E-09, -1.1666666666666665E-11
DataValue, 5, 6.400000000000001E-13, -1.0000000000000002E-10, -3.7500000000000004, 1.0666666666666669E-11, 1.6666666666666669E-09, -7.33333333333333E-12
DataValue, 5, 5.67E-13, -1.0000000000000002E-10, -3.7, 9.45E-12, 1.6666666666666669E-09, -3.3666666666666641E-11
DataValue, 5, 4.3800000000000005E-13, -9.0000000000000012E-11, -3.6500000000000004, 7.3000000000000016E-12, 1.5000000000000002E-09, -1.3333333333333211E-12
DataValue, 5, 5.59E-13, -9.0000000000000012E-11, -3.6, 9.3166666666666681E-12, 1.5000000000000002E-09, 2.5833333333333302E-11
DataValue, 5, 5.93E-13, -9.0000000000000012E-11, -3.5500000000000003, 9.8833333333333341E-12, 1.5000000000000002E-09, 1.2333333333333363E-11
DataValue, 5, 6.33E-13, -1.0000000000000002E-10, -3.5000000000000004, 1.055E-11, 1.6666666666666669E-09, 9.6666666666666672E-12
DataValue, 5, 6.5100000000000005E-13, -1.0000000000000002E-10, -3.45, 1.0850000000000002E-11, 1.6666666666666669E-09, -1.6166666666666653E-11
DataValue, 5, 5.36E-13, -9.0000000000000012E-11, -3.4000000000000004, 8.9333333333333335E-12, 1.5000000000000002E-09, -2.0833333333333307E-11
DataValue, 5, 5.2600000000000008E-13, -9.0000000000000012E-11, -3.35, 8.766666666666669E-12, 1.5000000000000002E-09, -8.499999999999982E-12
DataValue, 5, 4.8500000000000005E-13, -1.0000000000000002E-10, -3.3000000000000003, 8.0833333333333345E-12, 1.6666666666666669E-09, 4.6666666666666772E-12
DataValue, 5, 5.5400000000000006E-13, -9.0000000000000012E-11, -3.2500000000000004, 9.2333333333333351E-12, 1.5000000000000002E-09, -4.3333333333333337E-12
DataValue, 5, 4.5900000000000006E-13, -9.0000000000000012E-11, -3.2, 7.65E-12, 1.5000000000000002E-09, 8.3333333333332975E-13
DataValue, 5, 5.59E-13, -9.0000000000000012E-11, -3.1500000000000004, 9.3166666666666681E-12, 1.5000000000000002E-09, 3.2166666666666653E-11
DataValue, 5, 6.52E-13, -9.0000000000000012E-11, -3.1, 1.0866666666666669E-11, 1.5000000000000002E-09, -1.0499999999999996E-11
DataValue, 5, 4.96E-13, -9.0000000000000012E-11, -3.0500000000000003, 8.2666666666666675E-12, 1.5000000000000002E-09, -2.8833333333333444E-11
DataValue, 5, 4.7900000000000008E-13, -9.0000000000000012E-11, -3.0000000000000004, 7.9833333333333345E-12, 1.5000000000000002E-09, -2.649999999999998E-11
DataValue, 5, 3.3700000000000003E-13, -9.0000000000000012E-11, -2.95, 5.6166666666666673E-12, 1.5000000000000002E-09, 1.6499999999999988E-11
DataValue, 5, 5.7800000000000006E-13, -9.0000000000000012E-11, -2.9000000000000004, 9.633333333333335E-12, 1.5000000000000002E-09, 4.1666666666666633E-11
DataValue, 5, 5.87E-13, -9.0000000000000012E-11, -2.85, 9.7833333333333341E-12, 1.5000000000000002E-09, -1.2833333333333317E-11
DataValue, 5, 5.0100000000000009E-13, -9.0000000000000012E-11, -2.8000000000000003, 8.3500000000000022E-12, 1.5000000000000002E-09, -2.3000000000000076E-11
DataValue, 5, 4.4900000000000006E-13, -8.0000000000000008E-11, -2.7500000000000004, 7.4833333333333346E-12, 1.3333333333333335E-09, -1.0166666666666674E-11
DataValue, 5, 4.4000000000000004E-13, -9.0000000000000012E-11, -2.7, 7.3333333333333339E-12, 1.5000000000000002E-09, -1.5000000000000063E-12
DataValue, 5, 4.4000000000000004E-13, -9.0000000000000012E-11, -2.6500000000000004, 7.3333333333333339E-12, 1.5000000000000002E-09, 8.3333333333333288E-12
DataValue, 5, 4.9E-13, -9.0000000000000012E-11, -2.6, 8.1666666666666675E-12, 1.5000000000000002E-09, -1.4333333333333323E-11
DataValue, 5, 3.54E-13, -9.0000000000000012E-11, -2.5500000000000003, 5.9E-12, 1.5000000000000002E-09, 6.1666666666666623E-12
DataValue, 5, 5.2700000000000008E-13, -1.0000000000000002E-10, -2.5, 8.7833333333333343E-12, 1.6666666666666669E-09, 8.1666666666666692E-12
DataValue, 5, 4.0300000000000005E-13, -9.0000000000000012E-11, -2.45, 6.7166666666666679E-12, 1.5000000000000002E-09, -4.3333333333333369E-12
DataValue, 5, 5.0100000000000009E-13, -1.0000000000000002E-10, -2.4000000000000004, 8.3500000000000022E-12, 1.6666666666666669E-09, 5.4999999999999859E-12
DataValue, 5, 4.36E-13, -9.0000000000000012E-11, -2.35, 7.2666666666666669E-12, 1.5000000000000002E-09, -1.7333333333333335E-11
DataValue, 5, 3.97E-13, -9.0000000000000012E-11, -2.3000000000000003, 6.6166666666666671E-12, 1.5000000000000002E-09, -1.4166666666666653E-11
DataValue, 5, 3.51E-13, -1.0000000000000002E-10, -2.25, 5.85E-12, 1.6666666666666669E-09, 1.1833333333333333E-11
DataValue, 5, 4.68E-13, -1.0000000000000002E-10, -2.2, 7.8000000000000015E-12, 1.6666666666666669E-09, 8.6666666666667062E-12
DataValue, 5, 4.0300000000000005E-13, -9.0000000000000012E-11, -2.1500000000000004, 6.7166666666666679E-12, 1.5000000000000002E-09, -1.0833333333333327E-11
DataValue, 5, 4.0300000000000005E-13, -9.0000000000000012E-11, -2.1, 6.7166666666666679E-12, 1.5000000000000002E-09, 3.3333333333333026E-13
DataValue, 5, 4.0500000000000004E-13, -9.0000000000000012E-11, -2.0500000000000003, 6.7500000000000009E-12, 1.5000000000000002E-09, 3.3333333333333026E-13
DataValue, 5, 4.0500000000000004E-13, -9.0000000000000012E-11, -2, 6.7500000000000009E-12, 1.5000000000000002E-09, -1.0499999999999996E-11
DataValue, 5, 3.42E-13, -9.0000000000000012E-11, -1.9500000000000002, 5.7E-12, 1.5000000000000002E-09, -4.8333333333333441E-12
DataValue, 5, 3.76E-13, -9.0000000000000012E-11, -1.9000000000000001, 6.2666666666666672E-12, 1.5000000000000002E-09, 1.3333333333333372E-12
DataValue, 5, 3.5E-13, -1.0000000000000002E-10, -1.85, 5.8333333333333342E-12, 1.6666666666666669E-09, 1.5666666666666651E-11
DataValue, 5, 4.7E-13, -9.0000000000000012E-11, -1.8, 7.8333333333333337E-12, 1.5000000000000002E-09, 2.1000000000000024E-11
DataValue, 5, 4.76E-13, -9.0000000000000012E-11, -1.7500000000000002, 7.9333333333333337E-12, 1.5000000000000002E-09, -3.4833333333333388E-11
DataValue, 5, 2.61E-13, -1.0000000000000002E-10, -1.7000000000000002, 4.35E-12, 1.6666666666666669E-09, -3.3499999999999962E-11
DataValue, 5, 2.7500000000000004E-13, -9.0000000000000012E-11, -1.6500000000000001, 4.5833333333333345E-12, 1.5000000000000002E-09, 8.3333333333333369E-12
DataValue, 5, 3.1100000000000004E-13, -9.0000000000000012E-11, -1.6, 5.1833333333333343E-12, 1.5000000000000002E-09, 2.2999999999999976E-11
DataValue, 5, 4.13E-13, -9.0000000000000012E-11, -1.55, 6.883333333333334E-12, 1.5000000000000002E-09, 2.7333333333333362E-11
DataValue, 5, 4.75E-13, -9.0000000000000012E-11, -1.5000000000000002, 7.9166666666666668E-12, 1.5000000000000002E-09, -4.1666666666666741E-12
DataValue, 5, 3.88E-13, -9.0000000000000012E-11, -1.4500000000000002, 6.4666666666666671E-12, 1.5000000000000002E-09, -1.9499999999999978E-11
DataValue, 5, 3.5800000000000004E-13, -9.0000000000000012E-11, -1.4000000000000001, 5.9666666666666672E-12, 1.5000000000000002E-09, 6.8333333333333307E-12
DataValue, 5, 4.2900000000000004E-13, -9.0000000000000012E-11, -1.35, 7.1500000000000008E-12, 1.5000000000000002E-09, -1.6666666666666595E-12
DataValue, 5, 3.4800000000000003E-13, -9.0000000000000012E-11, -1.3, 5.8000000000000011E-12, 1.5000000000000002E-09, -1.0333333333333319E-11
DataValue, 5, 3.6700000000000005E-13, -9.0000000000000012E-11, -1.25, 6.116666666666668E-12, 1.5000000000000002E-09, 2.9000000000000023E-11
DataValue, 5, 5.22E-13, -9.0000000000000012E-11, -1.2000000000000002, 8.7E-12, 1.5000000000000002E-09, 2.1500000000000023E-11
DataValue, 5, 4.96E-13, -9.0000000000000012E-11, -1.1500000000000001, 8.2666666666666675E-12, 1.5000000000000002E-09, -1.0333333333333311E-11
DataValue, 5, 4.6000000000000006E-13, -9.0000000000000012E-11, -1.1, 7.6666666666666677E-12, 1.5000000000000002E-09, -9.6666666666666511E-12
DataValue, 5, 4.3800000000000005E-13, -9.0000000000000012E-11, -1.05, 7.3000000000000016E-12, 1.5000000000000002E-09, -2.6666666666666744E-12
DataValue, 5, 4.4400000000000003E-13, -9.0000000000000012E-11, -1, 7.4E-12, 1.5000000000000002E-09, -2.1666666666666693E-12
DataValue, 5, 4.2500000000000006E-13, -9.0000000000000012E-11, -0.95000000000000007, 7.0833333333333347E-12, 1.5000000000000002E-09, -1.4833333333333324E-11
DataValue, 5, 3.5500000000000005E-13, -9.0000000000000012E-11, -0.9, 5.916666666666668E-12, 1.5000000000000002E-09, 1.316666666666667E-11
DataValue, 5, 5.0400000000000007E-13, -9.0000000000000012E-11, -0.85000000000000009, 8.4000000000000014E-12, 1.5000000000000002E-09, 3.1666666666666667E-11
DataValue, 5, 5.45E-13, -9.0000000000000012E-11, -0.8, 9.0833333333333343E-12, 1.5000000000000002E-09, 1.0166666666666669E-11
DataValue, 5, 5.65E-13, -1.0000000000000002E-10, -0.75000000000000011, 9.4166666666666681E-12, 1.6666666666666669E-09, -1.3833333333333331E-11
DataValue, 5, 4.6200000000000005E-13, -9.0000000000000012E-11, -0.70000000000000007, 7.7000000000000015E-12, 1.5000000000000002E-09, -1.899999999999998E-11
DataValue, 5, 4.5100000000000005E-13, -9.0000000000000012E-11, -0.65, 7.5166666666666685E-12, 1.5000000000000002E-09, 2.433333333333334E-11
DataValue, 5, 6.08E-13, -9.0000000000000012E-11, -0.60000000000000009, 1.0133333333333335E-11, 1.5000000000000002E-09, 1.5033333333333341E-10
DataValue, 5, 1.3530000000000002E-12, -9.0000000000000012E-11, -0.55, 2.2550000000000005E-11, 1.5000000000000002E-09, 3.8849999999999974E-10
DataValue, 5, 2.9390000000000003E-12, -9.0000000000000012E-11, -0.5, 4.898333333333334E-11, 1.5000000000000002E-09, 1.3056666666666664E-09
DataValue, 5, 9.1870000000000011E-12, -9.0000000000000012E-11, -0.45, 1.5311666666666669E-10, 1.5000000000000002E-09, 4.1718333333333338E-09
DataValue, 5, 2.797E-11, -9.0000000000000012E-11, -0.4, 4.6616666666666666E-10, 1.5000000000000002E-09, 1.3576166666666672E-08
DataValue, 5, 9.0644E-11, -9.0000000000000012E-11, -0.35000000000000003, 1.5107333333333335E-09, 1.5000000000000002E-09, 4.2200000000000007E-08
DataValue, 5, 2.8117E-10, -1.0000000000000002E-10, -0.30000000000000004, 4.6861666666666669E-09, 1.6666666666666669E-09, 1.1269933333333331E-07
DataValue, 5, 7.6684E-10, -9.0000000000000012E-11, -0.25, 1.2780666666666668E-08, 1.5000000000000002E-09, 3.1198999999999992E-07
DataValue, 5, 2.15311E-09, -1.0000000000000002E-10, -0.2, 3.5885166666666665E-08, 1.6666666666666669E-09, 8.2504000000000009E-07
DataValue, 5, 5.71708E-09, -1.0000000000000002E-10, -0.15000000000000002, 9.5284666666666667E-08, 1.6666666666666669E-09, 1.9401816666666664E-06
DataValue, 5, 1.3794199999999999E-08, -9.0000000000000012E-11, -0.1, 2.2990333333333331E-07, 1.5000000000000002E-09, 4.4988366666666656E-06
