
SetupTitle, HEMT_transfer
PrimitiveTest, I/V Sweep
TestParameter, Context.MainFrame, B1500A
TestParameter, Channel.UnitType, SMU, SMU, SMU
TestParameter, Channel.Unit, SMU1:MP, SMU2:MC, GNDU:GND
TestParameter, Channel.IName, Id, Ig, Is
TestParameter, Channel.VName, Vd, Vg, Vs
TestParameter, Channel.Mode, V, V, COMMON
TestParameter, Channel.Func, CONST, VAR1, CONST
TestParameter, Channel.Index, 
TestParameter, Channel.Time, 
TestParameter, Measurement.Port.Unit, SMU1:MP, SMU2:MC, GNDU:GND
TestParameter, Measurement.Port.SeriesResistor, NONE, NONE, NONE
TestParameter, Measurement.Port.Filter, ON, ON, ON
TestParameter, Measurement.Port.OutputVoltageComparison, 0, 0, 0
TestParameter, Measurement.Primary.Locus, Single
TestParameter, Measurement.Primary.Scale, LINEAR
TestParameter, Measurement.Primary.Start, -5
TestParameter, Measurement.Primary.Stop, 5
TestParameter, Measurement.Primary.Step, 0.05
TestParameter, Measurement.Primary.Compliance, 0.001
TestParameter, Measurement.Primary.PowerCompliance, 0
TestParameter, Measurement.Aborting.Condition, CONTINUE AT ANY
TestParameter, Measurement.PostOutput.Value, START
TestParameter, Measurement.PostOutput.Retention, OFF
TestParameter, Measurement.Bias.Source, 5, -5, 0
TestParameter, Measurement.Bias.Compliance, 0.1, 0.001, 2
TestParameter, Measurement.Monitor.Unit, SMU1:MP, SMU2:MC, GNDU:GND
TestParameter, Measurement.Monitor.Adc, HR ADC, HS ADC, HR ADC
TestParameter, Measurement.Monitor.Measurement, Compliance Side, Force and Compliance Sides, Compliance Side
TestParameter, Measurement.Monitor.RangingMode, LIMITED, LIMITED, LIMITED
TestParameter, Measurement.Monitor.RangeBoundary, 1nA, 10uA, 1nA
TestParameter, Measurement.Monitor.RangeRating, BY FULL RANGE, BY FULL RANGE, BY FULL RANGE
TestParameter, Measurement.Monitor.RangeRatingCoeff, 50, 50, 50
TestParameter, Measurement.Timing.Hold, 0
TestParameter, Measurement.Timing.Delay, 0
TestParameter, Measurement.Adc.HighSpeed.Mode, PLC
TestParameter, Measurement.Adc.HighSpeed.Coeff, 2
TestParameter, Measurement.Adc.HighResolution.AutoZero, OFF
TestParameter, Measurement.Adc.HighResolution.Mode, PLC
TestParameter, Measurement.Adc.HighResolution.Coeff, 2
TestParameter, Measurement.WaitTime.Source.Coeff, 1
TestParameter, Measurement.WaitTime.Source.Offset, 0
TestParameter, Measurement.WaitTime.Monitor.Coeff, 1
TestParameter, Measurement.WaitTime.Monitor.Offset, 0
TestParameter, Function.User.Name, Id_dens, Ig_dens, gm
TestParameter, Function.User.Unit, A/mm, A/mm, S/mm
TestParameter, Function.User.Definition, Id/0.06, abs(Ig)/0.06, diff(Id_dens,Vg)
TestParameter, Output.Graph.Enabled, true
TestParameter, Output.Graph.AutoScaling, false
TestParameter, Output.Graph.XAxis.Data, Vg
TestParameter, Output.Graph.XAxis.Scale, Linear
TestParameter, Output.Graph.XAxis.Left, -2
TestParameter, Output.Graph.XAxis.Right, 10
TestParameter, Output.Graph.XAxis.RunTimeAutoScale, false
TestParameter, Output.Graph.YAxis.Data, Id_dens, Id_dens, gm, Ig_dens
TestParameter, Output.Graph.YAxis.Scale, Log, Linear, Linear, Log
TestParameter, Output.Graph.YAxis.Bottom, 0, 0, 0, 0
TestParameter, Output.Graph.YAxis.Top, 1, 1, 1, 1
TestParameter, Output.Graph.YAxis.Group, , , , 
TestParameter, Output.Graph.YAxis.RunTimeAutoScale, false, false, false, false
TestParameter, Output.List.Data, Vg, Id_dens, Ig_dens, Vd, gm
TestParameter, AutoAnalysis.Interpolation, false
TestParameter, AutoAnalysis.Line1.Enabled, false
TestParameter, AutoAnalysis.Line1.Type, 1
TestParameter, AutoAnalysis.Line1.Fix, True
TestParameter, AutoAnalysis.Line1.YAxis, 0
TestParameter, AutoAnalysis.Line1.Point1.Type, 0
TestParameter, AutoAnalysis.Line1.Point1.XY.X, 
TestParameter, AutoAnalysis.Line1.Point1.XY.Y, 
TestParameter, AutoAnalysis.Line1.Point1.Data.Var, 
TestParameter, AutoAnalysis.Line1.Point1.Data.Condition, 
TestParameter, AutoAnalysis.Line1.Point1.Data.Start, false
TestParameter, AutoAnalysis.Line1.Point1.Data.StartVar, 
TestParameter, AutoAnalysis.Line1.Point1.Data.StartCondition, 
TestParameter, AutoAnalysis.Line1.Point2.Type, 0
TestParameter, AutoAnalysis.Line1.Point2.XY.X, 
TestParameter, AutoAnalysis.Line1.Point2.XY.Y, 
TestParameter, AutoAnalysis.Line1.Point2.Data.Var, 
TestParameter, AutoAnalysis.Line1.Point2.Data.Condition, 
TestParameter, AutoAnalysis.Line1.Point2.Data.Start, false
TestParameter, AutoAnalysis.Line1.Point2.Data.StartVar, 
TestParameter, AutoAnalysis.Line1.Point2.Data.StartCondition, 
TestParameter, AutoAnalysis.Line1.GradientExpr, 0
TestParameter, AutoAnalysis.Line2.Enabled, false
TestParameter, AutoAnalysis.Line2.Type, 1
TestParameter, AutoAnalysis.Line2.Fix, True
TestParameter, AutoAnalysis.Line2.YAxis, 0
TestParameter, AutoAnalysis.Line2.Point1.Type, 0
TestParameter, AutoAnalysis.Line2.Point1.XY.X, 
TestParameter, AutoAnalysis.Line2.Point1.XY.Y, 
TestParameter, AutoAnalysis.Line2.Point1.Data.Var, 
TestParameter, AutoAnalysis.Line2.Point1.Data.Condition, 
TestParameter, AutoAnalysis.Line2.Point1.Data.Start, false
TestParameter, AutoAnalysis.Line2.Point1.Data.StartVar, 
TestParameter, AutoAnalysis.Line2.Point1.Data.StartCondition, 
TestParameter, AutoAnalysis.Line2.Point2.Type, 0
TestParameter, AutoAnalysis.Line2.Point2.XY.X, 
TestParameter, AutoAnalysis.Line2.Point2.XY.Y, 
TestParameter, AutoAnalysis.Line2.Point2.Data.Var, 
TestParameter, AutoAnalysis.Line2.Point2.Data.Condition, 
TestParameter, AutoAnalysis.Line2.Point2.Data.Start, false
TestParameter, AutoAnalysis.Line2.Point2.Data.StartVar, 
TestParameter, AutoAnalysis.Line2.Point2.Data.StartCondition, 
TestParameter, AutoAnalysis.Line2.GradientExpr, 0
TestParameter, AutoAnalysis.Marker.Enabled, false
TestParameter, AutoAnalysis.Marker.Data.Var, 
TestParameter, AutoAnalysis.Marker.Data.Condition, 
TestParameter, AutoAnalysis.Marker.Data.Start, false
TestParameter, AutoAnalysis.Marker.Data.StartVar, 
TestParameter, AutoAnalysis.Marker.Data.StartCondition, 
MetaData, TestRecord.EntryPoint, true
MetaData, TestRecord.RecordTime, 08/16/2019 16:10:21
MetaData, TestRecord.TestTarget, 
MetaData, TestRecord.IterationIndex, 1
MetaData, TestRecord.Preservation, true
MetaData, TestRecord.Flag, #
MetaData, TestRecord.Remarks, #089_LPCVD_trigate_die3_r2c2_W200
MetaData, TestRecord.LinkKey, c8e2c6fd-34ae-4471-a3ae-ee1eb76a6e8a
Dimension1, 201, 201, 201, 201, 201, 201, 201
Dimension2, 1, 1, 1, 1, 1, 1, 1
DataName, Vd, Id, Ig, Vg, Id_dens, Ig_dens, gm
DataValue, 5, 4.9360000000000008E-12, -1.9000000000000002E-10, -5, 8.2266666666666685E-11, 3.1666666666666669E-09, -2.6533333333333449E-10
DataValue, 5, 4.1400000000000005E-12, -1.5000000000000003E-10, -4.95, 6.9000000000000007E-11, 2.5000000000000005E-09, -2.7033333333333442E-10
DataValue, 5, 3.3140000000000002E-12, -1.4E-10, -4.9, 5.5233333333333338E-11, 2.3333333333333335E-09, -1.7433333333333392E-10
DataValue, 5, 3.0940000000000003E-12, -1.4E-10, -4.8500000000000005, 5.1566666666666677E-11, 2.3333333333333335E-09, -5.8833333333333492E-11
DataValue, 5, 2.9610000000000004E-12, -1.5000000000000003E-10, -4.8000000000000007, 4.9350000000000009E-11, 2.5000000000000005E-09, -3.41666666666665E-11
DataValue, 5, 2.8890000000000003E-12, -1.4E-10, -4.75, 4.815000000000001E-11, 2.3333333333333335E-09, -4.183333333333315E-11
DataValue, 5, 2.7100000000000004E-12, -1.4E-10, -4.7, 4.5166666666666672E-11, 2.3333333333333335E-09, -8.6000000000000388E-11
DataValue, 5, 2.373E-12, -1.4E-10, -4.65, 3.955E-11, 2.3333333333333335E-09, -5.4500000000000174E-11
DataValue, 5, 2.3830000000000002E-12, -1.4E-10, -4.6000000000000005, 3.9716666666666674E-11, 2.3333333333333335E-09, 2.6666666666666538E-12
DataValue, 5, 2.389E-12, -1.3000000000000002E-10, -4.5500000000000007, 3.9816666666666666E-11, 2.166666666666667E-09, -4.2666666666666474E-11
DataValue, 5, 2.127E-12, -1.3000000000000002E-10, -4.5, 3.5450000000000004E-11, 2.166666666666667E-09, -5.4999999999999713E-11
DataValue, 5, 2.059E-12, -1.3000000000000002E-10, -4.45, 3.4316666666666666E-11, 2.166666666666667E-09, -8.3333333333333338E-13
DataValue, 5, 2.122E-12, -1.4E-10, -4.4, 3.5366666666666671E-11, 2.3333333333333335E-09, 8.833333333333424E-12
DataValue, 5, 2.1120000000000003E-12, -1.3000000000000002E-10, -4.3500000000000005, 3.5200000000000005E-11, 2.166666666666667E-09, -2.0333333333333438E-11
DataValue, 5, 2E-12, -1.3000000000000002E-10, -4.3000000000000007, 3.3333333333333335E-11, 2.166666666666667E-09, -7.5833333333332955E-11
DataValue, 5, 1.6570000000000001E-12, -1.3000000000000002E-10, -4.25, 2.7616666666666669E-11, 2.166666666666667E-09, -8.1666666666666078E-12
DataValue, 5, 1.951E-12, -1.3000000000000002E-10, -4.2, 3.2516666666666669E-11, 2.166666666666667E-09, 5.91666666666669E-11
DataValue, 5, 2.0120000000000003E-12, -1.2E-10, -4.15, 3.3533333333333338E-11, 2E-09, -3.1166666666666772E-11
DataValue, 5, 1.7640000000000002E-12, -1.3000000000000002E-10, -4.1000000000000005, 2.94E-11, 2.166666666666667E-09, -4.50000000000002E-11
DataValue, 5, 1.742E-12, -1.2E-10, -4.0500000000000007, 2.9033333333333334E-11, 2E-09, 3.3333333333330457E-13
DataValue, 5, 1.7660000000000002E-12, -1.2E-10, -4, 2.9433333333333334E-11, 2E-09, 1.3999999999999955E-11
DataValue, 5, 1.826E-12, -1.2E-10, -3.95, 3.0433333333333337E-11, 2E-09, -9.3333333333333221E-12
DataValue, 5, 1.7100000000000002E-12, -1.2E-10, -3.9000000000000004, 2.8500000000000005E-11, 2E-09, -8.4000000000000317E-11
DataValue, 5, 1.322E-12, -1.2E-10, -3.8500000000000005, 2.2033333333333335E-11, 2E-09, 1.1166666666666657E-11
DataValue, 5, 1.7770000000000002E-12, -1.1000000000000001E-10, -3.8000000000000003, 2.9616666666666672E-11, 1.8333333333333336E-09, 4.7833333333333291E-11
DataValue, 5, 1.6090000000000001E-12, -1.2E-10, -3.7500000000000004, 2.6816666666666669E-11, 2E-09, -3.9833333333333338E-11
DataValue, 5, 1.5380000000000001E-12, -1.2E-10, -3.7, 2.5633333333333335E-11, 2E-09, -3.0166666666666621E-11
DataValue, 5, 1.4280000000000002E-12, -1.1000000000000001E-10, -3.6500000000000004, 2.3800000000000004E-11, 1.8333333333333336E-09, 2.9833333333333314E-11
DataValue, 5, 1.717E-12, -1.1000000000000001E-10, -3.6, 2.8616666666666669E-11, 1.8333333333333336E-09, 3.31666666666666E-11
DataValue, 5, 1.627E-12, -1.1000000000000001E-10, -3.5500000000000003, 2.7116666666666667E-11, 1.8333333333333336E-09, -3.3666666666666777E-11
DataValue, 5, 1.5150000000000001E-12, -1.1000000000000001E-10, -3.5000000000000004, 2.5250000000000003E-11, 1.8333333333333336E-09, -3.8999999999999975E-11
DataValue, 5, 1.393E-12, -1.1000000000000001E-10, -3.45, 2.3216666666666667E-11, 1.8333333333333336E-09, 8.3333333333332975E-13
DataValue, 5, 1.5200000000000002E-12, -1.0000000000000002E-10, -3.4000000000000004, 2.5333333333333336E-11, 1.6666666666666669E-09, 7.1666666666666936E-12
DataValue, 5, 1.4360000000000001E-12, -1.1000000000000001E-10, -3.35, 2.3933333333333337E-11, 1.8333333333333336E-09, -1.6666666666668533E-13
DataValue, 5, 1.519E-12, -1.1000000000000001E-10, -3.3000000000000003, 2.5316666666666668E-11, 1.8333333333333336E-09, -3.2000000000000109E-11
DataValue, 5, 1.2440000000000002E-12, -1.1000000000000001E-10, -3.2500000000000004, 2.0733333333333337E-11, 1.8333333333333336E-09, 9.3333333333333447E-12
DataValue, 5, 1.575E-12, -1.1000000000000001E-10, -3.2, 2.6250000000000003E-11, 1.8333333333333336E-09, 4.2499999999999944E-11
DataValue, 5, 1.4990000000000002E-12, -1.0000000000000002E-10, -3.1500000000000004, 2.4983333333333336E-11, 1.6666666666666669E-09, -3.4499999999999984E-11
DataValue, 5, 1.368E-12, -1.1000000000000001E-10, -3.1, 2.28E-11, 1.8333333333333336E-09, -4.983333333333329E-11
DataValue, 5, 1.2000000000000001E-12, -1.1000000000000001E-10, -3.0500000000000003, 2.0000000000000002E-11, 1.8333333333333336E-09, -4.8333333333333465E-12
DataValue, 5, 1.339E-12, -1.1000000000000001E-10, -3.0000000000000004, 2.2316666666666668E-11, 1.8333333333333336E-09, 2.4666666666666649E-11
DataValue, 5, 1.3480000000000001E-12, -1.0000000000000002E-10, -2.95, 2.2466666666666669E-11, 1.6666666666666669E-09, 3.3333333333333834E-13
DataValue, 5, 1.341E-12, -1.1000000000000001E-10, -2.9000000000000004, 2.2350000000000002E-11, 1.8333333333333336E-09, -4.2666666666666662E-11
DataValue, 5, 1.092E-12, -1.0000000000000002E-10, -2.85, 1.82E-11, 1.6666666666666669E-09, 1.3999999999999984E-11
DataValue, 5, 1.425E-12, -1.0000000000000002E-10, -2.8000000000000003, 2.3750000000000002E-11, 1.6666666666666669E-09, 5.0500000000000194E-11
DataValue, 5, 1.395E-12, -9.0000000000000012E-11, -2.7500000000000004, 2.325E-11, 1.5000000000000002E-09, -1.2666666666666663E-11
DataValue, 5, 1.349E-12, -1.0000000000000002E-10, -2.7, 2.2483333333333335E-11, 1.6666666666666669E-09, 4.4999999999999967E-11
DataValue, 5, 1.665E-12, -1.0000000000000002E-10, -2.6500000000000004, 2.775E-11, 1.6666666666666669E-09, 5.4483333333333305E-10
DataValue, 5, 4.6180000000000007E-12, -1.1000000000000001E-10, -2.6, 7.6966666666666688E-11, 1.8333333333333336E-09, 3.4286666666666641E-09
DataValue, 5, 2.2237000000000002E-11, -1.0000000000000002E-10, -2.5500000000000003, 3.7061666666666672E-10, 1.6666666666666669E-09, 2.2769833333333317E-08
DataValue, 5, 1.4123700000000002E-10, -1.0000000000000002E-10, -2.5, 2.3539500000000005E-09, 1.6666666666666669E-09, 1.5763883333333322E-07
DataValue, 5, 9.6807E-10, -9.0000000000000012E-11, -2.45, 1.61345E-08, 1.5000000000000002E-09, 9.5810550000000342E-07
DataValue, 5, 5.88987E-09, -1.0000000000000002E-10, -2.4000000000000004, 9.81645E-08, 1.6666666666666669E-09, 6.0929383333333275E-06
DataValue, 5, 3.75257E-08, -1.0000000000000002E-10, -2.35, 6.2542833333333335E-07, 1.6666666666666669E-09, 3.1428354999999975E-05
DataValue, 5, 1.9446E-07, -1.0000000000000002E-10, -2.3000000000000003, 3.2410000000000004E-06, 1.6666666666666669E-09, 0.00013694788333333321
DataValue, 5, 8.59213E-07, -9.0000000000000012E-11, -2.25, 1.4320216666666667E-05, 1.5000000000000002E-09, 0.000461393333333333
DataValue, 5, 2.9628200000000004E-06, -1.0000000000000002E-10, -2.2, 4.9380333333333339E-05, 1.6666666666666669E-09, 0.0011922295000000045
DataValue, 5, 8.0125900000000012E-06, -9.0000000000000012E-11, -2.1500000000000004, 0.00013354316666666668, 1.5000000000000002E-09, 0.002634629999999998
DataValue, 5, 1.87706E-05, -9.0000000000000012E-11, -2.1, 0.00031284333333333336, 1.5000000000000002E-09, 0.0048700849999999971
DataValue, 5, 3.72331E-05, -1.0000000000000002E-10, -2.0500000000000003, 0.00062055166666666675, 1.6666666666666669E-09, 0.0077693333333333277
DataValue, 5, 6.53866E-05, -1.0000000000000002E-10, -2, 0.0010897766666666667, 1.6666666666666669E-09, 0.011184649999999992
DataValue, 5, 0.00010434100000000001, -9.0000000000000012E-11, -1.9500000000000002, 0.0017390166666666669, 1.5000000000000002E-09, 0.01528606666666669
DataValue, 5, 0.00015710300000000002, -9.0000000000000012E-11, -1.9000000000000001, 0.0026183833333333338, 1.5000000000000002E-09, 0.01909616666666665
DataValue, 5, 0.00021891800000000002, -9.0000000000000012E-11, -1.85, 0.0036486333333333337, 1.5000000000000002E-09, 0.02242549999999998
DataValue, 5, 0.000291656, -9.0000000000000012E-11, -1.8, 0.0048609333333333336, 1.5000000000000002E-09, 0.026017000000000033
DataValue, 5, 0.00037502, -1.0000000000000002E-10, -1.7500000000000002, 0.0062503333333333334, 1.6666666666666669E-09, 0.029271166666666716
DataValue, 5, 0.00046728300000000003, -9.0000000000000012E-11, -1.7000000000000002, 0.0077880500000000012, 1.5000000000000002E-09, 0.032199999999999979
DataValue, 5, 0.00056822, -8.0000000000000008E-11, -1.6500000000000001, 0.0094703333333333341, 1.3333333333333335E-09, 0.035111833333333294
DataValue, 5, 0.000677954, -9.0000000000000012E-11, -1.6, 0.011299233333333334, 1.5000000000000002E-09, 0.037652166666666632
DataValue, 5, 0.000794133, -9.0000000000000012E-11, -1.55, 0.01323555, 1.5000000000000002E-09, 0.040265000000000058
DataValue, 5, 0.000919544, -9.0000000000000012E-11, -1.5000000000000002, 0.015325733333333334, 1.5000000000000002E-09, 0.04244266666666674
DataValue, 5, 0.001048789, -8.0000000000000008E-11, -1.4500000000000002, 0.017479816666666669, 1.3333333333333335E-09, 0.044482666666666615
DataValue, 5, 0.00118644, -8.0000000000000008E-11, -1.4000000000000001, 0.019774, 1.3333333333333335E-09, 0.0462818333333333
DataValue, 5, 0.00132648, -9.0000000000000012E-11, -1.35, 0.022108000000000003, 1.5000000000000002E-09, 0.047783333333333282
DataValue, 5, 0.00147314, -8.0000000000000008E-11, -1.3, 0.024552333333333332, 1.3333333333333335E-09, 0.049546666666666621
DataValue, 5, 0.0016237600000000001, -8.0000000000000008E-11, -1.25, 0.027062666666666669, 1.3333333333333335E-09, 0.051073333333333422
DataValue, 5, 0.00177958, -8.0000000000000008E-11, -1.2000000000000002, 0.029659666666666668, 1.3333333333333335E-09, 0.052426666666666767
DataValue, 5, 0.00193832, -8.0000000000000008E-11, -1.1500000000000001, 0.032305333333333339, 1.3333333333333335E-09, 0.053868333333333358
DataValue, 5, 0.00210279, -8.0000000000000008E-11, -1.1, 0.035046500000000008, 1.3333333333333335E-09, 0.055379999999999964
DataValue, 5, 0.0022706000000000002, -8.0000000000000008E-11, -1.05, 0.03784333333333334, 1.3333333333333335E-09, 0.056576666666666532
DataValue, 5, 0.00244225, -9.0000000000000012E-11, -1, 0.040704166666666666, 1.5000000000000002E-09, 0.057923333333333313
DataValue, 5, 0.00261814, -9.0000000000000012E-11, -0.95000000000000007, 0.04363566666666667, 1.5000000000000002E-09, 0.05882333333333338
DataValue, 5, 0.00279519, -8.0000000000000008E-11, -0.9, 0.0465865, 1.3333333333333335E-09, 0.05986333333333331
DataValue, 5, 0.00297732, -8.0000000000000008E-11, -0.85000000000000009, 0.049622, 1.3333333333333335E-09, 0.061116666666666694
DataValue, 5, 0.00316189, -8.0000000000000008E-11, -0.8, 0.052698166666666671, 1.3333333333333335E-09, 0.061888333333333323
DataValue, 5, 0.00334865, -8.0000000000000008E-11, -0.75000000000000011, 0.05581083333333333, 1.3333333333333335E-09, 0.062819999999999973
DataValue, 5, 0.00353881, -8.0000000000000008E-11, -0.70000000000000007, 0.058980166666666667, 1.3333333333333335E-09, 0.063760000000000011
DataValue, 5, 0.00373121, -8.0000000000000008E-11, -0.65, 0.062186833333333337, 1.3333333333333335E-09, 0.064306666666666693
DataValue, 5, 0.00392465, -8.0000000000000008E-11, -0.60000000000000009, 0.065410833333333335, 1.3333333333333335E-09, 0.0650950000000001
DataValue, 5, 0.00412178, -7E-11, -0.55, 0.068696333333333345, 1.1666666666666668E-09, 0.0661633333333333
DataValue, 5, 0.00432163, -7E-11, -0.5, 0.07202716666666667, 1.1666666666666668E-09, 0.066766666666666613
DataValue, 5, 0.00452238, -8.0000000000000008E-11, -0.45, 0.075373000000000009, 1.3333333333333335E-09, 0.067510000000000084
DataValue, 5, 0.00472669, -7E-11, -0.4, 0.078778166666666677, 1.1666666666666668E-09, 0.068030000000000049
DataValue, 5, 0.0049305600000000005, -7E-11, -0.35000000000000003, 0.082176000000000013, 1.1666666666666668E-09, 0.068571666666666656
DataValue, 5, 0.00513812, -7E-11, -0.30000000000000004, 0.085635333333333341, 1.1666666666666668E-09, 0.069284999999999874
DataValue, 5, 0.00534627, -8.0000000000000008E-11, -0.25, 0.0891045, 1.3333333333333335E-09, 0.069631666666666564
DataValue, 5, 0.00555591, -7E-11, -0.2, 0.0925985, 1.1666666666666668E-09, 0.070391666666666811
DataValue, 5, 0.00576862, -7E-11, -0.15000000000000002, 0.096143666666666683, 1.1666666666666668E-09, 0.071120000000000072
DataValue, 5, 0.00598263, -7E-11, -0.1, 0.099710500000000007, 1.1666666666666668E-09, 0.071383333333333146
DataValue, 5, 0.00619692, -7E-11, -0.05, 0.103282, 1.1666666666666668E-09, 0.071380000000000055
DataValue, 5, 0.0064109100000000006, -6E-11, 0, 0.10684850000000001, 1E-09, 0.072225000000000067
DataValue, 5, 0.00663027, -7E-11, 0.05, 0.1105045, 1.1666666666666668E-09, 0.073069999999999941
DataValue, 5, 0.00684933, -7E-11, 0.1, 0.11415550000000001, 1.1666666666666668E-09, 0.072895000000000029
DataValue, 5, 0.00706764, -7E-11, 0.15000000000000002, 0.11779400000000001, 1.1666666666666668E-09, 0.073459999999999914
DataValue, 5, 0.00729009, -6E-11, 0.2, 0.1215015, 1E-09, 0.074140000000000053
