
SetupTitle, HEMT_transfer
PrimitiveTest, I/V Sweep
TestParameter, Context.MainFrame, B1500A
TestParameter, Channel.UnitType, SMU, SMU, SMU
TestParameter, Channel.Unit, SMU1:MP, SMU2:MC, GNDU:GND
TestParameter, Channel.IName, Id, Ig, Is
TestParameter, Channel.VName, Vd, Vg, Vs
TestParameter, Channel.Mode, V, V, COMMON
TestParameter, Channel.Func, CONST, VAR1, CONST
TestParameter, Channel.Index, 
TestParameter, Channel.Time, 
TestParameter, Measurement.Port.Unit, SMU1:MP, SMU2:MC, GNDU:GND
TestParameter, Measurement.Port.SeriesResistor, NONE, NONE, NONE
TestParameter, Measurement.Port.Filter, ON, ON, ON
TestParameter, Measurement.Port.OutputVoltageComparison, 0, 0, 0
TestParameter, Measurement.Primary.Locus, Single
TestParameter, Measurement.Primary.Scale, LINEAR
TestParameter, Measurement.Primary.Start, -5
TestParameter, Measurement.Primary.Stop, 5
TestParameter, Measurement.Primary.Step, 0.05
TestParameter, Measurement.Primary.Compliance, 0.001
TestParameter, Measurement.Primary.PowerCompliance, 0
TestParameter, Measurement.Aborting.Condition, CONTINUE AT ANY
TestParameter, Measurement.PostOutput.Value, START
TestParameter, Measurement.PostOutput.Retention, OFF
TestParameter, Measurement.Bias.Source, 5, -5, 0
TestParameter, Measurement.Bias.Compliance, 0.1, 0.001, 2
TestParameter, Measurement.Monitor.Unit, SMU1:MP, SMU2:MC, GNDU:GND
TestParameter, Measurement.Monitor.Adc, HR ADC, HS ADC, HR ADC
TestParameter, Measurement.Monitor.Measurement, Compliance Side, Force and Compliance Sides, Compliance Side
TestParameter, Measurement.Monitor.RangingMode, LIMITED, LIMITED, LIMITED
TestParameter, Measurement.Monitor.RangeBoundary, 1nA, 10uA, 1nA
TestParameter, Measurement.Monitor.RangeRating, BY FULL RANGE, BY FULL RANGE, BY FULL RANGE
TestParameter, Measurement.Monitor.RangeRatingCoeff, 50, 50, 50
TestParameter, Measurement.Timing.Hold, 0
TestParameter, Measurement.Timing.Delay, 0
TestParameter, Measurement.Adc.HighSpeed.Mode, PLC
TestParameter, Measurement.Adc.HighSpeed.Coeff, 2
TestParameter, Measurement.Adc.HighResolution.AutoZero, OFF
TestParameter, Measurement.Adc.HighResolution.Mode, PLC
TestParameter, Measurement.Adc.HighResolution.Coeff, 2
TestParameter, Measurement.WaitTime.Source.Coeff, 1
TestParameter, Measurement.WaitTime.Source.Offset, 0
TestParameter, Measurement.WaitTime.Monitor.Coeff, 1
TestParameter, Measurement.WaitTime.Monitor.Offset, 0
TestParameter, Function.User.Name, Id_dens, Ig_dens, gm
TestParameter, Function.User.Unit, A/mm, A/mm, S/mm
TestParameter, Function.User.Definition, Id/0.06, abs(Ig)/0.06, diff(Id_dens,Vg)
TestParameter, Output.Graph.Enabled, true
TestParameter, Output.Graph.AutoScaling, false
TestParameter, Output.Graph.XAxis.Data, Vg
TestParameter, Output.Graph.XAxis.Scale, Linear
TestParameter, Output.Graph.XAxis.Left, -2
TestParameter, Output.Graph.XAxis.Right, 10
TestParameter, Output.Graph.XAxis.RunTimeAutoScale, false
TestParameter, Output.Graph.YAxis.Data, Id_dens, Id_dens, gm, Ig_dens
TestParameter, Output.Graph.YAxis.Scale, Log, Linear, Linear, Log
TestParameter, Output.Graph.YAxis.Bottom, 0, 0, 0, 0
TestParameter, Output.Graph.YAxis.Top, 1, 1, 1, 1
TestParameter, Output.Graph.YAxis.Group, , , , 
TestParameter, Output.Graph.YAxis.RunTimeAutoScale, false, false, false, false
TestParameter, Output.List.Data, Vg, Id_dens, Ig_dens, Vd, gm
TestParameter, AutoAnalysis.Interpolation, false
TestParameter, AutoAnalysis.Line1.Enabled, false
TestParameter, AutoAnalysis.Line1.Type, 1
TestParameter, AutoAnalysis.Line1.Fix, True
TestParameter, AutoAnalysis.Line1.YAxis, 0
TestParameter, AutoAnalysis.Line1.Point1.Type, 0
TestParameter, AutoAnalysis.Line1.Point1.XY.X, 
TestParameter, AutoAnalysis.Line1.Point1.XY.Y, 
TestParameter, AutoAnalysis.Line1.Point1.Data.Var, 
TestParameter, AutoAnalysis.Line1.Point1.Data.Condition, 
TestParameter, AutoAnalysis.Line1.Point1.Data.Start, false
TestParameter, AutoAnalysis.Line1.Point1.Data.StartVar, 
TestParameter, AutoAnalysis.Line1.Point1.Data.StartCondition, 
TestParameter, AutoAnalysis.Line1.Point2.Type, 0
TestParameter, AutoAnalysis.Line1.Point2.XY.X, 
TestParameter, AutoAnalysis.Line1.Point2.XY.Y, 
TestParameter, AutoAnalysis.Line1.Point2.Data.Var, 
TestParameter, AutoAnalysis.Line1.Point2.Data.Condition, 
TestParameter, AutoAnalysis.Line1.Point2.Data.Start, false
TestParameter, AutoAnalysis.Line1.Point2.Data.StartVar, 
TestParameter, AutoAnalysis.Line1.Point2.Data.StartCondition, 
TestParameter, AutoAnalysis.Line1.GradientExpr, 0
TestParameter, AutoAnalysis.Line2.Enabled, false
TestParameter, AutoAnalysis.Line2.Type, 1
TestParameter, AutoAnalysis.Line2.Fix, True
TestParameter, AutoAnalysis.Line2.YAxis, 0
TestParameter, AutoAnalysis.Line2.Point1.Type, 0
TestParameter, AutoAnalysis.Line2.Point1.XY.X, 
TestParameter, AutoAnalysis.Line2.Point1.XY.Y, 
TestParameter, AutoAnalysis.Line2.Point1.Data.Var, 
TestParameter, AutoAnalysis.Line2.Point1.Data.Condition, 
TestParameter, AutoAnalysis.Line2.Point1.Data.Start, false
TestParameter, AutoAnalysis.Line2.Point1.Data.StartVar, 
TestParameter, AutoAnalysis.Line2.Point1.Data.StartCondition, 
TestParameter, AutoAnalysis.Line2.Point2.Type, 0
TestParameter, AutoAnalysis.Line2.Point2.XY.X, 
TestParameter, AutoAnalysis.Line2.Point2.XY.Y, 
TestParameter, AutoAnalysis.Line2.Point2.Data.Var, 
TestParameter, AutoAnalysis.Line2.Point2.Data.Condition, 
TestParameter, AutoAnalysis.Line2.Point2.Data.Start, false
TestParameter, AutoAnalysis.Line2.Point2.Data.StartVar, 
TestParameter, AutoAnalysis.Line2.Point2.Data.StartCondition, 
TestParameter, AutoAnalysis.Line2.GradientExpr, 0
TestParameter, AutoAnalysis.Marker.Enabled, false
TestParameter, AutoAnalysis.Marker.Data.Var, 
TestParameter, AutoAnalysis.Marker.Data.Condition, 
TestParameter, AutoAnalysis.Marker.Data.Start, false
TestParameter, AutoAnalysis.Marker.Data.StartVar, 
TestParameter, AutoAnalysis.Marker.Data.StartCondition, 
MetaData, TestRecord.EntryPoint, true
MetaData, TestRecord.RecordTime, 08/14/2019 13:58:06
MetaData, TestRecord.TestTarget, 
MetaData, TestRecord.IterationIndex, 3
MetaData, TestRecord.Preservation, true
MetaData, TestRecord.Flag, #
MetaData, TestRecord.Remarks, #188_F_implant_5nm_cap_die2_r4c3_W40_S70
MetaData, TestRecord.LinkKey, 571c2f9f-c003-4620-8370-b6f41a29be88
Dimension1, 201, 201, 201, 201, 201, 201, 201
Dimension2, 1, 1, 1, 1, 1, 1, 1
DataName, Vd, Id, Ig, Vg, Id_dens, Ig_dens, gm
DataValue, 5, 2.019E-12, -1.5000000000000003E-10, -5, 3.365E-11, 2.5000000000000005E-09, -8.633333333333363E-11
DataValue, 5, 1.7600000000000002E-12, -1.1000000000000001E-10, -4.95, 2.9333333333333335E-11, 1.8333333333333336E-09, -9.2500000000000327E-11
DataValue, 5, 1.464E-12, -1.1000000000000001E-10, -4.9, 2.44E-11, 1.8333333333333336E-09, -7.100000000000022E-11
DataValue, 5, 1.3340000000000002E-12, -1.1000000000000001E-10, -4.8500000000000005, 2.2233333333333339E-11, 1.8333333333333336E-09, -4.1166666666666777E-11
DataValue, 5, 1.2170000000000002E-12, -1.1000000000000001E-10, -4.8000000000000007, 2.0283333333333338E-11, 1.8333333333333336E-09, -3.7666666666666485E-11
DataValue, 5, 1.1080000000000001E-12, -1.0000000000000002E-10, -4.75, 1.846666666666667E-11, 1.6666666666666669E-09, 7.9999999999999562E-12
DataValue, 5, 1.2650000000000002E-12, -1.1000000000000001E-10, -4.7, 2.1083333333333338E-11, 1.8333333333333336E-09, -5.0000000000002594E-13
DataValue, 5, 1.105E-12, -1.0000000000000002E-10, -4.65, 1.8416666666666668E-11, 1.6666666666666669E-09, -4.3833333333333492E-11
DataValue, 5, 1.0020000000000002E-12, -1.0000000000000002E-10, -4.6000000000000005, 1.6700000000000004E-11, 1.6666666666666669E-09, -3.5000000000000131E-11
DataValue, 5, 8.95E-13, -1.0000000000000002E-10, -4.5500000000000007, 1.4916666666666667E-11, 1.6666666666666669E-09, -1.7666666666666596E-11
DataValue, 5, 8.96E-13, -1.0000000000000002E-10, -4.5, 1.4933333333333335E-11, 1.6666666666666669E-09, -1.3333333333333249E-11
DataValue, 5, 8.1500000000000006E-13, -1.0000000000000002E-10, -4.45, 1.3583333333333335E-11, 1.6666666666666669E-09, -7.8333333333333725E-12
DataValue, 5, 8.49E-13, -1.0000000000000002E-10, -4.4, 1.4150000000000001E-11, 1.6666666666666669E-09, -2.6666666666666861E-12
DataValue, 5, 7.99E-13, -9.0000000000000012E-11, -4.3500000000000005, 1.3316666666666667E-11, 1.5000000000000002E-09, -4.6666666666666772E-12
DataValue, 5, 8.21E-13, -1.0000000000000002E-10, -4.3000000000000007, 1.3683333333333335E-11, 1.6666666666666669E-09, -6.3333333333332872E-12
DataValue, 5, 7.6100000000000009E-13, -1.0000000000000002E-10, -4.25, 1.2683333333333335E-11, 1.6666666666666669E-09, -1.6499999999999917E-11
DataValue, 5, 7.2200000000000005E-13, -9.0000000000000012E-11, -4.2, 1.2033333333333334E-11, 1.5000000000000002E-09, -1.1500000000000046E-11
DataValue, 5, 6.9200000000000008E-13, -9.0000000000000012E-11, -4.15, 1.1533333333333335E-11, 1.5000000000000002E-09, -3.00000000000001E-12
DataValue, 5, 7.04E-13, -1.0000000000000002E-10, -4.1000000000000005, 1.1733333333333335E-11, 1.6666666666666669E-09, 5.0000000000000978E-13
DataValue, 5, 6.9500000000000007E-13, -1.0000000000000002E-10, -4.0500000000000007, 1.1583333333333335E-11, 1.6666666666666669E-09, -7.9999999999999562E-12
DataValue, 5, 6.56E-13, -1.0000000000000002E-10, -4, 1.0933333333333335E-11, 1.6666666666666669E-09, -3.8333333333333258E-12
DataValue, 5, 6.7200000000000006E-13, -1.0000000000000002E-10, -3.95, 1.12E-11, 1.6666666666666669E-09, -8.3333333333333338E-13
DataValue, 5, 6.5100000000000005E-13, -1.0000000000000002E-10, -3.9000000000000004, 1.0850000000000002E-11, 1.6666666666666669E-09, -1.3666666666666723E-11
DataValue, 5, 5.9E-13, -1.0000000000000002E-10, -3.8500000000000005, 9.8333333333333333E-12, 1.6666666666666669E-09, -5.1666666666666634E-12
DataValue, 5, 6.2000000000000008E-13, -9.0000000000000012E-11, -3.8000000000000003, 1.0333333333333335E-11, 1.5000000000000002E-09, 2.3333333333333362E-12
DataValue, 5, 6.0400000000000005E-13, -9.0000000000000012E-11, -3.7500000000000004, 1.0066666666666667E-11, 1.5000000000000002E-09, 2.8333333333333276E-12
DataValue, 5, 6.37E-13, -1.0000000000000002E-10, -3.7, 1.0616666666666668E-11, 1.6666666666666669E-09, -1.3333333333333211E-12
DataValue, 5, 5.9600000000000009E-13, -1.0000000000000002E-10, -3.6500000000000004, 9.9333333333333349E-12, 1.6666666666666669E-09, -8.4999999999999981E-12
DataValue, 5, 5.86E-13, -1.0000000000000002E-10, -3.6, 9.7666666666666672E-12, 1.6666666666666669E-09, -1.3166666666666671E-11
DataValue, 5, 5.17E-13, -1.0000000000000002E-10, -3.5500000000000003, 8.6166666666666666E-12, 1.6666666666666669E-09, 8.3333333333333659E-12
DataValue, 5, 6.36E-13, -1.0000000000000002E-10, -3.5000000000000004, 1.0600000000000001E-11, 1.6666666666666669E-09, 1.5666666666666661E-11
DataValue, 5, 6.11E-13, -1.0000000000000002E-10, -3.45, 1.0183333333333334E-11, 1.6666666666666669E-09, -1.2999999999999986E-11
DataValue, 5, 5.58E-13, -9.0000000000000012E-11, -3.4000000000000004, 9.3000000000000012E-12, 1.5000000000000002E-09, -1.8499999999999988E-11
DataValue, 5, 5E-13, -9.0000000000000012E-11, -3.35, 8.3333333333333336E-12, 1.5000000000000002E-09, -5.3333333333333165E-12
DataValue, 5, 5.2600000000000008E-13, -1.0000000000000002E-10, -3.3000000000000003, 8.766666666666669E-12, 1.6666666666666669E-09, 4.5000000000000232E-12
DataValue, 5, 5.2700000000000008E-13, -1.0000000000000002E-10, -3.2500000000000004, 8.7833333333333343E-12, 1.6666666666666669E-09, 9.9999999999998281E-13
DataValue, 5, 5.3200000000000006E-13, -9.0000000000000012E-11, -3.2, 8.8666666666666674E-12, 1.5000000000000002E-09, -3.1666666666666658E-12
DataValue, 5, 5.0800000000000006E-13, -9.0000000000000012E-11, -3.1500000000000004, 8.4666666666666675E-12, 1.5000000000000002E-09, -4.9999999999999787E-12
DataValue, 5, 5.0200000000000008E-13, -9.0000000000000012E-11, -3.1, 8.3666666666666691E-12, 1.5000000000000002E-09, 7.0000000000000081E-12
DataValue, 5, 5.5000000000000008E-13, -1.0000000000000002E-10, -3.0500000000000003, 9.1666666666666689E-12, 1.6666666666666669E-09, -7.3333333333333629E-12
DataValue, 5, 4.5800000000000007E-13, -1.0000000000000002E-10, -3.0000000000000004, 7.6333333333333354E-12, 1.6666666666666669E-09, -2.5000000000000055E-12
DataValue, 5, 5.35E-13, -9.0000000000000012E-11, -2.95, 8.9166666666666682E-12, 1.5000000000000002E-09, 1.0833333333333302E-11
DataValue, 5, 5.23E-13, -9.0000000000000012E-11, -2.9000000000000004, 8.7166666666666666E-12, 1.5000000000000002E-09, 1.6666666666665302E-13
DataValue, 5, 5.36E-13, -9.0000000000000012E-11, -2.85, 8.9333333333333335E-12, 1.5000000000000002E-09, -1.4999999999999984E-11
DataValue, 5, 4.33E-13, -1.0000000000000002E-10, -2.8000000000000003, 7.2166666666666669E-12, 1.6666666666666669E-09, -1.2666666666666704E-11
DataValue, 5, 4.6000000000000006E-13, -9.0000000000000012E-11, -2.7500000000000004, 7.6666666666666677E-12, 1.5000000000000002E-09, 1.6166666666666669E-11
DataValue, 5, 5.3000000000000006E-13, -9.0000000000000012E-11, -2.7, 8.8333333333333351E-12, 1.5000000000000002E-09, 6.4999999999999848E-12
DataValue, 5, 4.99E-13, -9.0000000000000012E-11, -2.6500000000000004, 8.3166666666666667E-12, 1.5000000000000002E-09, -1.2333333333333325E-11
DataValue, 5, 4.5600000000000008E-13, -1.0000000000000002E-10, -2.6, 7.6000000000000015E-12, 1.6666666666666669E-09, -4.3333333333333337E-12
DataValue, 5, 4.73E-13, -8.0000000000000008E-11, -2.5500000000000003, 7.8833333333333329E-12, 1.3333333333333335E-09, 1.049999999999998E-11
DataValue, 5, 5.19E-13, -9.0000000000000012E-11, -2.5, 8.65E-12, 1.5000000000000002E-09, 1.4166666666666669E-11
DataValue, 5, 5.58E-13, -9.0000000000000012E-11, -2.45, 9.3000000000000012E-12, 1.5000000000000002E-09, -1.7666666666666728E-11
DataValue, 5, 4.13E-13, -9.0000000000000012E-11, -2.4000000000000004, 6.883333333333334E-12, 1.5000000000000002E-09, -1.6666666666666641E-11
DataValue, 5, 4.5800000000000007E-13, -1.0000000000000002E-10, -2.35, 7.6333333333333354E-12, 1.6666666666666669E-09, 6.0000000000000011E-12
DataValue, 5, 4.4900000000000006E-13, -9.0000000000000012E-11, -2.3000000000000003, 7.4833333333333346E-12, 1.5000000000000002E-09, -2.5000000000000055E-12
DataValue, 5, 4.4300000000000003E-13, -9.0000000000000012E-11, -2.25, 7.3833333333333347E-12, 1.5000000000000002E-09, 1.5000000000000063E-12
DataValue, 5, 4.5800000000000007E-13, -9.0000000000000012E-11, -2.2, 7.6333333333333354E-12, 1.5000000000000002E-09, 7.0000000000000235E-12
DataValue, 5, 4.8500000000000005E-13, -9.0000000000000012E-11, -2.1500000000000004, 8.0833333333333345E-12, 1.5000000000000002E-09, -7.0000000000000081E-12
DataValue, 5, 4.1600000000000004E-13, -9.0000000000000012E-11, -2.1, 6.9333333333333339E-12, 1.5000000000000002E-09, -5.500000000000002E-12
DataValue, 5, 4.5200000000000004E-13, -9.0000000000000012E-11, -2.0500000000000003, 7.5333333333333338E-12, 1.5000000000000002E-09, 2.4999999999999974E-12
DataValue, 5, 4.3100000000000003E-13, -9.0000000000000012E-11, -2, 7.1833333333333339E-12, 1.5000000000000002E-09, -2.1666666666666507E-12
DataValue, 5, 4.3900000000000005E-13, -9.0000000000000012E-11, -1.9500000000000002, 7.3166666666666685E-12, 1.5000000000000002E-09, 8.3333333333333157E-13
DataValue, 5, 4.36E-13, -9.0000000000000012E-11, -1.9000000000000001, 7.2666666666666669E-12, 1.5000000000000002E-09, -1.2666666666666671E-11
DataValue, 5, 3.63E-13, -9.0000000000000012E-11, -1.85, 6.05E-12, 1.5000000000000002E-09, -1.149999999999998E-11
DataValue, 5, 3.6700000000000005E-13, -9.0000000000000012E-11, -1.8, 6.116666666666668E-12, 1.5000000000000002E-09, 3.33333333333331E-13
DataValue, 5, 3.65E-13, -9.0000000000000012E-11, -1.7500000000000002, 6.0833333333333333E-12, 1.5000000000000002E-09, -1.8000000000000035E-11
DataValue, 5, 2.59E-13, -9.0000000000000012E-11, -1.7000000000000002, 4.3166666666666668E-12, 1.5000000000000002E-09, -2.3333333333333281E-12
DataValue, 5, 3.51E-13, -9.0000000000000012E-11, -1.6500000000000001, 5.85E-12, 1.5000000000000002E-09, 9.99999999999999E-12
DataValue, 5, 3.19E-13, -9.0000000000000012E-11, -1.6, 5.3166666666666666E-12, 1.5000000000000002E-09, 5.999999999999993E-12
DataValue, 5, 3.87E-13, -9.0000000000000012E-11, -1.55, 6.45E-12, 1.5000000000000002E-09, 3.5000000000000121E-12
DataValue, 5, 3.4E-13, -1.0000000000000002E-10, -1.5000000000000002, 5.6666666666666673E-12, 1.6666666666666669E-09, -1.5333333333333355E-11
DataValue, 5, 2.95E-13, -1.0000000000000002E-10, -1.4500000000000002, 4.9166666666666667E-12, 1.6666666666666669E-09, 5.3333333333333327E-12
DataValue, 5, 3.7200000000000003E-13, -1.0000000000000002E-10, -1.4000000000000001, 6.200000000000001E-12, 1.6666666666666669E-09, 2.449999999999999E-11
DataValue, 5, 4.4200000000000004E-13, -1.0000000000000002E-10, -1.35, 7.3666666666666677E-12, 1.6666666666666669E-09, -2.1666666666666669E-12
DataValue, 5, 3.5900000000000004E-13, -1.0000000000000002E-10, -1.3, 5.9833333333333342E-12, 1.6666666666666669E-09, -7.83333333333333E-12
DataValue, 5, 3.9500000000000003E-13, -1.0000000000000002E-10, -1.25, 6.583333333333334E-12, 1.6666666666666669E-09, 1.5000000000000017E-12
DataValue, 5, 3.6800000000000005E-13, -1.0000000000000002E-10, -1.2000000000000002, 6.1333333333333341E-12, 1.6666666666666669E-09, -2.1666666666666636E-12
DataValue, 5, 3.8200000000000004E-13, -9.0000000000000012E-11, -1.1500000000000001, 6.3666666666666679E-12, 1.5000000000000002E-09, -2.6666666666666663E-12
DataValue, 5, 3.52E-13, -9.0000000000000012E-11, -1.1, 5.8666666666666672E-12, 1.5000000000000002E-09, 6.9999999999999839E-12
DataValue, 5, 4.24E-13, -1.0000000000000002E-10, -1.05, 7.066666666666667E-12, 1.6666666666666669E-09, 7.9999999999999918E-12
DataValue, 5, 4E-13, -9.0000000000000012E-11, -1, 6.6666666666666671E-12, 1.5000000000000002E-09, -8E-12
DataValue, 5, 3.76E-13, -1.0000000000000002E-10, -0.95000000000000007, 6.2666666666666672E-12, 1.6666666666666669E-09, -7.8333333333333386E-12
DataValue, 5, 3.53E-13, -9.0000000000000012E-11, -0.9, 5.8833333333333334E-12, 1.5000000000000002E-09, 3.1666666666666695E-12
DataValue, 5, 3.9500000000000003E-13, -9.0000000000000012E-11, -0.85000000000000009, 6.583333333333334E-12, 1.5000000000000002E-09, 5.833333333333339E-12
DataValue, 5, 3.88E-13, -1.0000000000000002E-10, -0.8, 6.4666666666666671E-12, 1.6666666666666669E-09, -4.5E-12
DataValue, 5, 3.6800000000000005E-13, -1.0000000000000002E-10, -0.75000000000000011, 6.1333333333333341E-12, 1.6666666666666669E-09, -6.3333333333333308E-12
DataValue, 5, 3.5E-13, -9.0000000000000012E-11, -0.70000000000000007, 5.8333333333333342E-12, 1.5000000000000002E-09, 3.3333333333333026E-13
DataValue, 5, 3.7000000000000004E-13, -1.0000000000000002E-10, -0.65, 6.1666666666666672E-12, 1.6666666666666669E-09, 9E-12
DataValue, 5, 4.0400000000000005E-13, -1.0000000000000002E-10, -0.60000000000000009, 6.733333333333334E-12, 1.6666666666666669E-09, -6.6666666666666931E-13
DataValue, 5, 3.66E-13, -9.0000000000000012E-11, -0.55, 6.1E-12, 1.5000000000000002E-09, 3.5000000000000041E-12
DataValue, 5, 4.2500000000000006E-13, -9.0000000000000012E-11, -0.5, 7.0833333333333347E-12, 1.5000000000000002E-09, -6.3333333333333268E-12
DataValue, 5, 3.28E-13, -9.0000000000000012E-11, -0.45, 5.4666666666666673E-12, 1.5000000000000002E-09, -8.0000000000000079E-12
DataValue, 5, 3.77E-13, -9.0000000000000012E-11, -0.4, 6.2833333333333341E-12, 1.5000000000000002E-09, 6.6666666666666695E-12
DataValue, 5, 3.6800000000000005E-13, -9.0000000000000012E-11, -0.35000000000000003, 6.1333333333333341E-12, 1.5000000000000002E-09, -1.5E-12
DataValue, 5, 3.6800000000000005E-13, -1.0000000000000002E-10, -0.30000000000000004, 6.1333333333333341E-12, 1.6666666666666669E-09, -2.8333333333333373E-12
DataValue, 5, 3.51E-13, -1.0000000000000002E-10, -0.25, 5.85E-12, 1.6666666666666669E-09, 6.999999999999996E-12
DataValue, 5, 4.1E-13, -1.0000000000000002E-10, -0.2, 6.833333333333334E-12, 1.6666666666666669E-09, 4E-12
DataValue, 5, 3.75E-13, -9.0000000000000012E-11, -0.15000000000000002, 6.25E-12, 1.5000000000000002E-09, 8.6666666666666755E-12
