
SetupTitle, HEMT_transfer
PrimitiveTest, I/V Sweep
TestParameter, Context.MainFrame, B1500A
TestParameter, Channel.UnitType, SMU, SMU, SMU
TestParameter, Channel.Unit, SMU1:MP, SMU2:MC, GNDU:GND
TestParameter, Channel.IName, Id, Ig, Is
TestParameter, Channel.VName, Vd, Vg, Vs
TestParameter, Channel.Mode, V, V, COMMON
TestParameter, Channel.Func, CONST, VAR1, CONST
TestParameter, Channel.Index, 
TestParameter, Channel.Time, 
TestParameter, Measurement.Port.Unit, SMU1:MP, SMU2:MC, GNDU:GND
TestParameter, Measurement.Port.SeriesResistor, NONE, NONE, NONE
TestParameter, Measurement.Port.Filter, ON, ON, ON
TestParameter, Measurement.Port.OutputVoltageComparison, 0, 0, 0
TestParameter, Measurement.Primary.Locus, Single
TestParameter, Measurement.Primary.Scale, LINEAR
TestParameter, Measurement.Primary.Start, -5
TestParameter, Measurement.Primary.Stop, 5
TestParameter, Measurement.Primary.Step, 0.05
TestParameter, Measurement.Primary.Compliance, 0.001
TestParameter, Measurement.Primary.PowerCompliance, 0
TestParameter, Measurement.Aborting.Condition, CONTINUE AT ANY
TestParameter, Measurement.PostOutput.Value, START
TestParameter, Measurement.PostOutput.Retention, OFF
TestParameter, Measurement.Bias.Source, 5, -5, 0
TestParameter, Measurement.Bias.Compliance, 0.1, 0.001, 2
TestParameter, Measurement.Monitor.Unit, SMU1:MP, SMU2:MC, GNDU:GND
TestParameter, Measurement.Monitor.Adc, HR ADC, HS ADC, HR ADC
TestParameter, Measurement.Monitor.Measurement, Compliance Side, Force and Compliance Sides, Compliance Side
TestParameter, Measurement.Monitor.RangingMode, LIMITED, LIMITED, LIMITED
TestParameter, Measurement.Monitor.RangeBoundary, 1nA, 10uA, 1nA
TestParameter, Measurement.Monitor.RangeRating, BY FULL RANGE, BY FULL RANGE, BY FULL RANGE
TestParameter, Measurement.Monitor.RangeRatingCoeff, 50, 50, 50
TestParameter, Measurement.Timing.Hold, 0
TestParameter, Measurement.Timing.Delay, 0
TestParameter, Measurement.Adc.HighSpeed.Mode, PLC
TestParameter, Measurement.Adc.HighSpeed.Coeff, 2
TestParameter, Measurement.Adc.HighResolution.AutoZero, OFF
TestParameter, Measurement.Adc.HighResolution.Mode, PLC
TestParameter, Measurement.Adc.HighResolution.Coeff, 2
TestParameter, Measurement.WaitTime.Source.Coeff, 1
TestParameter, Measurement.WaitTime.Source.Offset, 0
TestParameter, Measurement.WaitTime.Monitor.Coeff, 1
TestParameter, Measurement.WaitTime.Monitor.Offset, 0
TestParameter, Function.User.Name, Id_dens, Ig_dens, gm
TestParameter, Function.User.Unit, A/mm, A/mm, S/mm
TestParameter, Function.User.Definition, Id/0.06, abs(Ig)/0.06, diff(Id_dens,Vg)
TestParameter, Output.Graph.Enabled, true
TestParameter, Output.Graph.AutoScaling, false
TestParameter, Output.Graph.XAxis.Data, Vg
TestParameter, Output.Graph.XAxis.Scale, Linear
TestParameter, Output.Graph.XAxis.Left, -2
TestParameter, Output.Graph.XAxis.Right, 10
TestParameter, Output.Graph.XAxis.RunTimeAutoScale, false
TestParameter, Output.Graph.YAxis.Data, Id_dens, Id_dens, gm, Ig_dens
TestParameter, Output.Graph.YAxis.Scale, Log, Linear, Linear, Log
TestParameter, Output.Graph.YAxis.Bottom, 0, 0, 0, 0
TestParameter, Output.Graph.YAxis.Top, 1, 1, 1, 1
TestParameter, Output.Graph.YAxis.Group, , , , 
TestParameter, Output.Graph.YAxis.RunTimeAutoScale, false, false, false, false
TestParameter, Output.List.Data, Vg, Id_dens, Ig_dens, Vd, gm
TestParameter, AutoAnalysis.Interpolation, false
TestParameter, AutoAnalysis.Line1.Enabled, false
TestParameter, AutoAnalysis.Line1.Type, 1
TestParameter, AutoAnalysis.Line1.Fix, True
TestParameter, AutoAnalysis.Line1.YAxis, 0
TestParameter, AutoAnalysis.Line1.Point1.Type, 0
TestParameter, AutoAnalysis.Line1.Point1.XY.X, 
TestParameter, AutoAnalysis.Line1.Point1.XY.Y, 
TestParameter, AutoAnalysis.Line1.Point1.Data.Var, 
TestParameter, AutoAnalysis.Line1.Point1.Data.Condition, 
TestParameter, AutoAnalysis.Line1.Point1.Data.Start, false
TestParameter, AutoAnalysis.Line1.Point1.Data.StartVar, 
TestParameter, AutoAnalysis.Line1.Point1.Data.StartCondition, 
TestParameter, AutoAnalysis.Line1.Point2.Type, 0
TestParameter, AutoAnalysis.Line1.Point2.XY.X, 
TestParameter, AutoAnalysis.Line1.Point2.XY.Y, 
TestParameter, AutoAnalysis.Line1.Point2.Data.Var, 
TestParameter, AutoAnalysis.Line1.Point2.Data.Condition, 
TestParameter, AutoAnalysis.Line1.Point2.Data.Start, false
TestParameter, AutoAnalysis.Line1.Point2.Data.StartVar, 
TestParameter, AutoAnalysis.Line1.Point2.Data.StartCondition, 
TestParameter, AutoAnalysis.Line1.GradientExpr, 0
TestParameter, AutoAnalysis.Line2.Enabled, false
TestParameter, AutoAnalysis.Line2.Type, 1
TestParameter, AutoAnalysis.Line2.Fix, True
TestParameter, AutoAnalysis.Line2.YAxis, 0
TestParameter, AutoAnalysis.Line2.Point1.Type, 0
TestParameter, AutoAnalysis.Line2.Point1.XY.X, 
TestParameter, AutoAnalysis.Line2.Point1.XY.Y, 
TestParameter, AutoAnalysis.Line2.Point1.Data.Var, 
TestParameter, AutoAnalysis.Line2.Point1.Data.Condition, 
TestParameter, AutoAnalysis.Line2.Point1.Data.Start, false
TestParameter, AutoAnalysis.Line2.Point1.Data.StartVar, 
TestParameter, AutoAnalysis.Line2.Point1.Data.StartCondition, 
TestParameter, AutoAnalysis.Line2.Point2.Type, 0
TestParameter, AutoAnalysis.Line2.Point2.XY.X, 
TestParameter, AutoAnalysis.Line2.Point2.XY.Y, 
TestParameter, AutoAnalysis.Line2.Point2.Data.Var, 
TestParameter, AutoAnalysis.Line2.Point2.Data.Condition, 
TestParameter, AutoAnalysis.Line2.Point2.Data.Start, false
TestParameter, AutoAnalysis.Line2.Point2.Data.StartVar, 
TestParameter, AutoAnalysis.Line2.Point2.Data.StartCondition, 
TestParameter, AutoAnalysis.Line2.GradientExpr, 0
TestParameter, AutoAnalysis.Marker.Enabled, false
TestParameter, AutoAnalysis.Marker.Data.Var, 
TestParameter, AutoAnalysis.Marker.Data.Condition, 
TestParameter, AutoAnalysis.Marker.Data.Start, false
TestParameter, AutoAnalysis.Marker.Data.StartVar, 
TestParameter, AutoAnalysis.Marker.Data.StartCondition, 
MetaData, TestRecord.EntryPoint, true
MetaData, TestRecord.RecordTime, 08/14/2019 11:51:25
MetaData, TestRecord.TestTarget, 
MetaData, TestRecord.IterationIndex, 2
MetaData, TestRecord.Preservation, true
MetaData, TestRecord.Flag, #
MetaData, TestRecord.Remarks, #188_F_implant_5nm_cap_die2_r4c1_W40_S50
MetaData, TestRecord.LinkKey, ba74651d-1505-41d0-b19c-8695fb310daa
Dimension1, 201, 201, 201, 201, 201, 201, 201
Dimension2, 1, 1, 1, 1, 1, 1, 1
DataName, Vd, Id, Ig, Vg, Id_dens, Ig_dens, gm
DataValue, 5, 2.841E-12, -1.9000000000000002E-10, -5, 4.735E-11, 3.1666666666666669E-09, -2.2533333333333411E-10
DataValue, 5, 2.165E-12, -1.4E-10, -4.95, 3.6083333333333338E-11, 2.3333333333333335E-09, -1.653333333333339E-10
DataValue, 5, 1.8490000000000003E-12, -1.3000000000000002E-10, -4.9, 3.0816666666666671E-11, 2.166666666666667E-09, -8.8000000000000329E-11
DataValue, 5, 1.6370000000000002E-12, -1.3000000000000002E-10, -4.8500000000000005, 2.7283333333333337E-11, 2.166666666666667E-09, -4.7666666666666851E-11
DataValue, 5, 1.5630000000000001E-12, -1.4E-10, -4.8000000000000007, 2.6050000000000003E-11, 2.3333333333333335E-09, -3.6999999999999808E-11
DataValue, 5, 1.4150000000000001E-12, -1.3000000000000002E-10, -4.75, 2.3583333333333336E-11, 2.166666666666667E-09, -3.74999999999998E-11
DataValue, 5, 1.3380000000000002E-12, -1.4E-10, -4.7, 2.2300000000000003E-11, 2.3333333333333335E-09, -3.4833333333333446E-11
DataValue, 5, 1.2060000000000001E-12, -1.4E-10, -4.65, 2.0100000000000004E-11, 2.3333333333333335E-09, -3.5500000000000129E-11
DataValue, 5, 1.1250000000000002E-12, -1.3000000000000002E-10, -4.6000000000000005, 1.8750000000000003E-11, 2.166666666666667E-09, -3.6666666666666831E-11
DataValue, 5, 9.86E-13, -1.2E-10, -4.5500000000000007, 1.6433333333333333E-11, 2E-09, -1.1499999999999944E-11
DataValue, 5, 1.0560000000000002E-12, -1.4E-10, -4.5, 1.7600000000000003E-11, 2.3333333333333335E-09, 2.3333333333333227E-11
DataValue, 5, 1.126E-12, -1.3000000000000002E-10, -4.45, 1.8766666666666668E-11, 2.166666666666667E-09, -5.66666666666668E-12
DataValue, 5, 1.022E-12, -1.3000000000000002E-10, -4.4, 1.7033333333333337E-11, 2.166666666666667E-09, -3.7000000000000137E-11
DataValue, 5, 9.0400000000000009E-13, -1.3000000000000002E-10, -4.3500000000000005, 1.5066666666666668E-11, 2.166666666666667E-09, -4.5000000000000181E-11
DataValue, 5, 7.52E-13, -1.3000000000000002E-10, -4.3000000000000007, 1.2533333333333334E-11, 2.166666666666667E-09, -1.1999999999999933E-11
DataValue, 5, 8.3200000000000009E-13, -1.3000000000000002E-10, -4.25, 1.3866666666666668E-11, 2.166666666666667E-09, 6.6666666666666404E-12
DataValue, 5, 7.9200000000000006E-13, -1.3000000000000002E-10, -4.2, 1.3200000000000002E-11, 2.166666666666667E-09, -2.0000000000000068E-12
DataValue, 5, 8.2E-13, -1.2E-10, -4.15, 1.3666666666666668E-11, 2E-09, -8.6666666666667062E-12
DataValue, 5, 7.4000000000000008E-13, -1.2E-10, -4.1000000000000005, 1.2333333333333334E-11, 2E-09, 3.50000000000002E-12
DataValue, 5, 8.4100000000000005E-13, -1.3000000000000002E-10, -4.0500000000000007, 1.4016666666666669E-11, 2.166666666666667E-09, 6.6666666666667376E-13
DataValue, 5, 7.4400000000000006E-13, -1.3000000000000002E-10, -4, 1.2400000000000002E-11, 2.166666666666667E-09, -1.233333333333327E-11
DataValue, 5, 7.6700000000000006E-13, -1.2E-10, -3.95, 1.2783333333333335E-11, 2E-09, -1.6666666666666732E-11
DataValue, 5, 6.4400000000000008E-13, -1.3000000000000002E-10, -3.9000000000000004, 1.0733333333333335E-11, 2.166666666666667E-09, -1.9833333333333413E-11
DataValue, 5, 6.4800000000000007E-13, -1.3000000000000002E-10, -3.8500000000000005, 1.0800000000000001E-11, 2.166666666666667E-09, 1.8999999999999996E-11
DataValue, 5, 7.580000000000001E-13, -1.3000000000000002E-10, -3.8000000000000003, 1.2633333333333336E-11, 2.166666666666667E-09, 1.6333333333333322E-11
DataValue, 5, 7.4600000000000005E-13, -1.2E-10, -3.7500000000000004, 1.2433333333333334E-11, 2E-09, -9.1666666666666754E-12
DataValue, 5, 7.03E-13, -1.2E-10, -3.7, 1.1716666666666668E-11, 2E-09, -4.1666666666666644E-12
DataValue, 5, 7.2100000000000006E-13, -1.3000000000000002E-10, -3.6500000000000004, 1.2016666666666668E-11, 2.166666666666667E-09, -2.3333333333333314E-11
DataValue, 5, 5.63E-13, -1.3000000000000002E-10, -3.6, 9.3833333333333342E-12, 2.166666666666667E-09, -1.2499999999999978E-11
DataValue, 5, 6.4600000000000007E-13, -1.2E-10, -3.5500000000000003, 1.0766666666666669E-11, 2E-09, 7.666666666666687E-12
DataValue, 5, 6.09E-13, -1.2E-10, -3.5000000000000004, 1.015E-11, 2E-09, -7.1666666666666613E-12
DataValue, 5, 6.0300000000000006E-13, -1.2E-10, -3.45, 1.0050000000000002E-11, 2E-09, 2.6833333333333318E-11
DataValue, 5, 7.7000000000000005E-13, -1.1000000000000001E-10, -3.4000000000000004, 1.2833333333333334E-11, 1.8333333333333336E-09, 1.1999999999999986E-11
DataValue, 5, 6.7500000000000005E-13, -1.2E-10, -3.35, 1.1250000000000002E-11, 2E-09, -2.8166666666666637E-11
DataValue, 5, 6.0100000000000006E-13, -1.2E-10, -3.3000000000000003, 1.0016666666666668E-11, 2E-09, -1.1166666666666707E-11
DataValue, 5, 6.08E-13, -1.2E-10, -3.2500000000000004, 1.0133333333333335E-11, 2E-09, 1.8333333333333286E-12
DataValue, 5, 6.12E-13, -1.2E-10, -3.2, 1.0200000000000001E-11, 2E-09, -5.0000000000000756E-13
DataValue, 5, 6.05E-13, -1.2E-10, -3.1500000000000004, 1.0083333333333334E-11, 2E-09, 1.1666666666666649E-11
DataValue, 5, 6.82E-13, -1.1000000000000001E-10, -3.1, 1.1366666666666667E-11, 1.8333333333333336E-09, 1.1499999999999996E-11
DataValue, 5, 6.7400000000000006E-13, -1.1000000000000001E-10, -3.0500000000000003, 1.1233333333333335E-11, 1.8333333333333336E-09, -1.7666666666666719E-11
DataValue, 5, 5.7600000000000007E-13, -1.2E-10, -3.0000000000000004, 9.6000000000000011E-12, 2E-09, -1.4333333333333323E-11
DataValue, 5, 5.88E-13, -1.2E-10, -2.95, 9.8000000000000011E-12, 2E-09, 4.500000000000003E-12
DataValue, 5, 6.0300000000000006E-13, -1.1000000000000001E-10, -2.9000000000000004, 1.0050000000000002E-11, 1.8333333333333336E-09, -5.8333333333333245E-12
DataValue, 5, 5.5300000000000007E-13, -1.1000000000000001E-10, -2.85, 9.2166666666666681E-12, 1.8333333333333336E-09, 1.4999999999999984E-11
DataValue, 5, 6.9300000000000008E-13, -1.2E-10, -2.8000000000000003, 1.1550000000000002E-11, 2E-09, 2.4000000000000079E-11
DataValue, 5, 6.9700000000000006E-13, -1.1000000000000001E-10, -2.7500000000000004, 1.1616666666666668E-11, 1.8333333333333336E-09, -2.8333333333333323E-11
DataValue, 5, 5.23E-13, -1.1000000000000001E-10, -2.7, 8.7166666666666666E-12, 1.8333333333333336E-09, -2.4999999999999972E-11
DataValue, 5, 5.4700000000000009E-13, -1.1000000000000001E-10, -2.6500000000000004, 9.1166666666666681E-12, 1.8333333333333336E-09, -1.1833333333333317E-11
DataValue, 5, 4.5200000000000004E-13, -1.1000000000000001E-10, -2.6, 7.5333333333333338E-12, 1.8333333333333336E-09, -2.4666666666666659E-11
DataValue, 5, 3.99E-13, -1.1000000000000001E-10, -2.5500000000000003, 6.65E-12, 1.8333333333333336E-09, 1.6666666666666658E-11
DataValue, 5, 5.5200000000000007E-13, -1.2E-10, -2.5, 9.2000000000000012E-12, 2E-09, 4.5666666666666632E-11
DataValue, 5, 6.7300000000000006E-13, -1.1000000000000001E-10, -2.45, 1.1216666666666668E-11, 1.8333333333333336E-09, -9.50000000000004E-12
DataValue, 5, 4.95E-13, -1.1000000000000001E-10, -2.4000000000000004, 8.25E-12, 1.8333333333333336E-09, -3.0666666666666645E-11
DataValue, 5, 4.89E-13, -1.1000000000000001E-10, -2.35, 8.15E-12, 1.8333333333333336E-09, -6.1666666666666462E-12
DataValue, 5, 4.5800000000000007E-13, -1.0000000000000002E-10, -2.3000000000000003, 7.6333333333333354E-12, 1.6666666666666669E-09, -9.49999999999999E-12
DataValue, 5, 4.3200000000000003E-13, -1.1000000000000001E-10, -2.25, 7.2000000000000008E-12, 1.8333333333333336E-09, -5.0000000000000029E-12
DataValue, 5, 4.2800000000000004E-13, -1.1000000000000001E-10, -2.2, 7.1333333333333347E-12, 1.8333333333333336E-09, -1.0000000000000033E-11
DataValue, 5, 3.7200000000000003E-13, -1.1000000000000001E-10, -2.1500000000000004, 6.200000000000001E-12, 1.8333333333333336E-09, 1.99999999999999E-12
DataValue, 5, 4.4000000000000004E-13, -1.1000000000000001E-10, -2.1, 7.3333333333333339E-12, 1.8333333333333336E-09, 2.5166666666666635E-11
DataValue, 5, 5.23E-13, -1.1000000000000001E-10, -2.0500000000000003, 8.7166666666666666E-12, 1.8333333333333336E-09, -5.3333333333333246E-12
DataValue, 5, 4.0800000000000003E-13, -1.0000000000000002E-10, -2, 6.8000000000000009E-12, 1.6666666666666669E-09, -7.6666666666666531E-12
DataValue, 5, 4.77E-13, -1.0000000000000002E-10, -1.9500000000000002, 7.95E-12, 1.6666666666666669E-09, -3.6666666666666734E-12
DataValue, 5, 3.86E-13, -1.0000000000000002E-10, -1.9000000000000001, 6.4333333333333341E-12, 1.6666666666666669E-09, 2.1666666666666669E-12
DataValue, 5, 4.9E-13, -1.1000000000000001E-10, -1.85, 8.1666666666666675E-12, 1.8333333333333336E-09, 2.93333333333333E-11
DataValue, 5, 5.62E-13, -1.1000000000000001E-10, -1.8, 9.3666666666666673E-12, 1.8333333333333336E-09, 1.5333333333333355E-11
DataValue, 5, 5.82E-13, -1.1000000000000001E-10, -1.7500000000000002, 9.7000000000000011E-12, 1.8333333333333336E-09, -1.8500000000000014E-11
DataValue, 5, 4.5100000000000005E-13, -1.1000000000000001E-10, -1.7000000000000002, 7.5166666666666685E-12, 1.8333333333333336E-09, -8.3333333333333288E-12
DataValue, 5, 5.3200000000000006E-13, -1.1000000000000001E-10, -1.6500000000000001, 8.8666666666666674E-12, 1.8333333333333336E-09, -9.8333333333333365E-12
DataValue, 5, 3.9200000000000005E-13, -1.1000000000000001E-10, -1.6, 6.533333333333334E-12, 1.8333333333333336E-09, -2.3166666666666645E-11
DataValue, 5, 3.9300000000000004E-13, -1.1000000000000001E-10, -1.55, 6.550000000000001E-12, 1.8333333333333336E-09, 9.16666666666668E-12
DataValue, 5, 4.47E-13, -1.2E-10, -1.5000000000000002, 7.45E-12, 2E-09, 2.5333333333333365E-11
DataValue, 5, 5.45E-13, -1.1000000000000001E-10, -1.4500000000000002, 9.0833333333333343E-12, 1.8333333333333336E-09, 1.8666666666666657E-11
DataValue, 5, 5.59E-13, -1.0000000000000002E-10, -1.4000000000000001, 9.3166666666666681E-12, 1.6666666666666669E-09, 1.1666666666666681E-12
DataValue, 5, 5.5200000000000007E-13, -1.1000000000000001E-10, -1.35, 9.2000000000000012E-12, 1.8333333333333336E-09, -1.1666666666666665E-11
DataValue, 5, 4.89E-13, -1.1000000000000001E-10, -1.3, 8.15E-12, 1.8333333333333336E-09, -2.9333333333333316E-11
DataValue, 5, 3.76E-13, -1.1000000000000001E-10, -1.25, 6.2666666666666672E-12, 1.8333333333333336E-09, -2.0333333333333354E-11
DataValue, 5, 3.6700000000000005E-13, -1.1000000000000001E-10, -1.2000000000000002, 6.116666666666668E-12, 1.8333333333333336E-09, 3.2833333333333394E-11
DataValue, 5, 5.7300000000000008E-13, -1.0000000000000002E-10, -1.1500000000000001, 9.5500000000000019E-12, 1.6666666666666669E-09, 2.5999999999999962E-11
DataValue, 5, 5.23E-13, -1.1000000000000001E-10, -1.1, 8.7166666666666666E-12, 1.8333333333333336E-09, 3.9999999999999959E-12
DataValue, 5, 5.9700000000000008E-13, -1.1000000000000001E-10, -1.05, 9.9500000000000018E-12, 1.8333333333333336E-09, 9.6666666666666672E-12
DataValue, 5, 5.81E-13, -1.1000000000000001E-10, -1, 9.6833333333333341E-12, 1.8333333333333336E-09, -2.5333333333333356E-11
DataValue, 5, 4.45E-13, -1.1000000000000001E-10, -0.95000000000000007, 7.4166666666666669E-12, 1.8333333333333336E-09, -2.3E-11
DataValue, 5, 4.4300000000000003E-13, -1.1000000000000001E-10, -0.9, 7.3833333333333347E-12, 1.8333333333333336E-09, 1.8333333333333354E-11
DataValue, 5, 5.5500000000000006E-13, -1.1000000000000001E-10, -0.85000000000000009, 9.250000000000002E-12, 1.8333333333333336E-09, 3.3333333333332254E-13
DataValue, 5, 4.45E-13, -1.1000000000000001E-10, -0.8, 7.4166666666666669E-12, 1.8333333333333336E-09, 1.4166666666666669E-11
DataValue, 5, 6.400000000000001E-13, -1.1000000000000001E-10, -0.75000000000000011, 1.0666666666666669E-11, 1.8333333333333336E-09, 2.2166666666666687E-11
DataValue, 5, 5.7800000000000006E-13, -1.1000000000000001E-10, -0.70000000000000007, 9.633333333333335E-12, 1.8333333333333336E-09, -1.0666666666666665E-11
DataValue, 5, 5.7600000000000007E-13, -1.1000000000000001E-10, -0.65, 9.6000000000000011E-12, 1.8333333333333336E-09, 9.3333333333333221E-12
DataValue, 5, 6.34E-13, -1.2E-10, -0.60000000000000009, 1.0566666666666667E-11, 2E-09, -7.83333333333333E-12
DataValue, 5, 5.2900000000000007E-13, -1.1000000000000001E-10, -0.55, 8.8166666666666682E-12, 1.8333333333333336E-09, -7.6666666666666531E-12
DataValue, 5, 5.88E-13, -1.0000000000000002E-10, -0.5, 9.8000000000000011E-12, 1.6666666666666669E-09, 3.8666666666666656E-11
DataValue, 5, 7.6100000000000009E-13, -1.1000000000000001E-10, -0.45, 1.2683333333333335E-11, 1.8333333333333336E-09, 1.4333333333333339E-11
DataValue, 5, 6.7400000000000006E-13, -1.1000000000000001E-10, -0.4, 1.1233333333333335E-11, 1.8333333333333336E-09, 3.0833333333333317E-11
DataValue, 5, 9.46E-13, -1.1000000000000001E-10, -0.35000000000000003, 1.5766666666666666E-11, 1.8333333333333336E-09, 3.71666666666667E-11
DataValue, 5, 8.9700000000000012E-13, -1.1000000000000001E-10, -0.30000000000000004, 1.4950000000000004E-11, 1.8333333333333336E-09, 5.0000000000002392E-13
DataValue, 5, 9.49E-13, -1.1000000000000001E-10, -0.25, 1.5816666666666668E-11, 1.8333333333333336E-09, 4.999999999999997E-11
DataValue, 5, 1.197E-12, -1.1000000000000001E-10, -0.2, 1.9950000000000003E-11, 1.8333333333333336E-09, 1.406666666666667E-10
DataValue, 5, 1.7930000000000001E-12, -1.1000000000000001E-10, -0.15000000000000002, 2.9883333333333336E-11, 1.8333333333333336E-09, 5.5333333333333328E-10
DataValue, 5, 4.517E-12, -1.0000000000000002E-10, -0.1, 7.5283333333333342E-11, 1.6666666666666669E-09, 2.0238333333333329E-09
DataValue, 5, 1.3936E-11, -1.1000000000000001E-10, -0.05, 2.3226666666666667E-10, 1.8333333333333336E-09, 7.549E-09
DataValue, 5, 4.9811E-11, -1.1000000000000001E-10, 0, 8.3018333333333342E-10, 1.8333333333333336E-09, 2.6815666666666664E-08
DataValue, 5, 1.7483E-10, -1.0000000000000002E-10, 0.05, 2.9138333333333334E-09, 1.6666666666666669E-09, 9.4051333333333355E-08
