
SetupTitle, HEMT_transfer
PrimitiveTest, I/V Sweep
TestParameter, Context.MainFrame, B1500A
TestParameter, Channel.UnitType, SMU, SMU, SMU
TestParameter, Channel.Unit, SMU1:MP, SMU2:MC, GNDU:GND
TestParameter, Channel.IName, Id, Ig, Is
TestParameter, Channel.VName, Vd, Vg, Vs
TestParameter, Channel.Mode, V, V, COMMON
TestParameter, Channel.Func, CONST, VAR1, CONST
TestParameter, Channel.Index, 
TestParameter, Channel.Time, 
TestParameter, Measurement.Port.Unit, SMU1:MP, SMU2:MC, GNDU:GND
TestParameter, Measurement.Port.SeriesResistor, NONE, NONE, NONE
TestParameter, Measurement.Port.Filter, ON, ON, ON
TestParameter, Measurement.Port.OutputVoltageComparison, 0, 0, 0
TestParameter, Measurement.Primary.Locus, Single
TestParameter, Measurement.Primary.Scale, LINEAR
TestParameter, Measurement.Primary.Start, -5
TestParameter, Measurement.Primary.Stop, 5
TestParameter, Measurement.Primary.Step, 0.05
TestParameter, Measurement.Primary.Compliance, 0.001
TestParameter, Measurement.Primary.PowerCompliance, 0
TestParameter, Measurement.Aborting.Condition, CONTINUE AT ANY
TestParameter, Measurement.PostOutput.Value, START
TestParameter, Measurement.PostOutput.Retention, OFF
TestParameter, Measurement.Bias.Source, 5, -5, 0
TestParameter, Measurement.Bias.Compliance, 0.1, 0.001, 2
TestParameter, Measurement.Monitor.Unit, SMU1:MP, SMU2:MC, GNDU:GND
TestParameter, Measurement.Monitor.Adc, HR ADC, HS ADC, HR ADC
TestParameter, Measurement.Monitor.Measurement, Compliance Side, Force and Compliance Sides, Compliance Side
TestParameter, Measurement.Monitor.RangingMode, LIMITED, LIMITED, LIMITED
TestParameter, Measurement.Monitor.RangeBoundary, 1nA, 10uA, 1nA
TestParameter, Measurement.Monitor.RangeRating, BY FULL RANGE, BY FULL RANGE, BY FULL RANGE
TestParameter, Measurement.Monitor.RangeRatingCoeff, 50, 50, 50
TestParameter, Measurement.Timing.Hold, 0
TestParameter, Measurement.Timing.Delay, 0
TestParameter, Measurement.Adc.HighSpeed.Mode, PLC
TestParameter, Measurement.Adc.HighSpeed.Coeff, 2
TestParameter, Measurement.Adc.HighResolution.AutoZero, OFF
TestParameter, Measurement.Adc.HighResolution.Mode, PLC
TestParameter, Measurement.Adc.HighResolution.Coeff, 2
TestParameter, Measurement.WaitTime.Source.Coeff, 1
TestParameter, Measurement.WaitTime.Source.Offset, 0
TestParameter, Measurement.WaitTime.Monitor.Coeff, 1
TestParameter, Measurement.WaitTime.Monitor.Offset, 0
TestParameter, Function.User.Name, Id_dens, Ig_dens, gm
TestParameter, Function.User.Unit, A/mm, A/mm, S/mm
TestParameter, Function.User.Definition, Id/0.06, abs(Ig)/0.06, diff(Id_dens,Vg)
TestParameter, Output.Graph.Enabled, true
TestParameter, Output.Graph.AutoScaling, false
TestParameter, Output.Graph.XAxis.Data, Vg
TestParameter, Output.Graph.XAxis.Scale, Linear
TestParameter, Output.Graph.XAxis.Left, -2
TestParameter, Output.Graph.XAxis.Right, 10
TestParameter, Output.Graph.XAxis.RunTimeAutoScale, false
TestParameter, Output.Graph.YAxis.Data, Id_dens, Id_dens, gm, Ig_dens
TestParameter, Output.Graph.YAxis.Scale, Log, Linear, Linear, Log
TestParameter, Output.Graph.YAxis.Bottom, 0, 0, 0, 0
TestParameter, Output.Graph.YAxis.Top, 1, 1, 1, 1
TestParameter, Output.Graph.YAxis.Group, , , , 
TestParameter, Output.Graph.YAxis.RunTimeAutoScale, false, false, false, false
TestParameter, Output.List.Data, Vg, Id_dens, Ig_dens, Vd, gm
TestParameter, AutoAnalysis.Interpolation, false
TestParameter, AutoAnalysis.Line1.Enabled, false
TestParameter, AutoAnalysis.Line1.Type, 1
TestParameter, AutoAnalysis.Line1.Fix, True
TestParameter, AutoAnalysis.Line1.YAxis, 0
TestParameter, AutoAnalysis.Line1.Point1.Type, 0
TestParameter, AutoAnalysis.Line1.Point1.XY.X, 
TestParameter, AutoAnalysis.Line1.Point1.XY.Y, 
TestParameter, AutoAnalysis.Line1.Point1.Data.Var, 
TestParameter, AutoAnalysis.Line1.Point1.Data.Condition, 
TestParameter, AutoAnalysis.Line1.Point1.Data.Start, false
TestParameter, AutoAnalysis.Line1.Point1.Data.StartVar, 
TestParameter, AutoAnalysis.Line1.Point1.Data.StartCondition, 
TestParameter, AutoAnalysis.Line1.Point2.Type, 0
TestParameter, AutoAnalysis.Line1.Point2.XY.X, 
TestParameter, AutoAnalysis.Line1.Point2.XY.Y, 
TestParameter, AutoAnalysis.Line1.Point2.Data.Var, 
TestParameter, AutoAnalysis.Line1.Point2.Data.Condition, 
TestParameter, AutoAnalysis.Line1.Point2.Data.Start, false
TestParameter, AutoAnalysis.Line1.Point2.Data.StartVar, 
TestParameter, AutoAnalysis.Line1.Point2.Data.StartCondition, 
TestParameter, AutoAnalysis.Line1.GradientExpr, 0
TestParameter, AutoAnalysis.Line2.Enabled, false
TestParameter, AutoAnalysis.Line2.Type, 1
TestParameter, AutoAnalysis.Line2.Fix, True
TestParameter, AutoAnalysis.Line2.YAxis, 0
TestParameter, AutoAnalysis.Line2.Point1.Type, 0
TestParameter, AutoAnalysis.Line2.Point1.XY.X, 
TestParameter, AutoAnalysis.Line2.Point1.XY.Y, 
TestParameter, AutoAnalysis.Line2.Point1.Data.Var, 
TestParameter, AutoAnalysis.Line2.Point1.Data.Condition, 
TestParameter, AutoAnalysis.Line2.Point1.Data.Start, false
TestParameter, AutoAnalysis.Line2.Point1.Data.StartVar, 
TestParameter, AutoAnalysis.Line2.Point1.Data.StartCondition, 
TestParameter, AutoAnalysis.Line2.Point2.Type, 0
TestParameter, AutoAnalysis.Line2.Point2.XY.X, 
TestParameter, AutoAnalysis.Line2.Point2.XY.Y, 
TestParameter, AutoAnalysis.Line2.Point2.Data.Var, 
TestParameter, AutoAnalysis.Line2.Point2.Data.Condition, 
TestParameter, AutoAnalysis.Line2.Point2.Data.Start, false
TestParameter, AutoAnalysis.Line2.Point2.Data.StartVar, 
TestParameter, AutoAnalysis.Line2.Point2.Data.StartCondition, 
TestParameter, AutoAnalysis.Line2.GradientExpr, 0
TestParameter, AutoAnalysis.Marker.Enabled, false
TestParameter, AutoAnalysis.Marker.Data.Var, 
TestParameter, AutoAnalysis.Marker.Data.Condition, 
TestParameter, AutoAnalysis.Marker.Data.Start, false
TestParameter, AutoAnalysis.Marker.Data.StartVar, 
TestParameter, AutoAnalysis.Marker.Data.StartCondition, 
MetaData, TestRecord.EntryPoint, true
MetaData, TestRecord.RecordTime, 08/14/2019 11:10:31
MetaData, TestRecord.TestTarget, 
MetaData, TestRecord.IterationIndex, 2
MetaData, TestRecord.Preservation, true
MetaData, TestRecord.Flag, #
MetaData, TestRecord.Remarks, #188_F_implant_5nm_cap_die2_r4c1_W100_S70
MetaData, TestRecord.LinkKey, 02b82308-b1f2-4190-bdcb-463551b6338c
Dimension1, 201, 201, 201, 201, 201, 201, 201
Dimension2, 1, 1, 1, 1, 1, 1, 1
DataName, Vd, Id, Ig, Vg, Id_dens, Ig_dens, gm
DataValue, 5, 2.733E-12, -2.3000000000000003E-10, -5, 4.5550000000000007E-11, 3.8333333333333337E-09, -1.3800000000000056E-10
DataValue, 5, 2.319E-12, -1.9000000000000002E-10, -4.95, 3.8650000000000004E-11, 3.1666666666666669E-09, -1.1333333333333373E-10
DataValue, 5, 2.0530000000000002E-12, -1.8000000000000003E-10, -4.9, 3.4216666666666674E-11, 3.0000000000000004E-09, -7.6666666666666932E-11
DataValue, 5, 1.859E-12, -1.8000000000000003E-10, -4.8500000000000005, 3.0983333333333337E-11, 3.0000000000000004E-09, -6.83333333333336E-11
DataValue, 5, 1.6430000000000002E-12, -1.8000000000000003E-10, -4.8000000000000007, 2.7383333333333338E-11, 3.0000000000000004E-09, -5.0666666666666395E-11
DataValue, 5, 1.5550000000000001E-12, -1.8000000000000003E-10, -4.75, 2.5916666666666671E-11, 3.0000000000000004E-09, -1.5999999999999912E-11
DataValue, 5, 1.5470000000000002E-12, -1.8000000000000003E-10, -4.7, 2.5783333333333339E-11, 3.0000000000000004E-09, -1.1666666666666733E-11
DataValue, 5, 1.485E-12, -1.8000000000000003E-10, -4.65, 2.4750000000000002E-11, 3.0000000000000004E-09, -2.0666666666666779E-11
DataValue, 5, 1.423E-12, -1.8000000000000003E-10, -4.6000000000000005, 2.3716666666666668E-11, 3.0000000000000004E-09, -2.08333333333334E-11
DataValue, 5, 1.36E-12, -1.8000000000000003E-10, -4.5500000000000007, 2.2666666666666669E-11, 3.0000000000000004E-09, -3.3166666666666488E-11
DataValue, 5, 1.224E-12, -1.8000000000000003E-10, -4.5, 2.0400000000000002E-11, 3.0000000000000004E-09, -2.7666666666666507E-11
DataValue, 5, 1.1940000000000002E-12, -1.8000000000000003E-10, -4.45, 1.9900000000000004E-11, 3.0000000000000004E-09, -1.100000000000002E-11
DataValue, 5, 1.1580000000000001E-12, -1.7E-10, -4.4, 1.9300000000000004E-11, 2.8333333333333335E-09, -1.3666666666666739E-11
DataValue, 5, 1.1120000000000001E-12, -1.7E-10, -4.3500000000000005, 1.8533333333333335E-11, 2.8333333333333335E-09, -1.1666666666667057E-12
DataValue, 5, 1.151E-12, -1.7E-10, -4.3000000000000007, 1.9183333333333334E-11, 2.8333333333333335E-09, 1.0833333333333302E-11
DataValue, 5, 1.1770000000000001E-12, -1.6000000000000002E-10, -4.25, 1.9616666666666671E-11, 2.666666666666667E-09, -2.0166666666666542E-11
DataValue, 5, 1.03E-12, -1.6000000000000002E-10, -4.2, 1.7166666666666669E-11, 2.666666666666667E-09, -3.3500000000000149E-11
DataValue, 5, 9.76E-13, -1.5000000000000003E-10, -4.15, 1.6266666666666667E-11, 2.5000000000000005E-09, -3.3333333333333981E-13
DataValue, 5, 1.028E-12, -1.6000000000000002E-10, -4.1000000000000005, 1.7133333333333335E-11, 2.666666666666667E-09, 5.3333333333333723E-12
DataValue, 5, 1.0080000000000002E-12, -1.6000000000000002E-10, -4.0500000000000007, 1.6800000000000003E-11, 2.666666666666667E-09, -2.6999999999999865E-11
DataValue, 5, 8.66E-13, -1.6000000000000002E-10, -4, 1.4433333333333334E-11, 2.666666666666667E-09, -4.3333333333333143E-12
DataValue, 5, 9.82E-13, -1.5000000000000003E-10, -3.95, 1.6366666666666669E-11, 2.5000000000000005E-09, 5.1666666666667191E-12
DataValue, 5, 8.9700000000000012E-13, -1.6000000000000002E-10, -3.9000000000000004, 1.4950000000000004E-11, 2.666666666666667E-09, -1.8500000000000085E-11
DataValue, 5, 8.71E-13, -1.6000000000000002E-10, -3.8500000000000005, 1.4516666666666667E-11, 2.666666666666667E-09, -6.5000000000000171E-12
DataValue, 5, 8.5800000000000008E-13, -1.6000000000000002E-10, -3.8000000000000003, 1.4300000000000002E-11, 2.666666666666667E-09, -1.8333333333333125E-12
DataValue, 5, 8.6000000000000007E-13, -1.5000000000000003E-10, -3.7500000000000004, 1.4333333333333336E-11, 2.5000000000000005E-09, 6.6666666666666053E-13
DataValue, 5, 8.6200000000000006E-13, -1.5000000000000003E-10, -3.7, 1.4366666666666668E-11, 2.5000000000000005E-09, -4.8333333333333255E-12
DataValue, 5, 8.3100000000000009E-13, -1.5000000000000003E-10, -3.6500000000000004, 1.3850000000000003E-11, 2.5000000000000005E-09, 5.3333333333333327E-12
DataValue, 5, 8.94E-13, -1.5000000000000003E-10, -3.6, 1.49E-11, 2.5000000000000005E-09, -6.6666666666666053E-13
DataValue, 5, 8.2700000000000011E-13, -1.5000000000000003E-10, -3.5500000000000003, 1.3783333333333337E-11, 2.5000000000000005E-09, -1.9333333333333402E-11
DataValue, 5, 7.78E-13, -1.6000000000000002E-10, -3.5000000000000004, 1.2966666666666668E-11, 2.666666666666667E-09, 5.666666666666639E-12
DataValue, 5, 8.6100000000000007E-13, -1.5000000000000003E-10, -3.45, 1.4350000000000001E-11, 2.5000000000000005E-09, -2.1666666666666669E-12
DataValue, 5, 7.6500000000000007E-13, -1.4E-10, -3.4000000000000004, 1.2750000000000001E-11, 2.3333333333333335E-09, -1.1833333333333317E-11
DataValue, 5, 7.9000000000000007E-13, -1.4E-10, -3.35, 1.3166666666666668E-11, 2.3333333333333335E-09, -1.5000000000000063E-12
DataValue, 5, 7.56E-13, -1.5000000000000003E-10, -3.3000000000000003, 1.26E-11, 2.5000000000000005E-09, -1.2833333333333373E-11
DataValue, 5, 7.1300000000000009E-13, -1.4E-10, -3.2500000000000004, 1.1883333333333335E-11, 2.3333333333333335E-09, -4.8333333333333255E-12
DataValue, 5, 7.27E-13, -1.5000000000000003E-10, -3.2, 1.2116666666666668E-11, 2.5000000000000005E-09, 1.0666666666666649E-11
DataValue, 5, 7.77E-13, -1.4E-10, -3.1500000000000004, 1.2950000000000001E-11, 2.3333333333333335E-09, -3.9999999999999959E-12
DataValue, 5, 7.03E-13, -1.4E-10, -3.1, 1.1716666666666668E-11, 2.3333333333333335E-09, -6.6666666666666541E-12
DataValue, 5, 7.3700000000000009E-13, -1.4E-10, -3.0500000000000003, 1.2283333333333335E-11, 2.3333333333333335E-09, 1.0666666666666712E-11
DataValue, 5, 7.6700000000000006E-13, -1.5000000000000003E-10, -3.0000000000000004, 1.2783333333333335E-11, 2.5000000000000005E-09, 4.5666666666666625E-11
DataValue, 5, 1.011E-12, -1.4E-10, -2.95, 1.6850000000000002E-11, 2.3333333333333335E-09, -1.3666666666666662E-11
DataValue, 5, 6.85E-13, -1.5000000000000003E-10, -2.9000000000000004, 1.1416666666666668E-11, 2.5000000000000005E-09, -4.0499999999999964E-11
DataValue, 5, 7.6800000000000006E-13, -1.4E-10, -2.85, 1.2800000000000002E-11, 2.3333333333333335E-09, -1.899999999999998E-11
DataValue, 5, 5.7100000000000009E-13, -1.4E-10, -2.8000000000000003, 9.5166666666666681E-12, 2.3333333333333335E-09, -1.9166666666666749E-11
DataValue, 5, 6.53E-13, -1.4E-10, -2.7500000000000004, 1.0883333333333334E-11, 2.3333333333333335E-09, 2.4666666666666649E-11
DataValue, 5, 7.1900000000000007E-13, -1.4E-10, -2.7, 1.1983333333333335E-11, 2.3333333333333335E-09, -3.4166666666666633E-11
DataValue, 5, 4.48E-13, -1.4E-10, -2.6500000000000004, 7.4666666666666677E-12, 2.3333333333333335E-09, -1.4999999999999902E-12
DataValue, 5, 7.100000000000001E-13, -1.4E-10, -2.6, 1.1833333333333336E-11, 2.3333333333333335E-09, 2.6666666666666649E-11
DataValue, 5, 6.08E-13, -1.4E-10, -2.5500000000000003, 1.0133333333333335E-11, 2.3333333333333335E-09, -1.5499999999999992E-11
DataValue, 5, 6.170000000000001E-13, -1.4E-10, -2.5, 1.0283333333333336E-11, 2.3333333333333335E-09, 7.8333333333333224E-12
DataValue, 5, 6.55E-13, -1.4E-10, -2.45, 1.0916666666666668E-11, 2.3333333333333335E-09, -5.8333333333333665E-12
DataValue, 5, 5.82E-13, -1.4E-10, -2.4000000000000004, 9.7000000000000011E-12, 2.3333333333333335E-09, -9.83333333333332E-12
DataValue, 5, 5.9600000000000009E-13, -1.4E-10, -2.35, 9.9333333333333349E-12, 2.3333333333333335E-09, 8.1666666666666611E-12
DataValue, 5, 6.31E-13, -1.4E-10, -2.3000000000000003, 1.0516666666666668E-11, 2.3333333333333335E-09, 1.5999999999999984E-11
DataValue, 5, 6.9200000000000008E-13, -1.4E-10, -2.25, 1.1533333333333335E-11, 2.3333333333333335E-09, -1.1166666666666657E-11
DataValue, 5, 5.64E-13, -1.4E-10, -2.2, 9.4000000000000011E-12, 2.3333333333333335E-09, -8.33333333333335E-12
DataValue, 5, 6.4200000000000009E-13, -1.3000000000000002E-10, -2.1500000000000004, 1.0700000000000003E-11, 2.166666666666667E-09, 8.8333333333333368E-12
DataValue, 5, 6.170000000000001E-13, -1.3000000000000002E-10, -2.1, 1.0283333333333336E-11, 2.166666666666667E-09, -1.0333333333333343E-11
DataValue, 5, 5.8000000000000005E-13, -1.4E-10, -2.0500000000000003, 9.6666666666666672E-12, 2.3333333333333335E-09, -1.3333333333333534E-12
DataValue, 5, 6.09E-13, -1.3000000000000002E-10, -2, 1.015E-11, 2.166666666666667E-09, 2.3333333333333523E-12
DataValue, 5, 5.9400000000000009E-13, -1.3000000000000002E-10, -1.9500000000000002, 9.9000000000000026E-12, 2.166666666666667E-09, -7.33333333333333E-12
DataValue, 5, 5.65E-13, -1.3000000000000002E-10, -1.9000000000000001, 9.4166666666666681E-12, 2.166666666666667E-09, 7.9999999999999918E-12
DataValue, 5, 6.4200000000000009E-13, -1.3000000000000002E-10, -1.85, 1.0700000000000003E-11, 2.166666666666667E-09, 5.3333333333333327E-12
DataValue, 5, 5.9700000000000008E-13, -1.3000000000000002E-10, -1.8, 9.9500000000000018E-12, 2.166666666666667E-09, -7.6666666666666854E-12
DataValue, 5, 5.9600000000000009E-13, -1.3000000000000002E-10, -1.7500000000000002, 9.9333333333333349E-12, 2.166666666666667E-09, 2.9333333333333374E-11
DataValue, 5, 7.73E-13, -1.3000000000000002E-10, -1.7000000000000002, 1.2883333333333335E-11, 2.166666666666667E-09, 1.3333333333333211E-12
DataValue, 5, 6.0400000000000005E-13, -1.3000000000000002E-10, -1.6500000000000001, 1.0066666666666667E-11, 2.166666666666667E-09, -4.0333333333333291E-11
DataValue, 5, 5.3100000000000006E-13, -1.3000000000000002E-10, -1.6, 8.8500000000000021E-12, 2.166666666666667E-09, 2.7833333333333315E-11
DataValue, 5, 7.71E-13, -1.3000000000000002E-10, -1.55, 1.2850000000000001E-11, 2.166666666666667E-09, 8.333333333333332E-12
DataValue, 5, 5.81E-13, -1.2E-10, -1.5000000000000002, 9.6833333333333341E-12, 2E-09, -1.1666666666666691E-11
DataValue, 5, 7.01E-13, -1.3000000000000002E-10, -1.4500000000000002, 1.1683333333333334E-11, 2.166666666666667E-09, 3.7999999999999972E-11
DataValue, 5, 8.0900000000000009E-13, -1.2E-10, -1.4000000000000001, 1.3483333333333335E-11, 2E-09, 3.0000000000000127E-12
DataValue, 5, 7.1900000000000007E-13, -1.2E-10, -1.35, 1.1983333333333335E-11, 2E-09, 1.7333333333333319E-11
DataValue, 5, 9.13E-13, -1.3000000000000002E-10, -1.3, 1.5216666666666668E-11, 2.166666666666667E-09, 1.9166666666666649E-11
DataValue, 5, 8.3400000000000008E-13, -1.2E-10, -1.25, 1.3900000000000002E-11, 2E-09, 3.2000000000000038E-11
DataValue, 5, 1.105E-12, -1.2E-10, -1.2000000000000002, 1.8416666666666668E-11, 2E-09, 1.370000000000002E-10
DataValue, 5, 1.6560000000000002E-12, -1.3000000000000002E-10, -1.1500000000000001, 2.7600000000000004E-11, 2.166666666666667E-09, 3.6716666666666643E-10
DataValue, 5, 3.3080000000000004E-12, -1.3000000000000002E-10, -1.1, 5.5133333333333346E-11, 2.166666666666667E-09, 1.1016666666666659E-09
DataValue, 5, 8.266E-12, -1.2E-10, -1.05, 1.3776666666666669E-10, 2E-09, 2.9526666666666645E-09
DataValue, 5, 2.1024E-11, -1.2E-10, -1, 3.5040000000000005E-10, 2E-09, 9.3181666666666691E-09
DataValue, 5, 6.4175E-11, -1.2E-10, -0.95000000000000007, 1.0695833333333334E-09, 2E-09, 2.845766666666668E-08
DataValue, 5, 1.9177000000000003E-10, -1.2E-10, -0.9, 3.1961666666666673E-09, 2E-09, 6.92696666666667E-08
DataValue, 5, 4.7979300000000008E-10, -1.2E-10, -0.85000000000000009, 7.9965500000000009E-09, 2E-09, 1.7102333333333335E-07
DataValue, 5, 1.21791E-09, -1.2E-10, -0.8, 2.02985E-08, 2E-09, 4.3283283333333346E-07
DataValue, 5, 3.07679E-09, -1.2E-10, -0.75000000000000011, 5.1279833333333335E-08, 2E-09, 8.7621666666666689E-07
DataValue, 5, 6.47521E-09, -1.2E-10, -0.70000000000000007, 1.0792016666666667E-07, 2E-09, 1.8012849999999981E-06
DataValue, 5, 1.38845E-08, -1.1000000000000001E-10, -0.65, 2.3140833333333332E-07, 1.8333333333333336E-09, 3.6169316666666674E-06
DataValue, 5, 2.8176799999999997E-08, -1.1000000000000001E-10, -0.60000000000000009, 4.696133333333333E-07, 1.8333333333333336E-09, 7.5143333333333328E-06
DataValue, 5, 5.8970499999999992E-08, -1.1000000000000001E-10, -0.55, 9.8284166666666648E-07, 1.8333333333333336E-09, 1.4254199999999988E-05
DataValue, 5, 1.13702E-07, -1.1000000000000001E-10, -0.5, 1.8950333333333333E-06, 1.8333333333333336E-09, 2.6588083333333327E-05
DataValue, 5, 2.18499E-07, -1.2E-10, -0.45, 3.64165E-06, 2E-09, 4.6041166666666682E-05
DataValue, 5, 3.89949E-07, -1.1000000000000001E-10, -0.4, 6.49915E-06, 1.8333333333333336E-09, 7.68806666666667E-05
DataValue, 5, 6.79783E-07, -1.1000000000000001E-10, -0.35000000000000003, 1.1329716666666668E-05, 1.8333333333333336E-09, 0.00012137016666666671
DataValue, 5, 1.1181700000000002E-06, -1.1000000000000001E-10, -0.30000000000000004, 1.863616666666667E-05, 1.8333333333333336E-09, 0.00018832449999999998
DataValue, 5, 1.8097300000000002E-06, -1.1000000000000001E-10, -0.25, 3.0162166666666671E-05, 1.8333333333333336E-09, 0.00030026166666666666
DataValue, 5, 2.9197400000000004E-06, -1.1000000000000001E-10, -0.2, 4.8662333333333344E-05, 1.8333333333333336E-09, 0.0004436766666666668
DataValue, 5, 4.47179E-06, -1.1000000000000001E-10, -0.15000000000000002, 7.4529833333333346E-05, 1.8333333333333336E-09, 0.00062920333333333343
DataValue, 5, 6.6949600000000009E-06, -1.1000000000000001E-10, -0.1, 0.00011158266666666669, 1.8333333333333336E-09, 0.00091596166666666661
DataValue, 5, 9.9675600000000015E-06, -1.1000000000000001E-10, -0.05, 0.00016612600000000003, 1.8333333333333336E-09, 0.0013185566666666666
DataValue, 5, 1.4606300000000001E-05, -1.1000000000000001E-10, 0, 0.00024343833333333336, 1.8333333333333336E-09, 0.0018097566666666666
DataValue, 5, 2.08261E-05, -1.1000000000000001E-10, 0.05, 0.00034710166666666669, 1.8333333333333336E-09, 0.0023812
DataValue, 5, 2.88935E-05, -1.1000000000000001E-10, 0.1, 0.00048155833333333336, 1.8333333333333336E-09, 0.0031590166666666665
