
SetupTitle, HEMT_transfer
PrimitiveTest, I/V Sweep
TestParameter, Context.MainFrame, B1500A
TestParameter, Channel.UnitType, SMU, SMU, SMU
TestParameter, Channel.Unit, SMU1:MP, SMU2:MC, GNDU:GND
TestParameter, Channel.IName, Id, Ig, Is
TestParameter, Channel.VName, Vd, Vg, Vs
TestParameter, Channel.Mode, V, V, COMMON
TestParameter, Channel.Func, CONST, VAR1, CONST
TestParameter, Channel.Index, 
TestParameter, Channel.Time, 
TestParameter, Measurement.Port.Unit, SMU1:MP, SMU2:MC, GNDU:GND
TestParameter, Measurement.Port.SeriesResistor, NONE, NONE, NONE
TestParameter, Measurement.Port.Filter, ON, ON, ON
TestParameter, Measurement.Port.OutputVoltageComparison, 0, 0, 0
TestParameter, Measurement.Primary.Locus, Single
TestParameter, Measurement.Primary.Scale, LINEAR
TestParameter, Measurement.Primary.Start, -5
TestParameter, Measurement.Primary.Stop, 5
TestParameter, Measurement.Primary.Step, 0.05
TestParameter, Measurement.Primary.Compliance, 0.001
TestParameter, Measurement.Primary.PowerCompliance, 0
TestParameter, Measurement.Aborting.Condition, CONTINUE AT ANY
TestParameter, Measurement.PostOutput.Value, START
TestParameter, Measurement.PostOutput.Retention, OFF
TestParameter, Measurement.Bias.Source, 5, -5, 0
TestParameter, Measurement.Bias.Compliance, 0.1, 0.001, 2
TestParameter, Measurement.Monitor.Unit, SMU1:MP, SMU2:MC, GNDU:GND
TestParameter, Measurement.Monitor.Adc, HR ADC, HS ADC, HR ADC
TestParameter, Measurement.Monitor.Measurement, Compliance Side, Force and Compliance Sides, Compliance Side
TestParameter, Measurement.Monitor.RangingMode, LIMITED, LIMITED, LIMITED
TestParameter, Measurement.Monitor.RangeBoundary, 1nA, 10uA, 1nA
TestParameter, Measurement.Monitor.RangeRating, BY FULL RANGE, BY FULL RANGE, BY FULL RANGE
TestParameter, Measurement.Monitor.RangeRatingCoeff, 50, 50, 50
TestParameter, Measurement.Timing.Hold, 0
TestParameter, Measurement.Timing.Delay, 0
TestParameter, Measurement.Adc.HighSpeed.Mode, PLC
TestParameter, Measurement.Adc.HighSpeed.Coeff, 2
TestParameter, Measurement.Adc.HighResolution.AutoZero, OFF
TestParameter, Measurement.Adc.HighResolution.Mode, PLC
TestParameter, Measurement.Adc.HighResolution.Coeff, 2
TestParameter, Measurement.WaitTime.Source.Coeff, 1
TestParameter, Measurement.WaitTime.Source.Offset, 0
TestParameter, Measurement.WaitTime.Monitor.Coeff, 1
TestParameter, Measurement.WaitTime.Monitor.Offset, 0
TestParameter, Function.User.Name, Id_dens, Ig_dens, gm
TestParameter, Function.User.Unit, A/mm, A/mm, S/mm
TestParameter, Function.User.Definition, Id/0.06, abs(Ig)/0.06, diff(Id_dens,Vg)
TestParameter, Output.Graph.Enabled, true
TestParameter, Output.Graph.AutoScaling, false
TestParameter, Output.Graph.XAxis.Data, Vg
TestParameter, Output.Graph.XAxis.Scale, Linear
TestParameter, Output.Graph.XAxis.Left, -2
TestParameter, Output.Graph.XAxis.Right, 10
TestParameter, Output.Graph.XAxis.RunTimeAutoScale, false
TestParameter, Output.Graph.YAxis.Data, Id_dens, Id_dens, gm, Ig_dens
TestParameter, Output.Graph.YAxis.Scale, Log, Linear, Linear, Log
TestParameter, Output.Graph.YAxis.Bottom, 0, 0, 0, 0
TestParameter, Output.Graph.YAxis.Top, 1, 1, 1, 1
TestParameter, Output.Graph.YAxis.Group, , , , 
TestParameter, Output.Graph.YAxis.RunTimeAutoScale, false, false, false, false
TestParameter, Output.List.Data, Vg, Id_dens, Ig_dens, Vd, gm
TestParameter, AutoAnalysis.Interpolation, false
TestParameter, AutoAnalysis.Line1.Enabled, false
TestParameter, AutoAnalysis.Line1.Type, 1
TestParameter, AutoAnalysis.Line1.Fix, True
TestParameter, AutoAnalysis.Line1.YAxis, 0
TestParameter, AutoAnalysis.Line1.Point1.Type, 0
TestParameter, AutoAnalysis.Line1.Point1.XY.X, 
TestParameter, AutoAnalysis.Line1.Point1.XY.Y, 
TestParameter, AutoAnalysis.Line1.Point1.Data.Var, 
TestParameter, AutoAnalysis.Line1.Point1.Data.Condition, 
TestParameter, AutoAnalysis.Line1.Point1.Data.Start, false
TestParameter, AutoAnalysis.Line1.Point1.Data.StartVar, 
TestParameter, AutoAnalysis.Line1.Point1.Data.StartCondition, 
TestParameter, AutoAnalysis.Line1.Point2.Type, 0
TestParameter, AutoAnalysis.Line1.Point2.XY.X, 
TestParameter, AutoAnalysis.Line1.Point2.XY.Y, 
TestParameter, AutoAnalysis.Line1.Point2.Data.Var, 
TestParameter, AutoAnalysis.Line1.Point2.Data.Condition, 
TestParameter, AutoAnalysis.Line1.Point2.Data.Start, false
TestParameter, AutoAnalysis.Line1.Point2.Data.StartVar, 
TestParameter, AutoAnalysis.Line1.Point2.Data.StartCondition, 
TestParameter, AutoAnalysis.Line1.GradientExpr, 0
TestParameter, AutoAnalysis.Line2.Enabled, false
TestParameter, AutoAnalysis.Line2.Type, 1
TestParameter, AutoAnalysis.Line2.Fix, True
TestParameter, AutoAnalysis.Line2.YAxis, 0
TestParameter, AutoAnalysis.Line2.Point1.Type, 0
TestParameter, AutoAnalysis.Line2.Point1.XY.X, 
TestParameter, AutoAnalysis.Line2.Point1.XY.Y, 
TestParameter, AutoAnalysis.Line2.Point1.Data.Var, 
TestParameter, AutoAnalysis.Line2.Point1.Data.Condition, 
TestParameter, AutoAnalysis.Line2.Point1.Data.Start, false
TestParameter, AutoAnalysis.Line2.Point1.Data.StartVar, 
TestParameter, AutoAnalysis.Line2.Point1.Data.StartCondition, 
TestParameter, AutoAnalysis.Line2.Point2.Type, 0
TestParameter, AutoAnalysis.Line2.Point2.XY.X, 
TestParameter, AutoAnalysis.Line2.Point2.XY.Y, 
TestParameter, AutoAnalysis.Line2.Point2.Data.Var, 
TestParameter, AutoAnalysis.Line2.Point2.Data.Condition, 
TestParameter, AutoAnalysis.Line2.Point2.Data.Start, false
TestParameter, AutoAnalysis.Line2.Point2.Data.StartVar, 
TestParameter, AutoAnalysis.Line2.Point2.Data.StartCondition, 
TestParameter, AutoAnalysis.Line2.GradientExpr, 0
TestParameter, AutoAnalysis.Marker.Enabled, false
TestParameter, AutoAnalysis.Marker.Data.Var, 
TestParameter, AutoAnalysis.Marker.Data.Condition, 
TestParameter, AutoAnalysis.Marker.Data.Start, false
TestParameter, AutoAnalysis.Marker.Data.StartVar, 
TestParameter, AutoAnalysis.Marker.Data.StartCondition, 
MetaData, TestRecord.EntryPoint, true
MetaData, TestRecord.RecordTime, 08/14/2019 12:15:38
MetaData, TestRecord.TestTarget, 
MetaData, TestRecord.IterationIndex, 2
MetaData, TestRecord.Preservation, true
MetaData, TestRecord.Flag, #
MetaData, TestRecord.Remarks, #188_F_implant_5nm_cap_die2_r4c2_F50
MetaData, TestRecord.LinkKey, ca4875d5-b618-4bb5-aa9f-206601071061
Dimension1, 201, 201, 201, 201, 201, 201, 201
Dimension2, 1, 1, 1, 1, 1, 1, 1
DataName, Vd, Id, Ig, Vg, Id_dens, Ig_dens, gm
DataValue, 5, 3.829E-12, -1.7E-10, -5, 6.3816666666666674E-11, 2.8333333333333335E-09, -4.75333333333335E-10
DataValue, 5, 2.403E-12, -1.3000000000000002E-10, -4.95, 4.0050000000000006E-11, 2.166666666666667E-09, -3.4666666666666795E-10
DataValue, 5, 1.7490000000000001E-12, -1.2E-10, -4.9, 2.9150000000000004E-11, 2E-09, -1.2666666666666713E-10
DataValue, 5, 1.6430000000000002E-12, -1.3000000000000002E-10, -4.8500000000000005, 2.7383333333333338E-11, 2.166666666666667E-09, -5.983333333333354E-11
DataValue, 5, 1.3900000000000001E-12, -1.2E-10, -4.8000000000000007, 2.3166666666666671E-11, 2E-09, -3.7499999999999832E-11
DataValue, 5, 1.418E-12, -1.2E-10, -4.75, 2.3633333333333335E-11, 2E-09, -1.0000000000000107E-12
DataValue, 5, 1.3840000000000002E-12, -1.2E-10, -4.7, 2.3066666666666669E-11, 2E-09, -4.3333333333333468E-11
DataValue, 5, 1.1580000000000001E-12, -1.2E-10, -4.65, 1.9300000000000004E-11, 2E-09, -5.66666666666669E-11
DataValue, 5, 1.044E-12, -1.2E-10, -4.6000000000000005, 1.74E-11, 2E-09, -3.716666666666679E-11
DataValue, 5, 9.3500000000000016E-13, -1.2E-10, -4.5500000000000007, 1.5583333333333338E-11, 2E-09, -1.9999999999999857E-11
DataValue, 5, 9.240000000000001E-13, -1.1000000000000001E-10, -4.5, 1.5400000000000003E-11, 1.8333333333333336E-09, 2.4166666666666519E-11
DataValue, 5, 1.08E-12, -1.2E-10, -4.45, 1.8000000000000002E-11, 2E-09, 9.9999999999998726E-13
DataValue, 5, 9.3E-13, -1.1000000000000001E-10, -4.4, 1.55E-11, 1.8333333333333336E-09, -1.450000000000004E-11
DataValue, 5, 9.9300000000000011E-13, -1.1000000000000001E-10, -4.3500000000000005, 1.6550000000000004E-11, 1.8333333333333336E-09, 2.6666666666666538E-12
DataValue, 5, 9.46E-13, -1.1000000000000001E-10, -4.3000000000000007, 1.5766666666666666E-11, 1.8333333333333336E-09, -2.4833333333333225E-11
DataValue, 5, 8.44E-13, -1.1000000000000001E-10, -4.25, 1.4066666666666668E-11, 1.8333333333333336E-09, -1.4499999999999895E-11
DataValue, 5, 8.5900000000000008E-13, -1.0000000000000002E-10, -4.2, 1.4316666666666669E-11, 1.6666666666666669E-09, -1.8500000000000069E-11
DataValue, 5, 7.33E-13, -1.1000000000000001E-10, -4.15, 1.2216666666666668E-11, 1.8333333333333336E-09, -4.166666666666683E-12
DataValue, 5, 8.3400000000000008E-13, -1.1000000000000001E-10, -4.1000000000000005, 1.3900000000000002E-11, 1.8333333333333336E-09, 2.5500000000000109E-11
DataValue, 5, 8.8600000000000006E-13, -1.1000000000000001E-10, -4.0500000000000007, 1.4766666666666669E-11, 1.8333333333333336E-09, -6.666666666666576E-13
DataValue, 5, 8.300000000000001E-13, -1.1000000000000001E-10, -4, 1.3833333333333336E-11, 1.8333333333333336E-09, -1.1333333333333293E-11
DataValue, 5, 8.18E-13, -1.1000000000000001E-10, -3.95, 1.3633333333333334E-11, 1.8333333333333336E-09, -3.2333333333333461E-11
DataValue, 5, 6.36E-13, -1.1000000000000001E-10, -3.9000000000000004, 1.0600000000000001E-11, 1.8333333333333336E-09, -1.816666666666673E-11
DataValue, 5, 7.09E-13, -1.1000000000000001E-10, -3.8500000000000005, 1.1816666666666668E-11, 1.8333333333333336E-09, 3.3333333333332219E-13
DataValue, 5, 6.38E-13, -1.1000000000000001E-10, -3.8000000000000003, 1.0633333333333333E-11, 1.8333333333333336E-09, -1.0166666666666657E-11
DataValue, 5, 6.4800000000000007E-13, -1.1000000000000001E-10, -3.7500000000000004, 1.0800000000000001E-11, 1.8333333333333336E-09, 2.4833333333333335E-11
DataValue, 5, 7.8700000000000008E-13, -1.1000000000000001E-10, -3.7, 1.3116666666666669E-11, 1.8333333333333336E-09, -3.6666666666666572E-12
DataValue, 5, 6.2600000000000006E-13, -1.1000000000000001E-10, -3.6500000000000004, 1.0433333333333335E-11, 1.8333333333333336E-09, -1.9666666666666657E-11
DataValue, 5, 6.6900000000000008E-13, -1.0000000000000002E-10, -3.6, 1.1150000000000002E-11, 1.6666666666666669E-09, -2.9999999999999965E-12
DataValue, 5, 6.08E-13, -1.0000000000000002E-10, -3.5500000000000003, 1.0133333333333335E-11, 1.6666666666666669E-09, -2.5833333333333432E-11
DataValue, 5, 5.14E-13, -1.0000000000000002E-10, -3.5000000000000004, 8.5666666666666675E-12, 1.6666666666666669E-09, -6.3333333333333478E-12
DataValue, 5, 5.7E-13, -1.0000000000000002E-10, -3.45, 9.5E-12, 1.6666666666666669E-09, 1.1666666666666665E-11
DataValue, 5, 5.84E-13, -1.0000000000000002E-10, -3.4000000000000004, 9.7333333333333349E-12, 1.6666666666666669E-09, 1.250000000000001E-11
DataValue, 5, 6.4500000000000008E-13, -1.0000000000000002E-10, -3.35, 1.0750000000000002E-11, 1.6666666666666669E-09, 4.6666666666666562E-12
DataValue, 5, 6.12E-13, -1.1000000000000001E-10, -3.3000000000000003, 1.0200000000000001E-11, 1.8333333333333336E-09, -3.3333333333333497E-12
DataValue, 5, 6.2500000000000006E-13, -1.0000000000000002E-10, -3.2500000000000004, 1.0416666666666668E-11, 1.6666666666666669E-09, -9.16666666666666E-12
DataValue, 5, 5.57E-13, -1.0000000000000002E-10, -3.2, 9.2833333333333342E-12, 1.6666666666666669E-09, -1.9166666666666649E-11
DataValue, 5, 5.1E-13, -1.0000000000000002E-10, -3.1500000000000004, 8.5000000000000013E-12, 1.6666666666666669E-09, -6.500000000000001E-12
DataValue, 5, 5.18E-13, -1.0000000000000002E-10, -3.1, 8.6333333333333336E-12, 1.6666666666666669E-09, 1.1666666666666519E-12
DataValue, 5, 5.17E-13, -1.0000000000000002E-10, -3.0500000000000003, 8.6166666666666666E-12, 1.6666666666666669E-09, 1.8333333333333529E-12
DataValue, 5, 5.2900000000000007E-13, -1.0000000000000002E-10, -3.0000000000000004, 8.8166666666666682E-12, 1.6666666666666669E-09, 1.0833333333333335E-11
DataValue, 5, 5.82E-13, -1.0000000000000002E-10, -2.95, 9.7000000000000011E-12, 1.6666666666666669E-09, 6.6666666666666053E-13
DataValue, 5, 5.3300000000000005E-13, -1.0000000000000002E-10, -2.9000000000000004, 8.8833333333333343E-12, 1.6666666666666669E-09, -9.6666666666666511E-12
DataValue, 5, 5.2400000000000009E-13, -1.0000000000000002E-10, -2.85, 8.7333333333333352E-12, 1.6666666666666669E-09, -7.33333333333333E-12
DataValue, 5, 4.89E-13, -1.0000000000000002E-10, -2.8000000000000003, 8.15E-12, 1.6666666666666669E-09, -2.3333333333333467E-12
DataValue, 5, 5.1E-13, -1.0000000000000002E-10, -2.7500000000000004, 8.5000000000000013E-12, 1.6666666666666669E-09, -4.8333333333333255E-12
DataValue, 5, 4.6000000000000006E-13, -1.0000000000000002E-10, -2.7, 7.6666666666666677E-12, 1.6666666666666669E-09, 1.4999999999999902E-12
DataValue, 5, 5.19E-13, -9.0000000000000012E-11, -2.6500000000000004, 8.65E-12, 1.5000000000000002E-09, 1.3833333333333315E-11
DataValue, 5, 5.43E-13, -9.0000000000000012E-11, -2.6, 9.05E-12, 1.5000000000000002E-09, -9.83333333333332E-12
DataValue, 5, 4.6000000000000006E-13, -9.0000000000000012E-11, -2.5500000000000003, 7.6666666666666677E-12, 1.5000000000000002E-09, -1.2333333333333325E-11
DataValue, 5, 4.69E-13, -1.0000000000000002E-10, -2.5, 7.8166666666666668E-12, 1.6666666666666669E-09, -1.2833333333333325E-11
DataValue, 5, 3.8300000000000003E-13, -9.0000000000000012E-11, -2.45, 6.3833333333333341E-12, 1.5000000000000002E-09, -1.1333333333333369E-11
DataValue, 5, 4.01E-13, -1.0000000000000002E-10, -2.4000000000000004, 6.683333333333334E-12, 1.6666666666666669E-09, 3.6666666666666653E-12
DataValue, 5, 4.0500000000000004E-13, -1.0000000000000002E-10, -2.35, 6.7500000000000009E-12, 1.6666666666666669E-09, 1.6666666666666667E-11
DataValue, 5, 5.0100000000000009E-13, -1.0000000000000002E-10, -2.3000000000000003, 8.3500000000000022E-12, 1.6666666666666669E-09, 1.3833333333333315E-11
DataValue, 5, 4.88E-13, -9.0000000000000012E-11, -2.25, 8.1333333333333337E-12, 1.5000000000000002E-09, 1.049999999999998E-11
DataValue, 5, 5.64E-13, -1.0000000000000002E-10, -2.2, 9.4000000000000011E-12, 1.6666666666666669E-09, -3.8333333333333435E-12
DataValue, 5, 4.65E-13, -1.0000000000000002E-10, -2.1500000000000004, 7.75E-12, 1.6666666666666669E-09, -3.1999999999999974E-11
DataValue, 5, 3.7200000000000003E-13, -9.0000000000000012E-11, -2.1, 6.200000000000001E-12, 1.5000000000000002E-09, -2.1499999999999984E-11
DataValue, 5, 3.3600000000000003E-13, -1.0000000000000002E-10, -2.0500000000000003, 5.6E-12, 1.6666666666666669E-09, 5.8333333333333245E-12
DataValue, 5, 4.0700000000000003E-13, -9.0000000000000012E-11, -2, 6.783333333333334E-12, 1.5000000000000002E-09, 3.43333333333333E-11
DataValue, 5, 5.42E-13, -9.0000000000000012E-11, -1.9500000000000002, 9.0333333333333335E-12, 1.5000000000000002E-09, 3.1000000000000042E-11
DataValue, 5, 5.93E-13, -9.0000000000000012E-11, -1.9000000000000001, 9.8833333333333341E-12, 1.5000000000000002E-09, -2.6999999999999971E-11
DataValue, 5, 3.8000000000000005E-13, -9.0000000000000012E-11, -1.85, 6.3333333333333341E-12, 1.5000000000000002E-09, -2.6833333333333309E-11
DataValue, 5, 4.3200000000000003E-13, -9.0000000000000012E-11, -1.8, 7.2000000000000008E-12, 1.5000000000000002E-09, 1.3333333333333322E-12
DataValue, 5, 3.88E-13, -9.0000000000000012E-11, -1.7500000000000002, 6.4666666666666671E-12, 1.5000000000000002E-09, -2.1666666666666717E-12
DataValue, 5, 4.1900000000000003E-13, -9.0000000000000012E-11, -1.7000000000000002, 6.9833333333333339E-12, 1.5000000000000002E-09, 2.3833333333333329E-11
DataValue, 5, 5.3100000000000006E-13, -1.0000000000000002E-10, -1.6500000000000001, 8.8500000000000021E-12, 1.6666666666666669E-09, 2.0499999999999978E-11
DataValue, 5, 5.42E-13, -1.0000000000000002E-10, -1.6, 9.0333333333333335E-12, 1.6666666666666669E-09, 1.3333333333333211E-12
DataValue, 5, 5.39E-13, -1.0000000000000002E-10, -1.55, 8.9833333333333343E-12, 1.6666666666666669E-09, -2.2500000000000026E-11
DataValue, 5, 4.0700000000000003E-13, -1.0000000000000002E-10, -1.5000000000000002, 6.783333333333334E-12, 1.6666666666666669E-09, -2.3666666666666704E-11
DataValue, 5, 3.97E-13, -1.0000000000000002E-10, -1.4500000000000002, 6.6166666666666671E-12, 1.6666666666666669E-09, 3.6666666666666653E-12
DataValue, 5, 4.2900000000000004E-13, -1.0000000000000002E-10, -1.4000000000000001, 7.1500000000000008E-12, 1.6666666666666669E-09, 1.5000000000000063E-12
DataValue, 5, 4.0600000000000004E-13, -1.0000000000000002E-10, -1.35, 6.7666666666666679E-12, 1.6666666666666669E-09, 9.3333333333333286E-12
DataValue, 5, 4.8500000000000005E-13, -1.0000000000000002E-10, -1.3, 8.0833333333333345E-12, 1.6666666666666669E-09, 1.4999999999999984E-11
DataValue, 5, 4.96E-13, -9.0000000000000012E-11, -1.25, 8.2666666666666675E-12, 1.5000000000000002E-09, 1.0833333333333359E-11
DataValue, 5, 5.5000000000000008E-13, -9.0000000000000012E-11, -1.2000000000000002, 9.1666666666666689E-12, 1.5000000000000002E-09, 1.86666666666667E-11
DataValue, 5, 6.08E-13, -9.0000000000000012E-11, -1.1500000000000001, 1.0133333333333335E-11, 1.5000000000000002E-09, -6.500000000000001E-12
DataValue, 5, 5.11E-13, -1.0000000000000002E-10, -1.1, 8.5166666666666683E-12, 1.6666666666666669E-09, -1.6333333333333322E-11
DataValue, 5, 5.1E-13, -9.0000000000000012E-11, -1.05, 8.5000000000000013E-12, 1.5000000000000002E-09, 2.5333333333333294E-11
DataValue, 5, 6.63E-13, -9.0000000000000012E-11, -1, 1.105E-11, 1.5000000000000002E-09, 5.3833333333333348E-11
DataValue, 5, 8.3300000000000009E-13, -1.0000000000000002E-10, -0.95000000000000007, 1.3883333333333335E-11, 1.6666666666666669E-09, 3.7666666666666692E-11
DataValue, 5, 8.89E-13, -9.0000000000000012E-11, -0.9, 1.4816666666666668E-11, 1.5000000000000002E-09, 2.4833333333333348E-11
DataValue, 5, 9.82E-13, -9.0000000000000012E-11, -0.85000000000000009, 1.6366666666666669E-11, 1.5000000000000002E-09, 3.7500000000000006E-11
DataValue, 5, 1.114E-12, -9.0000000000000012E-11, -0.8, 1.8566666666666668E-11, 1.5000000000000002E-09, 6.083333333333333E-11
DataValue, 5, 1.347E-12, -1.0000000000000002E-10, -0.75000000000000011, 2.245E-11, 1.6666666666666669E-09, 1.0983333333333338E-10
DataValue, 5, 1.7730000000000002E-12, -9.0000000000000012E-11, -0.70000000000000007, 2.9550000000000004E-11, 1.5000000000000002E-09, 2.3999999999999984E-10
DataValue, 5, 2.787E-12, -9.0000000000000012E-11, -0.65, 4.6450000000000005E-11, 1.5000000000000002E-09, 6.2200000000000013E-10
DataValue, 5, 5.5050000000000005E-12, -9.0000000000000012E-11, -0.60000000000000009, 9.175E-11, 1.5000000000000002E-09, 1.7515000000000008E-09
DataValue, 5, 1.3296000000000002E-11, -9.0000000000000012E-11, -0.55, 2.2160000000000004E-10, 1.5000000000000002E-09, 4.755666666666663E-09
DataValue, 5, 3.4039000000000004E-11, -9.0000000000000012E-11, -0.5, 5.6731666666666677E-10, 1.5000000000000002E-09, 1.2407999999999998E-08
DataValue, 5, 8.7744000000000007E-11, -9.0000000000000012E-11, -0.45, 1.4624000000000002E-09, 1.5000000000000002E-09, 3.4095166666666673E-08
DataValue, 5, 2.3861E-10, -8.0000000000000008E-11, -0.4, 3.9768333333333335E-09, 1.3333333333333335E-09, 9.0539333333333357E-08
DataValue, 5, 6.3098E-10, -9.0000000000000012E-11, -0.35000000000000003, 1.0516333333333334E-08, 1.5000000000000002E-09, 2.4188166666666676E-07
DataValue, 5, 1.6899E-09, -9.0000000000000012E-11, -0.30000000000000004, 2.8165E-08, 1.5000000000000002E-09, 6.1923166666666652E-07
DataValue, 5, 4.34637E-09, -9.0000000000000012E-11, -0.25, 7.24395E-08, 1.5000000000000002E-09, 1.4714999999999994E-06
DataValue, 5, 1.05189E-08, -9.0000000000000012E-11, -0.2, 1.75315E-07, 1.5000000000000002E-09, 3.7258383333333337E-06
DataValue, 5, 2.6701399999999997E-08, -9.0000000000000012E-11, -0.15000000000000002, 4.4502333333333332E-07, 1.5000000000000002E-09, 8.58605E-06
DataValue, 5, 6.20352E-08, -9.0000000000000012E-11, -0.1, 1.03392E-06, 1.5000000000000002E-09, 1.97811E-05
DataValue, 5, 1.45388E-07, -1.0000000000000002E-10, -0.05, 2.4231333333333336E-06, 1.6666666666666669E-09, 3.96518E-05
DataValue, 5, 2.99946E-07, -9.0000000000000012E-11, 0, 4.9991E-06, 1.5000000000000002E-09, 7.3602833333333319E-05
