
SetupTitle, HEMT_transfer
PrimitiveTest, I/V Sweep
TestParameter, Context.MainFrame, B1500A
TestParameter, Channel.UnitType, SMU, SMU, SMU
TestParameter, Channel.Unit, SMU1:MP, SMU2:MC, GNDU:GND
TestParameter, Channel.IName, Id, Ig, Is
TestParameter, Channel.VName, Vd, Vg, Vs
TestParameter, Channel.Mode, V, V, COMMON
TestParameter, Channel.Func, CONST, VAR1, CONST
TestParameter, Channel.Index, 
TestParameter, Channel.Time, 
TestParameter, Measurement.Port.Unit, SMU1:MP, SMU2:MC, GNDU:GND
TestParameter, Measurement.Port.SeriesResistor, NONE, NONE, NONE
TestParameter, Measurement.Port.Filter, ON, ON, ON
TestParameter, Measurement.Port.OutputVoltageComparison, 0, 0, 0
TestParameter, Measurement.Primary.Locus, Single
TestParameter, Measurement.Primary.Scale, LINEAR
TestParameter, Measurement.Primary.Start, -5
TestParameter, Measurement.Primary.Stop, 5
TestParameter, Measurement.Primary.Step, 0.05
TestParameter, Measurement.Primary.Compliance, 0.001
TestParameter, Measurement.Primary.PowerCompliance, 0
TestParameter, Measurement.Aborting.Condition, CONTINUE AT ANY
TestParameter, Measurement.PostOutput.Value, START
TestParameter, Measurement.PostOutput.Retention, OFF
TestParameter, Measurement.Bias.Source, 5, -5, 0
TestParameter, Measurement.Bias.Compliance, 0.1, 0.001, 2
TestParameter, Measurement.Monitor.Unit, SMU1:MP, SMU2:MC, GNDU:GND
TestParameter, Measurement.Monitor.Adc, HR ADC, HS ADC, HR ADC
TestParameter, Measurement.Monitor.Measurement, Compliance Side, Force and Compliance Sides, Compliance Side
TestParameter, Measurement.Monitor.RangingMode, LIMITED, LIMITED, LIMITED
TestParameter, Measurement.Monitor.RangeBoundary, 1nA, 10uA, 1nA
TestParameter, Measurement.Monitor.RangeRating, BY FULL RANGE, BY FULL RANGE, BY FULL RANGE
TestParameter, Measurement.Monitor.RangeRatingCoeff, 50, 50, 50
TestParameter, Measurement.Timing.Hold, 0
TestParameter, Measurement.Timing.Delay, 0
TestParameter, Measurement.Adc.HighSpeed.Mode, PLC
TestParameter, Measurement.Adc.HighSpeed.Coeff, 2
TestParameter, Measurement.Adc.HighResolution.AutoZero, OFF
TestParameter, Measurement.Adc.HighResolution.Mode, PLC
TestParameter, Measurement.Adc.HighResolution.Coeff, 2
TestParameter, Measurement.WaitTime.Source.Coeff, 1
TestParameter, Measurement.WaitTime.Source.Offset, 0
TestParameter, Measurement.WaitTime.Monitor.Coeff, 1
TestParameter, Measurement.WaitTime.Monitor.Offset, 0
TestParameter, Function.User.Name, Id_dens, Ig_dens, gm
TestParameter, Function.User.Unit, A/mm, A/mm, S/mm
TestParameter, Function.User.Definition, Id/0.06, abs(Ig)/0.06, diff(Id_dens,Vg)
TestParameter, Output.Graph.Enabled, true
TestParameter, Output.Graph.AutoScaling, false
TestParameter, Output.Graph.XAxis.Data, Vg
TestParameter, Output.Graph.XAxis.Scale, Linear
TestParameter, Output.Graph.XAxis.Left, -2
TestParameter, Output.Graph.XAxis.Right, 10
TestParameter, Output.Graph.XAxis.RunTimeAutoScale, false
TestParameter, Output.Graph.YAxis.Data, Id_dens, Id_dens, gm, Ig_dens
TestParameter, Output.Graph.YAxis.Scale, Log, Linear, Linear, Log
TestParameter, Output.Graph.YAxis.Bottom, 0, 0, 0, 0
TestParameter, Output.Graph.YAxis.Top, 1, 1, 1, 1
TestParameter, Output.Graph.YAxis.Group, , , , 
TestParameter, Output.Graph.YAxis.RunTimeAutoScale, false, false, false, false
TestParameter, Output.List.Data, Vg, Id_dens, Ig_dens, Vd, gm
TestParameter, AutoAnalysis.Interpolation, false
TestParameter, AutoAnalysis.Line1.Enabled, false
TestParameter, AutoAnalysis.Line1.Type, 1
TestParameter, AutoAnalysis.Line1.Fix, True
TestParameter, AutoAnalysis.Line1.YAxis, 0
TestParameter, AutoAnalysis.Line1.Point1.Type, 0
TestParameter, AutoAnalysis.Line1.Point1.XY.X, 
TestParameter, AutoAnalysis.Line1.Point1.XY.Y, 
TestParameter, AutoAnalysis.Line1.Point1.Data.Var, 
TestParameter, AutoAnalysis.Line1.Point1.Data.Condition, 
TestParameter, AutoAnalysis.Line1.Point1.Data.Start, false
TestParameter, AutoAnalysis.Line1.Point1.Data.StartVar, 
TestParameter, AutoAnalysis.Line1.Point1.Data.StartCondition, 
TestParameter, AutoAnalysis.Line1.Point2.Type, 0
TestParameter, AutoAnalysis.Line1.Point2.XY.X, 
TestParameter, AutoAnalysis.Line1.Point2.XY.Y, 
TestParameter, AutoAnalysis.Line1.Point2.Data.Var, 
TestParameter, AutoAnalysis.Line1.Point2.Data.Condition, 
TestParameter, AutoAnalysis.Line1.Point2.Data.Start, false
TestParameter, AutoAnalysis.Line1.Point2.Data.StartVar, 
TestParameter, AutoAnalysis.Line1.Point2.Data.StartCondition, 
TestParameter, AutoAnalysis.Line1.GradientExpr, 0
TestParameter, AutoAnalysis.Line2.Enabled, false
TestParameter, AutoAnalysis.Line2.Type, 1
TestParameter, AutoAnalysis.Line2.Fix, True
TestParameter, AutoAnalysis.Line2.YAxis, 0
TestParameter, AutoAnalysis.Line2.Point1.Type, 0
TestParameter, AutoAnalysis.Line2.Point1.XY.X, 
TestParameter, AutoAnalysis.Line2.Point1.XY.Y, 
TestParameter, AutoAnalysis.Line2.Point1.Data.Var, 
TestParameter, AutoAnalysis.Line2.Point1.Data.Condition, 
TestParameter, AutoAnalysis.Line2.Point1.Data.Start, false
TestParameter, AutoAnalysis.Line2.Point1.Data.StartVar, 
TestParameter, AutoAnalysis.Line2.Point1.Data.StartCondition, 
TestParameter, AutoAnalysis.Line2.Point2.Type, 0
TestParameter, AutoAnalysis.Line2.Point2.XY.X, 
TestParameter, AutoAnalysis.Line2.Point2.XY.Y, 
TestParameter, AutoAnalysis.Line2.Point2.Data.Var, 
TestParameter, AutoAnalysis.Line2.Point2.Data.Condition, 
TestParameter, AutoAnalysis.Line2.Point2.Data.Start, false
TestParameter, AutoAnalysis.Line2.Point2.Data.StartVar, 
TestParameter, AutoAnalysis.Line2.Point2.Data.StartCondition, 
TestParameter, AutoAnalysis.Line2.GradientExpr, 0
TestParameter, AutoAnalysis.Marker.Enabled, false
TestParameter, AutoAnalysis.Marker.Data.Var, 
TestParameter, AutoAnalysis.Marker.Data.Condition, 
TestParameter, AutoAnalysis.Marker.Data.Start, false
TestParameter, AutoAnalysis.Marker.Data.StartVar, 
TestParameter, AutoAnalysis.Marker.Data.StartCondition, 
MetaData, TestRecord.EntryPoint, true
MetaData, TestRecord.RecordTime, 08/14/2019 13:29:00
MetaData, TestRecord.TestTarget, 
MetaData, TestRecord.IterationIndex, 2
MetaData, TestRecord.Preservation, true
MetaData, TestRecord.Flag, #
MetaData, TestRecord.Remarks, #188_F_implant_5nm_cap_die2_r3c3_W100_S70
MetaData, TestRecord.LinkKey, ff948d24-a7c1-4a5f-9794-c7e9dc10d2f8
Dimension1, 201, 201, 201, 201, 201, 201, 201
Dimension2, 1, 1, 1, 1, 1, 1, 1
DataName, Vd, Id, Ig, Vg, Id_dens, Ig_dens, gm
DataValue, 5, 1.6030000000000001E-12, -1.4E-10, -5, 2.6716666666666671E-11, 2.3333333333333335E-09, -3.9666666666666827E-11
DataValue, 5, 1.4840000000000001E-12, -1.0000000000000002E-10, -4.95, 2.4733333333333336E-11, 1.6666666666666669E-09, -3.9000000000000143E-11
DataValue, 5, 1.3690000000000001E-12, -9.0000000000000012E-11, -4.9, 2.281666666666667E-11, 1.5000000000000002E-09, -5.75000000000002E-11
DataValue, 5, 1.139E-12, -9.0000000000000012E-11, -4.8500000000000005, 1.8983333333333337E-11, 1.5000000000000002E-09, -6.7333333333333579E-11
DataValue, 5, 9.65E-13, -1.0000000000000002E-10, -4.8000000000000007, 1.6083333333333336E-11, 1.6666666666666669E-09, -2.4666666666666539E-11
DataValue, 5, 9.9100000000000012E-13, -1.0000000000000002E-10, -4.75, 1.651666666666667E-11, 1.6666666666666669E-09, -1.2166666666666618E-11
DataValue, 5, 8.92E-13, -1.0000000000000002E-10, -4.7, 1.4866666666666668E-11, 1.6666666666666669E-09, -2.0000000000000068E-12
DataValue, 5, 9.7900000000000017E-13, -1.0000000000000002E-10, -4.65, 1.631666666666667E-11, 1.6666666666666669E-09, -3.0333333333333422E-11
DataValue, 5, 7.100000000000001E-13, -1.0000000000000002E-10, -4.6000000000000005, 1.1833333333333336E-11, 1.6666666666666669E-09, -4.4833333333333495E-11
DataValue, 5, 7.100000000000001E-13, -9.0000000000000012E-11, -4.5500000000000007, 1.1833333333333336E-11, 1.5000000000000002E-09, 3.6833333333333142E-11
DataValue, 5, 9.3100000000000017E-13, -9.0000000000000012E-11, -4.5, 1.551666666666667E-11, 1.5000000000000002E-09, 3.1833333333333152E-11
DataValue, 5, 9.010000000000001E-13, -9.0000000000000012E-11, -4.45, 1.5016666666666668E-11, 1.5000000000000002E-09, -4.2833333333333509E-11
DataValue, 5, 6.7400000000000006E-13, -9.0000000000000012E-11, -4.4, 1.1233333333333335E-11, 1.5000000000000002E-09, -5.9666666666666887E-11
DataValue, 5, 5.43E-13, -1.0000000000000002E-10, -4.3500000000000005, 9.05E-12, 1.6666666666666669E-09, -2.716666666666676E-11
DataValue, 5, 5.11E-13, -9.0000000000000012E-11, -4.3000000000000007, 8.5166666666666683E-12, 1.5000000000000002E-09, 2.0666666666666579E-11
DataValue, 5, 6.6700000000000009E-13, -1.0000000000000002E-10, -4.25, 1.1116666666666669E-11, 1.6666666666666669E-09, 1.416666666666659E-11
DataValue, 5, 5.9600000000000009E-13, -9.0000000000000012E-11, -4.2, 9.9333333333333349E-12, 1.5000000000000002E-09, -2.25000000000001E-11
DataValue, 5, 5.3200000000000006E-13, -8.0000000000000008E-11, -4.15, 8.8666666666666674E-12, 1.3333333333333335E-09, 1.1500000000000046E-11
DataValue, 5, 6.6500000000000009E-13, -9.0000000000000012E-11, -4.1000000000000005, 1.1083333333333335E-11, 1.5000000000000002E-09, 1.9166666666666749E-11
DataValue, 5, 6.4700000000000007E-13, -9.0000000000000012E-11, -4.0500000000000007, 1.0783333333333336E-11, 1.5000000000000002E-09, 1.8166666666666552E-11
DataValue, 5, 7.74E-13, -1.0000000000000002E-10, -4, 1.29E-11, 1.6666666666666669E-09, -4.0833333333333128E-11
DataValue, 5, 4.0200000000000005E-13, -9.0000000000000012E-11, -3.95, 6.7000000000000009E-12, 1.5000000000000002E-09, -5.733333333333353E-11
DataValue, 5, 4.3000000000000004E-13, -9.0000000000000012E-11, -3.9000000000000004, 7.1666666666666678E-12, 1.5000000000000002E-09, 2.016666666666673E-11
DataValue, 5, 5.23E-13, -8.0000000000000008E-11, -3.8500000000000005, 8.7166666666666666E-12, 1.3333333333333335E-09, 2.1166666666666645E-11
DataValue, 5, 5.57E-13, -9.0000000000000012E-11, -3.8000000000000003, 9.2833333333333342E-12, 1.5000000000000002E-09, -2.7999999999999961E-11
DataValue, 5, 3.5500000000000005E-13, -9.0000000000000012E-11, -3.7500000000000004, 5.916666666666668E-12, 1.5000000000000002E-09, -1.7666666666666641E-11
DataValue, 5, 4.5100000000000005E-13, -8.0000000000000008E-11, -3.7, 7.5166666666666685E-12, 1.3333333333333335E-09, 1.8833333333333317E-11
DataValue, 5, 4.68E-13, -9.0000000000000012E-11, -3.6500000000000004, 7.8000000000000015E-12, 1.5000000000000002E-09, 3.399999999999996E-11
DataValue, 5, 6.55E-13, -8.0000000000000008E-11, -3.6, 1.0916666666666668E-11, 1.3333333333333335E-09, -4.6666666666666724E-12
DataValue, 5, 4.4000000000000004E-13, -8.0000000000000008E-11, -3.5500000000000003, 7.3333333333333339E-12, 1.3333333333333335E-09, -3.983333333333348E-11
DataValue, 5, 4.1600000000000004E-13, -9.0000000000000012E-11, -3.5000000000000004, 6.9333333333333339E-12, 1.5000000000000002E-09, -3.499999999999996E-12
DataValue, 5, 4.1900000000000003E-13, -9.0000000000000012E-11, -3.45, 6.9833333333333339E-12, 1.5000000000000002E-09, 3.1833333333333314E-11
DataValue, 5, 6.07E-13, -8.0000000000000008E-11, -3.4000000000000004, 1.0116666666666668E-11, 1.3333333333333335E-09, 5.3333333333333408E-12
DataValue, 5, 4.5100000000000005E-13, -9.0000000000000012E-11, -3.35, 7.5166666666666685E-12, 1.5000000000000002E-09, -6.4166666666666626E-11
DataValue, 5, 2.2200000000000001E-13, -9.0000000000000012E-11, -3.3000000000000003, 3.7E-12, 1.5000000000000002E-09, -1.900000000000008E-11
DataValue, 5, 3.3700000000000003E-13, -9.0000000000000012E-11, -3.2500000000000004, 5.6166666666666673E-12, 1.5000000000000002E-09, 3.9166666666666648E-11
DataValue, 5, 4.5700000000000007E-13, -9.0000000000000012E-11, -3.2, 7.6166666666666685E-12, 1.5000000000000002E-09, 2.449999999999998E-11
DataValue, 5, 4.8400000000000006E-13, -9.0000000000000012E-11, -3.1500000000000004, 8.0666666666666676E-12, 1.5000000000000002E-09, -3.6666666666666734E-12
DataValue, 5, 4.35E-13, -9.0000000000000012E-11, -3.1, 7.2500000000000008E-12, 1.5000000000000002E-09, 1.9999999999999979E-12
DataValue, 5, 4.96E-13, -9.0000000000000012E-11, -3.0500000000000003, 8.2666666666666675E-12, 1.5000000000000002E-09, -3.16666666666668E-12
DataValue, 5, 4.1600000000000004E-13, -9.0000000000000012E-11, -3.0000000000000004, 6.9333333333333339E-12, 1.5000000000000002E-09, -1.5166666666666653E-11
DataValue, 5, 4.0500000000000004E-13, -9.0000000000000012E-11, -2.95, 6.7500000000000009E-12, 1.5000000000000002E-09, -8.4999999999999981E-12
DataValue, 5, 3.65E-13, -9.0000000000000012E-11, -2.9000000000000004, 6.0833333333333333E-12, 1.5000000000000002E-09, -1.683333333333332E-11
DataValue, 5, 3.04E-13, -9.0000000000000012E-11, -2.85, 5.0666666666666674E-12, 1.5000000000000002E-09, -1.6499999999999982E-11
DataValue, 5, 2.6600000000000003E-13, -9.0000000000000012E-11, -2.8000000000000003, 4.4333333333333337E-12, 1.5000000000000002E-09, 2.5833333333333425E-11
DataValue, 5, 4.5900000000000006E-13, -8.0000000000000008E-11, -2.7500000000000004, 7.65E-12, 1.3333333333333335E-09, 3.48333333333333E-11
DataValue, 5, 4.75E-13, -9.0000000000000012E-11, -2.7, 7.9166666666666668E-12, 1.5000000000000002E-09, 8.4999999999999981E-12
DataValue, 5, 5.1E-13, -8.0000000000000008E-11, -2.6500000000000004, 8.5000000000000013E-12, 1.3333333333333335E-09, -2.1999999999999976E-11
DataValue, 5, 3.43E-13, -9.0000000000000012E-11, -2.6, 5.7166666666666673E-12, 1.5000000000000002E-09, -9.99999999999999E-12
DataValue, 5, 4.5000000000000005E-13, -8.0000000000000008E-11, -2.5500000000000003, 7.5000000000000016E-12, 1.3333333333333335E-09, 1.4333333333333323E-11
DataValue, 5, 4.2900000000000004E-13, -8.0000000000000008E-11, -2.5, 7.1500000000000008E-12, 1.3333333333333335E-09, -1.8333333333333325E-11
DataValue, 5, 3.4E-13, -9.0000000000000012E-11, -2.45, 5.6666666666666673E-12, 1.5000000000000002E-09, -3.3333333333333451E-11
DataValue, 5, 2.2900000000000003E-13, -8.0000000000000008E-11, -2.4000000000000004, 3.8166666666666677E-12, 1.3333333333333335E-09, 2.9999999999999974E-11
DataValue, 5, 5.2E-13, -9.0000000000000012E-11, -2.35, 8.6666666666666674E-12, 1.5000000000000002E-09, 3.9333333333333294E-11
DataValue, 5, 4.65E-13, -9.0000000000000012E-11, -2.3000000000000003, 7.75E-12, 1.5000000000000002E-09, 1.3499999999999994E-11
DataValue, 5, 6.0100000000000006E-13, -9.0000000000000012E-11, -2.25, 1.0016666666666668E-11, 1.5000000000000002E-09, -4.4999999999999869E-12
DataValue, 5, 4.3800000000000005E-13, -9.0000000000000012E-11, -2.2, 7.3000000000000016E-12, 1.5000000000000002E-09, -4.5666666666666839E-11
DataValue, 5, 3.27E-13, -9.0000000000000012E-11, -2.1500000000000004, 5.4500000000000004E-12, 1.5000000000000002E-09, 1.3833333333333315E-11
DataValue, 5, 5.21E-13, -8.0000000000000008E-11, -2.1, 8.6833333333333344E-12, 1.3333333333333335E-09, 3.2999999999999989E-11
DataValue, 5, 5.2500000000000009E-13, -9.0000000000000012E-11, -2.0500000000000003, 8.7500000000000021E-12, 1.5000000000000002E-09, -2.4666666666666649E-11
DataValue, 5, 3.7300000000000003E-13, -9.0000000000000012E-11, -2, 6.2166666666666672E-12, 1.5000000000000002E-09, -4.0499999999999976E-11
DataValue, 5, 2.82E-13, -8.0000000000000008E-11, -1.9500000000000002, 4.7000000000000006E-12, 1.3333333333333335E-09, -5.0000000000000054E-12
DataValue, 5, 3.43E-13, -9.0000000000000012E-11, -1.9000000000000001, 5.7166666666666673E-12, 1.5000000000000002E-09, 2.2666666666666653E-11
DataValue, 5, 4.1800000000000004E-13, -9.0000000000000012E-11, -1.85, 6.9666666666666678E-12, 1.5000000000000002E-09, 2.5833333333333302E-11
DataValue, 5, 4.98E-13, -9.0000000000000012E-11, -1.8, 8.3E-12, 1.5000000000000002E-09, -1.7666666666666696E-11
DataValue, 5, 3.1200000000000003E-13, -9.0000000000000012E-11, -1.7500000000000002, 5.2000000000000005E-12, 1.5000000000000002E-09, -1.3000000000000007E-11
DataValue, 5, 4.2000000000000003E-13, -9.0000000000000012E-11, -1.7000000000000002, 7.0000000000000009E-12, 1.5000000000000002E-09, 4.5666666666666625E-11
DataValue, 5, 5.86E-13, -9.0000000000000012E-11, -1.6500000000000001, 9.7666666666666672E-12, 1.5000000000000002E-09, -2.1666666666666669E-12
DataValue, 5, 4.0700000000000003E-13, -8.0000000000000008E-11, -1.6, 6.783333333333334E-12, 1.3333333333333335E-09, -1.2166666666666655E-11
DataValue, 5, 5.13E-13, -8.0000000000000008E-11, -1.55, 8.55E-12, 1.3333333333333335E-09, -2.3833333333333364E-11
DataValue, 5, 2.6400000000000004E-13, -9.0000000000000012E-11, -1.5000000000000002, 4.4000000000000006E-12, 1.5000000000000002E-09, -4.1333333333333384E-11
DataValue, 5, 2.6500000000000003E-13, -8.0000000000000008E-11, -1.4500000000000002, 4.4166666666666676E-12, 1.3333333333333335E-09, 2.9499999999999976E-11
DataValue, 5, 4.4100000000000004E-13, -8.0000000000000008E-11, -1.4000000000000001, 7.35E-12, 1.3333333333333335E-09, -5.8333333333333326E-12
DataValue, 5, 2.3000000000000003E-13, -9.0000000000000012E-11, -1.35, 3.8333333333333338E-12, 1.5000000000000002E-09, -1.0666666666666657E-11
DataValue, 5, 3.77E-13, -9.0000000000000012E-11, -1.3, 6.2833333333333341E-12, 1.5000000000000002E-09, 3.4666666666666644E-11
DataValue, 5, 4.3800000000000005E-13, -8.0000000000000008E-11, -1.25, 7.3000000000000016E-12, 1.3333333333333335E-09, -7.8333333333333467E-12
DataValue, 5, 3.3E-13, -9.0000000000000012E-11, -1.2000000000000002, 5.5E-12, 1.5000000000000002E-09, 8.5000000000000013E-12
DataValue, 5, 4.89E-13, -9.0000000000000012E-11, -1.1500000000000001, 8.15E-12, 1.5000000000000002E-09, 4.6666666666666643E-12
DataValue, 5, 3.5800000000000004E-13, -9.0000000000000012E-11, -1.1, 5.9666666666666672E-12, 1.5000000000000002E-09, -6.6833333333333283E-11
DataValue, 5, 8.8E-14, -9.0000000000000012E-11, -1.05, 1.4666666666666668E-12, 1.5000000000000002E-09, 2.1833333333333313E-11
DataValue, 5, 4.89E-13, -9.0000000000000012E-11, -1, 8.15E-12, 1.5000000000000002E-09, 1.091666666666667E-10
DataValue, 5, 7.4300000000000007E-13, -9.0000000000000012E-11, -0.95000000000000007, 1.2383333333333335E-11, 1.5000000000000002E-09, 1.5933333333333338E-10
DataValue, 5, 1.4450000000000002E-12, -9.0000000000000012E-11, -0.9, 2.4083333333333337E-11, 1.5000000000000002E-09, 5.6533333333333355E-10
DataValue, 5, 4.1350000000000005E-12, -9.0000000000000012E-11, -0.85000000000000009, 6.8916666666666674E-11, 1.5000000000000002E-09, 2.0136666666666677E-09
DataValue, 5, 1.3527000000000001E-11, -9.0000000000000012E-11, -0.8, 2.2545000000000003E-10, 1.5000000000000002E-09, 6.4453333333333359E-09
DataValue, 5, 4.2807000000000005E-11, -9.0000000000000012E-11, -0.75000000000000011, 7.1345000000000016E-10, 1.5000000000000002E-09, 1.8348666666666672E-08
DataValue, 5, 1.23619E-10, -9.0000000000000012E-11, -0.70000000000000007, 2.0603166666666669E-09, 1.5000000000000002E-09, 5.3088666666666624E-08
DataValue, 5, 3.61339E-10, -9.0000000000000012E-11, -0.65, 6.0223166666666671E-09, 1.5000000000000002E-09, 1.4434850000000006E-07
DataValue, 5, 9.8971E-10, -9.0000000000000012E-11, -0.60000000000000009, 1.6495166666666668E-08, 1.5000000000000002E-09, 3.8748016666666675E-07
DataValue, 5, 2.68622E-09, -9.0000000000000012E-11, -0.55, 4.4770333333333332E-08, 1.5000000000000002E-09, 1.0558966666666657E-06
DataValue, 5, 7.32509E-09, -9.0000000000000012E-11, -0.5, 1.2208483333333333E-07, 1.5000000000000002E-09, 2.5269966666666663E-06
DataValue, 5, 1.78482E-08, -1.0000000000000002E-10, -0.45, 2.9747000000000003E-07, 1.6666666666666669E-09, 5.792101666666669E-06
DataValue, 5, 4.20777E-08, -9.0000000000000012E-11, -0.4, 7.01295E-07, 1.5000000000000002E-09, 1.2665066666666668E-05
DataValue, 5, 9.3838599999999989E-08, -9.0000000000000012E-11, -0.35000000000000003, 1.5639766666666666E-06, 1.5000000000000002E-09, 2.6534216666666671E-05
DataValue, 5, 2.01283E-07, -1.0000000000000002E-10, -0.30000000000000004, 3.3547166666666665E-06, 1.6666666666666669E-09, 5.2974233333333318E-05
DataValue, 5, 4.11684E-07, -9.0000000000000012E-11, -0.25, 6.8614E-06, 1.5000000000000002E-09, 9.85448333333333E-05
DataValue, 5, 7.92552E-07, -9.0000000000000012E-11, -0.2, 1.32092E-05, 1.5000000000000002E-09, 0.00017872100000000004
