
SetupTitle, HEMT_transfer
PrimitiveTest, I/V Sweep
TestParameter, Context.MainFrame, B1500A
TestParameter, Channel.UnitType, SMU, SMU, SMU
TestParameter, Channel.Unit, SMU1:MP, SMU2:MC, GNDU:GND
TestParameter, Channel.IName, Id, Ig, Is
TestParameter, Channel.VName, Vd, Vg, Vs
TestParameter, Channel.Mode, V, V, COMMON
TestParameter, Channel.Func, CONST, VAR1, CONST
TestParameter, Channel.Index, 
TestParameter, Channel.Time, 
TestParameter, Measurement.Port.Unit, SMU1:MP, SMU2:MC, GNDU:GND
TestParameter, Measurement.Port.SeriesResistor, NONE, NONE, NONE
TestParameter, Measurement.Port.Filter, ON, ON, ON
TestParameter, Measurement.Port.OutputVoltageComparison, 0, 0, 0
TestParameter, Measurement.Primary.Locus, Single
TestParameter, Measurement.Primary.Scale, LINEAR
TestParameter, Measurement.Primary.Start, -5
TestParameter, Measurement.Primary.Stop, 5
TestParameter, Measurement.Primary.Step, 0.05
TestParameter, Measurement.Primary.Compliance, 0.001
TestParameter, Measurement.Primary.PowerCompliance, 0
TestParameter, Measurement.Aborting.Condition, CONTINUE AT ANY
TestParameter, Measurement.PostOutput.Value, START
TestParameter, Measurement.PostOutput.Retention, OFF
TestParameter, Measurement.Bias.Source, 5, -5, 0
TestParameter, Measurement.Bias.Compliance, 0.1, 0.001, 2
TestParameter, Measurement.Monitor.Unit, SMU1:MP, SMU2:MC, GNDU:GND
TestParameter, Measurement.Monitor.Adc, HR ADC, HS ADC, HR ADC
TestParameter, Measurement.Monitor.Measurement, Compliance Side, Force and Compliance Sides, Compliance Side
TestParameter, Measurement.Monitor.RangingMode, LIMITED, LIMITED, LIMITED
TestParameter, Measurement.Monitor.RangeBoundary, 1nA, 10uA, 1nA
TestParameter, Measurement.Monitor.RangeRating, BY FULL RANGE, BY FULL RANGE, BY FULL RANGE
TestParameter, Measurement.Monitor.RangeRatingCoeff, 50, 50, 50
TestParameter, Measurement.Timing.Hold, 0
TestParameter, Measurement.Timing.Delay, 0
TestParameter, Measurement.Adc.HighSpeed.Mode, PLC
TestParameter, Measurement.Adc.HighSpeed.Coeff, 2
TestParameter, Measurement.Adc.HighResolution.AutoZero, OFF
TestParameter, Measurement.Adc.HighResolution.Mode, PLC
TestParameter, Measurement.Adc.HighResolution.Coeff, 2
TestParameter, Measurement.WaitTime.Source.Coeff, 1
TestParameter, Measurement.WaitTime.Source.Offset, 0
TestParameter, Measurement.WaitTime.Monitor.Coeff, 1
TestParameter, Measurement.WaitTime.Monitor.Offset, 0
TestParameter, Function.User.Name, Id_dens, Ig_dens, gm
TestParameter, Function.User.Unit, A/mm, A/mm, S/mm
TestParameter, Function.User.Definition, Id/0.06, abs(Ig)/0.06, diff(Id_dens,Vg)
TestParameter, Output.Graph.Enabled, true
TestParameter, Output.Graph.AutoScaling, false
TestParameter, Output.Graph.XAxis.Data, Vg
TestParameter, Output.Graph.XAxis.Scale, Linear
TestParameter, Output.Graph.XAxis.Left, -2
TestParameter, Output.Graph.XAxis.Right, 10
TestParameter, Output.Graph.XAxis.RunTimeAutoScale, false
TestParameter, Output.Graph.YAxis.Data, Id_dens, Id_dens, gm, Ig_dens
TestParameter, Output.Graph.YAxis.Scale, Log, Linear, Linear, Log
TestParameter, Output.Graph.YAxis.Bottom, 0, 0, 0, 0
TestParameter, Output.Graph.YAxis.Top, 1, 1, 1, 1
TestParameter, Output.Graph.YAxis.Group, , , , 
TestParameter, Output.Graph.YAxis.RunTimeAutoScale, false, false, false, false
TestParameter, Output.List.Data, Vg, Id_dens, Ig_dens, Vd, gm
TestParameter, AutoAnalysis.Interpolation, false
TestParameter, AutoAnalysis.Line1.Enabled, false
TestParameter, AutoAnalysis.Line1.Type, 1
TestParameter, AutoAnalysis.Line1.Fix, True
TestParameter, AutoAnalysis.Line1.YAxis, 0
TestParameter, AutoAnalysis.Line1.Point1.Type, 0
TestParameter, AutoAnalysis.Line1.Point1.XY.X, 
TestParameter, AutoAnalysis.Line1.Point1.XY.Y, 
TestParameter, AutoAnalysis.Line1.Point1.Data.Var, 
TestParameter, AutoAnalysis.Line1.Point1.Data.Condition, 
TestParameter, AutoAnalysis.Line1.Point1.Data.Start, false
TestParameter, AutoAnalysis.Line1.Point1.Data.StartVar, 
TestParameter, AutoAnalysis.Line1.Point1.Data.StartCondition, 
TestParameter, AutoAnalysis.Line1.Point2.Type, 0
TestParameter, AutoAnalysis.Line1.Point2.XY.X, 
TestParameter, AutoAnalysis.Line1.Point2.XY.Y, 
TestParameter, AutoAnalysis.Line1.Point2.Data.Var, 
TestParameter, AutoAnalysis.Line1.Point2.Data.Condition, 
TestParameter, AutoAnalysis.Line1.Point2.Data.Start, false
TestParameter, AutoAnalysis.Line1.Point2.Data.StartVar, 
TestParameter, AutoAnalysis.Line1.Point2.Data.StartCondition, 
TestParameter, AutoAnalysis.Line1.GradientExpr, 0
TestParameter, AutoAnalysis.Line2.Enabled, false
TestParameter, AutoAnalysis.Line2.Type, 1
TestParameter, AutoAnalysis.Line2.Fix, True
TestParameter, AutoAnalysis.Line2.YAxis, 0
TestParameter, AutoAnalysis.Line2.Point1.Type, 0
TestParameter, AutoAnalysis.Line2.Point1.XY.X, 
TestParameter, AutoAnalysis.Line2.Point1.XY.Y, 
TestParameter, AutoAnalysis.Line2.Point1.Data.Var, 
TestParameter, AutoAnalysis.Line2.Point1.Data.Condition, 
TestParameter, AutoAnalysis.Line2.Point1.Data.Start, false
TestParameter, AutoAnalysis.Line2.Point1.Data.StartVar, 
TestParameter, AutoAnalysis.Line2.Point1.Data.StartCondition, 
TestParameter, AutoAnalysis.Line2.Point2.Type, 0
TestParameter, AutoAnalysis.Line2.Point2.XY.X, 
TestParameter, AutoAnalysis.Line2.Point2.XY.Y, 
TestParameter, AutoAnalysis.Line2.Point2.Data.Var, 
TestParameter, AutoAnalysis.Line2.Point2.Data.Condition, 
TestParameter, AutoAnalysis.Line2.Point2.Data.Start, false
TestParameter, AutoAnalysis.Line2.Point2.Data.StartVar, 
TestParameter, AutoAnalysis.Line2.Point2.Data.StartCondition, 
TestParameter, AutoAnalysis.Line2.GradientExpr, 0
TestParameter, AutoAnalysis.Marker.Enabled, false
TestParameter, AutoAnalysis.Marker.Data.Var, 
TestParameter, AutoAnalysis.Marker.Data.Condition, 
TestParameter, AutoAnalysis.Marker.Data.Start, false
TestParameter, AutoAnalysis.Marker.Data.StartVar, 
TestParameter, AutoAnalysis.Marker.Data.StartCondition, 
MetaData, TestRecord.EntryPoint, true
MetaData, TestRecord.RecordTime, 08/14/2019 13:24:58
MetaData, TestRecord.TestTarget, 
MetaData, TestRecord.IterationIndex, 2
MetaData, TestRecord.Preservation, true
MetaData, TestRecord.Flag, #
MetaData, TestRecord.Remarks, #188_F_implant_5nm_cap_die2_r3c3_W200_S70
MetaData, TestRecord.LinkKey, 92659756-0979-4f11-9518-41a635304044
Dimension1, 201, 201, 201, 201, 201, 201, 201
Dimension2, 1, 1, 1, 1, 1, 1, 1
DataName, Vd, Id, Ig, Vg, Id_dens, Ig_dens, gm
DataValue, 5, 2.013E-12, -1.3000000000000002E-10, -5, 3.355E-11, 2.166666666666667E-09, -2.0266666666666739E-10
DataValue, 5, 1.4050000000000002E-12, -8.0000000000000008E-11, -4.95, 2.341666666666667E-11, 1.3333333333333335E-09, -1.2700000000000047E-10
DataValue, 5, 1.251E-12, -8.0000000000000008E-11, -4.9, 2.085E-11, 1.3333333333333335E-09, -3.0833333333333466E-11
DataValue, 5, 1.22E-12, -8.0000000000000008E-11, -4.8500000000000005, 2.0333333333333334E-11, 1.3333333333333335E-09, 3.50000000000002E-12
DataValue, 5, 1.272E-12, -9.0000000000000012E-11, -4.8000000000000007, 2.1200000000000002E-11, 1.5000000000000002E-09, -1.9666666666666554E-11
DataValue, 5, 1.1020000000000002E-12, -9.0000000000000012E-11, -4.75, 1.8366666666666669E-11, 1.5000000000000002E-09, -5.36666666666664E-11
DataValue, 5, 9.5E-13, -8.0000000000000008E-11, -4.7, 1.5833333333333334E-11, 1.3333333333333335E-09, -1.8500000000000052E-11
DataValue, 5, 9.9100000000000012E-13, -9.0000000000000012E-11, -4.65, 1.651666666666667E-11, 1.5000000000000002E-09, 7.666666666666687E-12
DataValue, 5, 9.96E-13, -8.0000000000000008E-11, -4.6000000000000005, 1.66E-11, 1.3333333333333335E-09, -2.3500000000000087E-11
DataValue, 5, 8.5000000000000011E-13, -8.0000000000000008E-11, -4.5500000000000007, 1.4166666666666669E-11, 1.3333333333333335E-09, -2.3666666666666514E-11
DataValue, 5, 8.540000000000001E-13, -8.0000000000000008E-11, -4.5, 1.4233333333333336E-11, 1.3333333333333335E-09, -2.433333333333322E-11
DataValue, 5, 7.04E-13, -8.0000000000000008E-11, -4.45, 1.1733333333333335E-11, 1.3333333333333335E-09, 1.9500000000000055E-11
DataValue, 5, 9.71E-13, -8.0000000000000008E-11, -4.4, 1.6183333333333334E-11, 1.3333333333333335E-09, 7.8333333333333564E-12
DataValue, 5, 7.51E-13, -8.0000000000000008E-11, -4.3500000000000005, 1.2516666666666667E-11, 1.3333333333333335E-09, -6.3333333333333567E-11
DataValue, 5, 5.91E-13, -8.0000000000000008E-11, -4.3000000000000007, 9.85E-12, 1.3333333333333335E-09, 1.4999999999999997E-12
DataValue, 5, 7.6000000000000009E-13, -7E-11, -4.25, 1.2666666666666668E-11, 1.1666666666666668E-09, 3.3333333333333173E-11
DataValue, 5, 7.9100000000000006E-13, -7E-11, -4.2, 1.3183333333333335E-11, 1.1666666666666668E-09, 1.7333333333333396E-11
DataValue, 5, 8.6400000000000005E-13, -7E-11, -4.15, 1.4400000000000002E-11, 1.1666666666666668E-09, -1.3333333333333383E-11
DataValue, 5, 7.110000000000001E-13, -8.0000000000000008E-11, -4.1000000000000005, 1.1850000000000001E-11, 1.3333333333333335E-09, -3.450000000000012E-11
DataValue, 5, 6.57E-13, -7E-11, -4.0500000000000007, 1.0950000000000002E-11, 1.1666666666666668E-09, 3.4999999999999726E-12
DataValue, 5, 7.32E-13, -8.0000000000000008E-11, -4, 1.22E-11, 1.3333333333333335E-09, -1.1166666666666623E-11
DataValue, 5, 5.9E-13, -8.0000000000000008E-11, -3.95, 9.8333333333333333E-12, 1.3333333333333335E-09, -2.3500000000000087E-11
DataValue, 5, 5.91E-13, -7E-11, -3.9000000000000004, 9.85E-12, 1.1666666666666668E-09, 6.0000000000000358E-12
DataValue, 5, 6.2600000000000006E-13, -7E-11, -3.8500000000000005, 1.0433333333333335E-11, 1.1666666666666668E-09, 6.6666666666667668E-13
DataValue, 5, 5.9500000000000009E-13, -7E-11, -3.8000000000000003, 9.916666666666668E-12, 1.1666666666666668E-09, 3.3833333333333307E-11
DataValue, 5, 8.290000000000001E-13, -8.0000000000000008E-11, -3.7500000000000004, 1.3816666666666669E-11, 1.3333333333333335E-09, 2.1499999999999984E-11
DataValue, 5, 7.24E-13, -8.0000000000000008E-11, -3.7, 1.2066666666666668E-11, 1.3333333333333335E-09, -1.7666666666666657E-11
DataValue, 5, 7.23E-13, -7E-11, -3.6500000000000004, 1.2050000000000001E-11, 1.1666666666666668E-09, -4.5499999999999959E-11
DataValue, 5, 4.5100000000000005E-13, -8.0000000000000008E-11, -3.6, 7.5166666666666685E-12, 1.3333333333333335E-09, -2.6833333333333318E-11
DataValue, 5, 5.62E-13, -8.0000000000000008E-11, -3.5500000000000003, 9.3666666666666673E-12, 1.3333333333333335E-09, 2.8333333333333433E-11
DataValue, 5, 6.2100000000000008E-13, -8.0000000000000008E-11, -3.5000000000000004, 1.0350000000000002E-11, 1.3333333333333335E-09, 5.8333333333333407E-12
DataValue, 5, 5.9700000000000008E-13, -8.0000000000000008E-11, -3.45, 9.9500000000000018E-12, 1.3333333333333335E-09, -1.3666666666666662E-11
DataValue, 5, 5.39E-13, -7E-11, -3.4000000000000004, 8.9833333333333343E-12, 1.1666666666666668E-09, -3.3333333333333834E-13
DataValue, 5, 5.9500000000000009E-13, -8.0000000000000008E-11, -3.35, 9.916666666666668E-12, 1.3333333333333335E-09, 8.499999999999982E-12
DataValue, 5, 5.9E-13, -8.0000000000000008E-11, -3.3000000000000003, 9.8333333333333333E-12, 1.3333333333333335E-09, -5.1666666666666868E-12
DataValue, 5, 5.64E-13, -7E-11, -3.2500000000000004, 9.4000000000000011E-12, 1.1666666666666668E-09, -3.2833333333333291E-11
DataValue, 5, 3.9300000000000004E-13, -8.0000000000000008E-11, -3.2, 6.550000000000001E-12, 1.3333333333333335E-09, -1.5666666666666661E-11
DataValue, 5, 4.7E-13, -8.0000000000000008E-11, -3.1500000000000004, 7.8333333333333337E-12, 1.3333333333333335E-09, 6.0499999999999946E-11
DataValue, 5, 7.56E-13, -8.0000000000000008E-11, -3.1, 1.26E-11, 1.3333333333333335E-09, 6.500000000000001E-12
DataValue, 5, 5.0900000000000005E-13, -8.0000000000000008E-11, -3.0500000000000003, 8.4833333333333344E-12, 1.3333333333333335E-09, -2.8333333333333433E-11
DataValue, 5, 5.86E-13, -8.0000000000000008E-11, -3.0000000000000004, 9.7666666666666672E-12, 1.3333333333333335E-09, -2.6666666666666649E-11
DataValue, 5, 3.4900000000000003E-13, -8.0000000000000008E-11, -2.95, 5.8166666666666673E-12, 1.3333333333333335E-09, -5.1333333333333292E-11
DataValue, 5, 2.7800000000000003E-13, -8.0000000000000008E-11, -2.9000000000000004, 4.6333333333333337E-12, 1.3333333333333335E-09, 1.6666666666666658E-11
DataValue, 5, 4.4900000000000006E-13, -8.0000000000000008E-11, -2.85, 7.4833333333333346E-12, 1.3333333333333335E-09, 5.5666666666666623E-11
DataValue, 5, 6.12E-13, -8.0000000000000008E-11, -2.8000000000000003, 1.0200000000000001E-11, 1.3333333333333335E-09, -2.3333333333333467E-12
DataValue, 5, 4.35E-13, -7E-11, -2.7500000000000004, 7.2500000000000008E-12, 1.1666666666666668E-09, -1.9499999999999988E-11
DataValue, 5, 4.95E-13, -8.0000000000000008E-11, -2.7, 8.25E-12, 1.3333333333333335E-09, -1.3166666666666655E-11
DataValue, 5, 3.5600000000000005E-13, -7E-11, -2.6500000000000004, 5.9333333333333342E-12, 1.1666666666666668E-09, 2.9999999999999965E-12
DataValue, 5, 5.13E-13, -8.0000000000000008E-11, -2.6, 8.55E-12, 1.3333333333333335E-09, 1.5166666666666653E-11
DataValue, 5, 4.47E-13, -8.0000000000000008E-11, -2.5500000000000003, 7.45E-12, 1.3333333333333335E-09, -1.5833333333333314E-11
DataValue, 5, 4.1800000000000004E-13, -8.0000000000000008E-11, -2.5, 6.9666666666666678E-12, 1.3333333333333335E-09, -8.83333333333332E-12
DataValue, 5, 3.9400000000000004E-13, -8.0000000000000008E-11, -2.45, 6.5666666666666679E-12, 1.3333333333333335E-09, 2.3833333333333409E-11
DataValue, 5, 5.61E-13, -8.0000000000000008E-11, -2.4000000000000004, 9.35E-12, 1.3333333333333335E-09, 3.43333333333333E-11
DataValue, 5, 6.0000000000000007E-13, -8.0000000000000008E-11, -2.35, 1.0000000000000001E-11, 1.3333333333333335E-09, 2.3999999999999988E-11
DataValue, 5, 7.05E-13, -8.0000000000000008E-11, -2.3000000000000003, 1.1750000000000001E-11, 1.3333333333333335E-09, 2.4299999999999983E-10
DataValue, 5, 2.0580000000000003E-12, -8.0000000000000008E-11, -2.25, 3.4300000000000007E-11, 1.3333333333333335E-09, 6.8966666666666615E-10
DataValue, 5, 4.843E-12, -8.0000000000000008E-11, -2.2, 8.0716666666666675E-11, 1.3333333333333335E-09, 1.7330000000000065E-09
DataValue, 5, 1.2456000000000001E-11, -8.0000000000000008E-11, -2.1500000000000004, 2.0760000000000004E-10, 1.3333333333333335E-09, 4.126999999999997E-09
DataValue, 5, 2.9605000000000004E-11, -8.0000000000000008E-11, -2.1, 4.9341666666666675E-10, 1.3333333333333335E-09, 9.2089999999999933E-09
DataValue, 5, 6.771E-11, -8.0000000000000008E-11, -2.0500000000000003, 1.1285000000000002E-09, 1.3333333333333335E-09, 1.8854166666666649E-08
DataValue, 5, 1.4273E-10, -8.0000000000000008E-11, -2, 2.3788333333333334E-09, 1.3333333333333335E-09, 4.51843333333333E-08
DataValue, 5, 3.3881600000000004E-10, -8.0000000000000008E-11, -1.9500000000000002, 5.6469333333333342E-09, 1.3333333333333335E-09, 2.5361000000000038E-08
DataValue, 5, 2.94896E-10, -8.0000000000000008E-11, -1.9000000000000001, 4.9149333333333338E-09, 1.3333333333333335E-09, 6.72956666666666E-08
DataValue, 5, 7.4259E-10, -8.0000000000000008E-11, -1.85, 1.23765E-08, 1.3333333333333335E-09, 1.9141066666666649E-07
DataValue, 5, 1.44336E-09, -8.0000000000000008E-11, -1.8, 2.4056E-08, 1.3333333333333335E-09, 3.453766666666672E-07
DataValue, 5, 2.81485E-09, -8.0000000000000008E-11, -1.7500000000000002, 4.691416666666667E-08, 1.3333333333333335E-09, 6.0225500000000081E-07
DataValue, 5, 5.05689E-09, -8.0000000000000008E-11, -1.7000000000000002, 8.42815E-08, 1.3333333333333335E-09, 8.5519166666666578E-07
DataValue, 5, 7.9459999999999988E-09, -9.0000000000000012E-11, -1.6500000000000001, 1.3243333333333332E-07, 1.5000000000000002E-09, 1.9219516666666651E-06
DataValue, 5, 1.65886E-08, -8.0000000000000008E-11, -1.6, 2.7647666666666668E-07, 1.3333333333333335E-09, 3.6435666666666638E-06
DataValue, 5, 2.98074E-08, -8.0000000000000008E-11, -1.55, 4.9679E-07, 1.3333333333333335E-09, 6.4877500000000083E-06
DataValue, 5, 5.5515099999999997E-08, -9.0000000000000012E-11, -1.5000000000000002, 9.2525166666666666E-07, 1.5000000000000002E-09, 1.1262100000000017E-05
DataValue, 5, 9.738E-08, -8.0000000000000008E-11, -1.4500000000000002, 1.6230000000000002E-06, 1.3333333333333335E-09, 1.8530149999999984E-05
DataValue, 5, 1.66696E-07, -8.0000000000000008E-11, -1.4000000000000001, 2.7782666666666667E-06, 1.3333333333333335E-09, 3.0730999999999974E-05
DataValue, 5, 2.81766E-07, -9.0000000000000012E-11, -1.35, 4.6961000000000007E-06, 1.5000000000000002E-09, 5.1173499999999946E-05
DataValue, 5, 4.73737E-07, -9.0000000000000012E-11, -1.3, 7.8956166666666661E-06, 1.5000000000000002E-09, 8.2483666666666576E-05
DataValue, 5, 7.76668E-07, -9.0000000000000012E-11, -1.25, 1.2944466666666666E-05, 1.5000000000000002E-09, 0.00012930550000000022
DataValue, 5, 1.24957E-06, -9.0000000000000012E-11, -1.2000000000000002, 2.0826166666666671E-05, 1.5000000000000002E-09, 0.00019987366666666704
DataValue, 5, 1.9759100000000003E-06, -9.0000000000000012E-11, -1.1500000000000001, 3.2931833333333342E-05, 1.5000000000000002E-09, 0.000305563333333333
DataValue, 5, 3.0829500000000003E-06, -9.0000000000000012E-11, -1.1, 5.1382500000000005E-05, 1.5000000000000002E-09, 0.00045023499999999962
DataValue, 5, 4.6773200000000006E-06, -9.0000000000000012E-11, -1.05, 7.7955333333333342E-05, 1.5000000000000002E-09, 0.00064894499999999941
DataValue, 5, 6.9766200000000008E-06, -9.0000000000000012E-11, -1, 0.00011627700000000001, 1.5000000000000002E-09, 0.0009057066666666668
DataValue, 5, 1.011156E-05, -9.0000000000000012E-11, -0.95000000000000007, 0.000168526, 1.5000000000000002E-09, 0.0012773800000000005
DataValue, 5, 1.46409E-05, -9.0000000000000012E-11, -0.9, 0.00024401500000000001, 1.5000000000000002E-09, 0.0017457566666666668
DataValue, 5, 2.05861E-05, -9.0000000000000012E-11, -0.85000000000000009, 0.00034310166666666665, 1.5000000000000002E-09, 0.0022846833333333341
DataValue, 5, 2.8349000000000003E-05, -9.0000000000000012E-11, -0.8, 0.00047248333333333337, 1.5000000000000002E-09, 0.0029548166666666675
DataValue, 5, 3.8315E-05, -9.0000000000000012E-11, -0.75000000000000011, 0.00063858333333333334, 1.5000000000000002E-09, 0.0037309166666666671
DataValue, 5, 5.07345E-05, -9.0000000000000012E-11, -0.70000000000000007, 0.000845575, 1.5000000000000002E-09, 0.0046010666666666655
DataValue, 5, 6.5921400000000009E-05, -9.0000000000000012E-11, -0.65, 0.0010986900000000003, 1.5000000000000002E-09, 0.0056488000000000024
DataValue, 5, 8.4627300000000009E-05, -9.0000000000000012E-11, -0.60000000000000009, 0.0014104550000000001, 1.5000000000000002E-09, 0.0067915666666666669
DataValue, 5, 0.00010667080000000001, -9.0000000000000012E-11, -0.55, 0.0017778466666666668, 1.5000000000000002E-09, 0.0081506166666666623
DataValue, 5, 0.00013353100000000002, -9.0000000000000012E-11, -0.5, 0.002225516666666667, 1.5000000000000002E-09, 0.0095088666666666658
DataValue, 5, 0.00016372400000000002, -9.0000000000000012E-11, -0.45, 0.0027287333333333337, 1.5000000000000002E-09, 0.010882833333333336
DataValue, 5, 0.00019882800000000002, -9.0000000000000012E-11, -0.4, 0.0033138000000000004, 1.5000000000000002E-09, 0.012401000000000004
DataValue, 5, 0.00023813000000000003, -9.0000000000000012E-11, -0.35000000000000003, 0.0039688333333333338, 1.5000000000000002E-09, 0.014130833333333334
DataValue, 5, 0.000283613, -1.0000000000000002E-10, -0.30000000000000004, 0.0047268833333333335, 1.6666666666666669E-09, 0.015900999999999992
DataValue, 5, 0.000333536, -9.0000000000000012E-11, -0.25, 0.0055589333333333334, 1.5000000000000002E-09, 0.017695666666666658
DataValue, 5, 0.000389787, -9.0000000000000012E-11, -0.2, 0.00649645, 1.5000000000000002E-09, 0.019688333333333342
DataValue, 5, 0.00045166600000000004, -9.0000000000000012E-11, -0.15000000000000002, 0.0075277666666666672, 1.5000000000000002E-09, 0.021715333333333336
DataValue, 5, 0.000520079, -9.0000000000000012E-11, -0.1, 0.0086679833333333338, 1.5000000000000002E-09, 0.023741499999999988
DataValue, 5, 0.000594115, -1.0000000000000002E-10, -0.05, 0.0099019166666666665, 1.6666666666666669E-09, 0.025785666666666672
