
SetupTitle, HEMT_transfer
PrimitiveTest, I/V Sweep
TestParameter, Context.MainFrame, B1500A
TestParameter, Channel.UnitType, SMU, SMU, SMU
TestParameter, Channel.Unit, SMU1:MP, SMU2:MC, GNDU:GND
TestParameter, Channel.IName, Id, Ig, Is
TestParameter, Channel.VName, Vd, Vg, Vs
TestParameter, Channel.Mode, V, V, COMMON
TestParameter, Channel.Func, CONST, VAR1, CONST
TestParameter, Channel.Index, 
TestParameter, Channel.Time, 
TestParameter, Measurement.Port.Unit, SMU1:MP, SMU2:MC, GNDU:GND
TestParameter, Measurement.Port.SeriesResistor, NONE, NONE, NONE
TestParameter, Measurement.Port.Filter, ON, ON, ON
TestParameter, Measurement.Port.OutputVoltageComparison, 0, 0, 0
TestParameter, Measurement.Primary.Locus, Single
TestParameter, Measurement.Primary.Scale, LINEAR
TestParameter, Measurement.Primary.Start, -5
TestParameter, Measurement.Primary.Stop, 5
TestParameter, Measurement.Primary.Step, 0.05
TestParameter, Measurement.Primary.Compliance, 0.001
TestParameter, Measurement.Primary.PowerCompliance, 0
TestParameter, Measurement.Aborting.Condition, CONTINUE AT ANY
TestParameter, Measurement.PostOutput.Value, START
TestParameter, Measurement.PostOutput.Retention, OFF
TestParameter, Measurement.Bias.Source, 5, -5, 0
TestParameter, Measurement.Bias.Compliance, 0.1, 0.001, 2
TestParameter, Measurement.Monitor.Unit, SMU1:MP, SMU2:MC, GNDU:GND
TestParameter, Measurement.Monitor.Adc, HR ADC, HS ADC, HR ADC
TestParameter, Measurement.Monitor.Measurement, Compliance Side, Force and Compliance Sides, Compliance Side
TestParameter, Measurement.Monitor.RangingMode, LIMITED, LIMITED, LIMITED
TestParameter, Measurement.Monitor.RangeBoundary, 1nA, 10uA, 1nA
TestParameter, Measurement.Monitor.RangeRating, BY FULL RANGE, BY FULL RANGE, BY FULL RANGE
TestParameter, Measurement.Monitor.RangeRatingCoeff, 50, 50, 50
TestParameter, Measurement.Timing.Hold, 0
TestParameter, Measurement.Timing.Delay, 0
TestParameter, Measurement.Adc.HighSpeed.Mode, PLC
TestParameter, Measurement.Adc.HighSpeed.Coeff, 2
TestParameter, Measurement.Adc.HighResolution.AutoZero, OFF
TestParameter, Measurement.Adc.HighResolution.Mode, PLC
TestParameter, Measurement.Adc.HighResolution.Coeff, 2
TestParameter, Measurement.WaitTime.Source.Coeff, 1
TestParameter, Measurement.WaitTime.Source.Offset, 0
TestParameter, Measurement.WaitTime.Monitor.Coeff, 1
TestParameter, Measurement.WaitTime.Monitor.Offset, 0
TestParameter, Function.User.Name, Id_dens, Ig_dens, gm
TestParameter, Function.User.Unit, A/mm, A/mm, S/mm
TestParameter, Function.User.Definition, Id/0.06, abs(Ig)/0.06, diff(Id_dens,Vg)
TestParameter, Output.Graph.Enabled, true
TestParameter, Output.Graph.AutoScaling, false
TestParameter, Output.Graph.XAxis.Data, Vg
TestParameter, Output.Graph.XAxis.Scale, Linear
TestParameter, Output.Graph.XAxis.Left, -2
TestParameter, Output.Graph.XAxis.Right, 10
TestParameter, Output.Graph.XAxis.RunTimeAutoScale, false
TestParameter, Output.Graph.YAxis.Data, Id_dens, Id_dens, gm, Ig_dens
TestParameter, Output.Graph.YAxis.Scale, Log, Linear, Linear, Log
TestParameter, Output.Graph.YAxis.Bottom, 0, 0, 0, 0
TestParameter, Output.Graph.YAxis.Top, 1, 1, 1, 1
TestParameter, Output.Graph.YAxis.Group, , , , 
TestParameter, Output.Graph.YAxis.RunTimeAutoScale, false, false, false, false
TestParameter, Output.List.Data, Vg, Id_dens, Ig_dens, Vd, gm
TestParameter, AutoAnalysis.Interpolation, false
TestParameter, AutoAnalysis.Line1.Enabled, false
TestParameter, AutoAnalysis.Line1.Type, 1
TestParameter, AutoAnalysis.Line1.Fix, True
TestParameter, AutoAnalysis.Line1.YAxis, 0
TestParameter, AutoAnalysis.Line1.Point1.Type, 0
TestParameter, AutoAnalysis.Line1.Point1.XY.X, 
TestParameter, AutoAnalysis.Line1.Point1.XY.Y, 
TestParameter, AutoAnalysis.Line1.Point1.Data.Var, 
TestParameter, AutoAnalysis.Line1.Point1.Data.Condition, 
TestParameter, AutoAnalysis.Line1.Point1.Data.Start, false
TestParameter, AutoAnalysis.Line1.Point1.Data.StartVar, 
TestParameter, AutoAnalysis.Line1.Point1.Data.StartCondition, 
TestParameter, AutoAnalysis.Line1.Point2.Type, 0
TestParameter, AutoAnalysis.Line1.Point2.XY.X, 
TestParameter, AutoAnalysis.Line1.Point2.XY.Y, 
TestParameter, AutoAnalysis.Line1.Point2.Data.Var, 
TestParameter, AutoAnalysis.Line1.Point2.Data.Condition, 
TestParameter, AutoAnalysis.Line1.Point2.Data.Start, false
TestParameter, AutoAnalysis.Line1.Point2.Data.StartVar, 
TestParameter, AutoAnalysis.Line1.Point2.Data.StartCondition, 
TestParameter, AutoAnalysis.Line1.GradientExpr, 0
TestParameter, AutoAnalysis.Line2.Enabled, false
TestParameter, AutoAnalysis.Line2.Type, 1
TestParameter, AutoAnalysis.Line2.Fix, True
TestParameter, AutoAnalysis.Line2.YAxis, 0
TestParameter, AutoAnalysis.Line2.Point1.Type, 0
TestParameter, AutoAnalysis.Line2.Point1.XY.X, 
TestParameter, AutoAnalysis.Line2.Point1.XY.Y, 
TestParameter, AutoAnalysis.Line2.Point1.Data.Var, 
TestParameter, AutoAnalysis.Line2.Point1.Data.Condition, 
TestParameter, AutoAnalysis.Line2.Point1.Data.Start, false
TestParameter, AutoAnalysis.Line2.Point1.Data.StartVar, 
TestParameter, AutoAnalysis.Line2.Point1.Data.StartCondition, 
TestParameter, AutoAnalysis.Line2.Point2.Type, 0
TestParameter, AutoAnalysis.Line2.Point2.XY.X, 
TestParameter, AutoAnalysis.Line2.Point2.XY.Y, 
TestParameter, AutoAnalysis.Line2.Point2.Data.Var, 
TestParameter, AutoAnalysis.Line2.Point2.Data.Condition, 
TestParameter, AutoAnalysis.Line2.Point2.Data.Start, false
TestParameter, AutoAnalysis.Line2.Point2.Data.StartVar, 
TestParameter, AutoAnalysis.Line2.Point2.Data.StartCondition, 
TestParameter, AutoAnalysis.Line2.GradientExpr, 0
TestParameter, AutoAnalysis.Marker.Enabled, false
TestParameter, AutoAnalysis.Marker.Data.Var, 
TestParameter, AutoAnalysis.Marker.Data.Condition, 
TestParameter, AutoAnalysis.Marker.Data.Start, false
TestParameter, AutoAnalysis.Marker.Data.StartVar, 
TestParameter, AutoAnalysis.Marker.Data.StartCondition, 
MetaData, TestRecord.EntryPoint, true
MetaData, TestRecord.RecordTime, 08/14/2019 13:50:45
MetaData, TestRecord.TestTarget, 
MetaData, TestRecord.IterationIndex, 2
MetaData, TestRecord.Preservation, true
MetaData, TestRecord.Flag, #
MetaData, TestRecord.Remarks, #188_F_implant_5nm_cap_die2_r4c3_W150_S70
MetaData, TestRecord.LinkKey, 17985dca-4842-45e2-8e82-3e3bfdb814ed
Dimension1, 201, 201, 201, 201, 201, 201, 201
Dimension2, 1, 1, 1, 1, 1, 1, 1
DataName, Vd, Id, Ig, Vg, Id_dens, Ig_dens, gm
DataValue, 5, 2.1460000000000003E-12, -1.4E-10, -5, 3.5766666666666671E-11, 2.3333333333333335E-09, -1.7433333333333397E-10
DataValue, 5, 1.623E-12, -1.0000000000000002E-10, -4.95, 2.7050000000000003E-11, 1.6666666666666669E-09, -1.395000000000005E-10
DataValue, 5, 1.3090000000000002E-12, -9.0000000000000012E-11, -4.9, 2.181666666666667E-11, 1.5000000000000002E-09, -5.6833333333333518E-11
DataValue, 5, 1.2820000000000002E-12, -1.0000000000000002E-10, -4.8500000000000005, 2.1366666666666671E-11, 1.6666666666666669E-09, -4.6166666666666837E-11
DataValue, 5, 1.032E-12, -9.0000000000000012E-11, -4.8000000000000007, 1.7200000000000003E-11, 1.5000000000000002E-09, -3.6166666666666516E-11
DataValue, 5, 1.065E-12, -1.0000000000000002E-10, -4.75, 1.775E-11, 1.6666666666666669E-09, -1.2166666666666618E-11
DataValue, 5, 9.59E-13, -9.0000000000000012E-11, -4.7, 1.5983333333333334E-11, 1.5000000000000002E-09, -3.50000000000001E-11
DataValue, 5, 8.5500000000000009E-13, -9.0000000000000012E-11, -4.65, 1.4250000000000003E-11, 1.5000000000000002E-09, -4.3333333333333208E-12
DataValue, 5, 9.3300000000000016E-13, -9.0000000000000012E-11, -4.6000000000000005, 1.5550000000000004E-11, 1.5000000000000002E-09, -3.6666666666666895E-12
DataValue, 5, 8.3300000000000009E-13, -9.0000000000000012E-11, -4.5500000000000007, 1.3883333333333335E-11, 1.5000000000000002E-09, -3.0999999999999861E-11
DataValue, 5, 7.47E-13, -1.0000000000000002E-10, -4.5, 1.2450000000000001E-11, 1.6666666666666669E-09, -3.6666666666666411E-12
DataValue, 5, 8.1100000000000008E-13, -9.0000000000000012E-11, -4.45, 1.3516666666666669E-11, 1.5000000000000002E-09, -1.3333333333333367E-11
DataValue, 5, 6.6700000000000009E-13, -9.0000000000000012E-11, -4.4, 1.1116666666666669E-11, 1.5000000000000002E-09, -1.3833333333333392E-11
DataValue, 5, 7.28E-13, -8.0000000000000008E-11, -4.3500000000000005, 1.2133333333333334E-11, 1.3333333333333335E-09, -1.3333333333333592E-12
DataValue, 5, 6.59E-13, -8.0000000000000008E-11, -4.3000000000000007, 1.0983333333333334E-11, 1.3333333333333335E-09, -3.8333333333333096E-12
DataValue, 5, 7.05E-13, -8.0000000000000008E-11, -4.25, 1.1750000000000001E-11, 1.3333333333333335E-09, 2.1666666666666572E-12
DataValue, 5, 6.7200000000000006E-13, -8.0000000000000008E-11, -4.2, 1.12E-11, 1.3333333333333335E-09, -5.0000000000000167E-12
DataValue, 5, 6.7500000000000005E-13, -8.0000000000000008E-11, -4.15, 1.1250000000000002E-11, 1.3333333333333335E-09, -6.33333333333336E-12
DataValue, 5, 6.34E-13, -8.0000000000000008E-11, -4.1000000000000005, 1.0566666666666667E-11, 1.3333333333333335E-09, -8.0000000000000273E-12
DataValue, 5, 6.2700000000000005E-13, -9.0000000000000012E-11, -4.0500000000000007, 1.0450000000000002E-11, 1.5000000000000002E-09, -1.3999999999999906E-11
DataValue, 5, 5.5000000000000008E-13, -8.0000000000000008E-11, -4, 9.1666666666666689E-12, 1.3333333333333335E-09, -1.3166666666666597E-11
DataValue, 5, 5.4800000000000009E-13, -8.0000000000000008E-11, -3.95, 9.1333333333333351E-12, 1.3333333333333335E-09, -1.6666666666666829E-12
DataValue, 5, 5.4E-13, -9.0000000000000012E-11, -3.9000000000000004, 9.0000000000000012E-12, 1.5000000000000002E-09, 3.8333333333333435E-12
DataValue, 5, 5.7100000000000009E-13, -8.0000000000000008E-11, -3.8500000000000005, 9.5166666666666681E-12, 1.3333333333333335E-09, 7.8333333333333224E-12
DataValue, 5, 5.87E-13, -8.0000000000000008E-11, -3.8000000000000003, 9.7833333333333341E-12, 1.3333333333333335E-09, -3.6666666666666572E-12
DataValue, 5, 5.4900000000000008E-13, -8.0000000000000008E-11, -3.7500000000000004, 9.150000000000002E-12, 1.3333333333333335E-09, 1.2333333333333325E-11
DataValue, 5, 6.61E-13, -8.0000000000000008E-11, -3.7, 1.1016666666666668E-11, 1.3333333333333335E-09, -5.000000000000011E-12
DataValue, 5, 5.19E-13, -8.0000000000000008E-11, -3.6500000000000004, 8.65E-12, 1.3333333333333335E-09, -2.9499999999999976E-11
DataValue, 5, 4.8400000000000006E-13, -8.0000000000000008E-11, -3.6, 8.0666666666666676E-12, 1.3333333333333335E-09, -3.9999999999999959E-12
DataValue, 5, 4.95E-13, -8.0000000000000008E-11, -3.5500000000000003, 8.25E-12, 1.3333333333333335E-09, 1.4833333333333395E-11
DataValue, 5, 5.7300000000000008E-13, -8.0000000000000008E-11, -3.5000000000000004, 9.5500000000000019E-12, 1.3333333333333335E-09, 7.5E-12
DataValue, 5, 5.4E-13, -8.0000000000000008E-11, -3.45, 9.0000000000000012E-12, 1.3333333333333335E-09, -1.8499999999999988E-11
DataValue, 5, 4.6200000000000005E-13, -8.0000000000000008E-11, -3.4000000000000004, 7.7000000000000015E-12, 1.3333333333333335E-09, 4.1666666666666644E-12
DataValue, 5, 5.65E-13, -9.0000000000000012E-11, -3.35, 9.4166666666666681E-12, 1.5000000000000002E-09, 9.1666666666666431E-12
DataValue, 5, 5.17E-13, -9.0000000000000012E-11, -3.3000000000000003, 8.6166666666666666E-12, 1.5000000000000002E-09, -9.833333333333364E-12
DataValue, 5, 5.0600000000000007E-13, -8.0000000000000008E-11, -3.2500000000000004, 8.4333333333333352E-12, 1.3333333333333335E-09, 5.0000000000000756E-13
DataValue, 5, 5.2E-13, -8.0000000000000008E-11, -3.2, 8.6666666666666674E-12, 1.3333333333333335E-09, -5.000000000000011E-12
DataValue, 5, 4.76E-13, -9.0000000000000012E-11, -3.1500000000000004, 7.9333333333333337E-12, 1.5000000000000002E-09, -1.1999999999999986E-11
DataValue, 5, 4.48E-13, -8.0000000000000008E-11, -3.1, 7.4666666666666677E-12, 1.3333333333333335E-09, 1.5000000000000063E-12
DataValue, 5, 4.8500000000000005E-13, -8.0000000000000008E-11, -3.0500000000000003, 8.0833333333333345E-12, 1.3333333333333335E-09, 2.0000000000000068E-12
DataValue, 5, 4.6000000000000006E-13, -9.0000000000000012E-11, -3.0000000000000004, 7.6666666666666677E-12, 1.5000000000000002E-09, -9.49999999999999E-12
DataValue, 5, 4.2800000000000004E-13, -8.0000000000000008E-11, -2.95, 7.1333333333333347E-12, 1.3333333333333335E-09, 4.8333333333333255E-12
DataValue, 5, 4.89E-13, -8.0000000000000008E-11, -2.9000000000000004, 8.15E-12, 1.3333333333333335E-09, -1.8333333333333367E-12
DataValue, 5, 4.1700000000000004E-13, -9.0000000000000012E-11, -2.85, 6.9500000000000009E-12, 1.5000000000000002E-09, -3.3333333333332219E-13
DataValue, 5, 4.87E-13, -9.0000000000000012E-11, -2.8000000000000003, 8.1166666666666684E-12, 1.5000000000000002E-09, 2.3333333333333418E-11
DataValue, 5, 5.57E-13, -9.0000000000000012E-11, -2.7500000000000004, 9.2833333333333342E-12, 1.5000000000000002E-09, -5.3333333333333327E-12
DataValue, 5, 4.5500000000000008E-13, -8.0000000000000008E-11, -2.7, 7.5833333333333346E-12, 1.3333333333333335E-09, -1.1166666666666657E-11
DataValue, 5, 4.9E-13, -8.0000000000000008E-11, -2.6500000000000004, 8.1666666666666675E-12, 1.3333333333333335E-09, -6.3333333333333317E-12
DataValue, 5, 4.1700000000000004E-13, -9.0000000000000012E-11, -2.6, 6.9500000000000009E-12, 1.5000000000000002E-09, -1.9499999999999988E-11
DataValue, 5, 3.7300000000000003E-13, -8.0000000000000008E-11, -2.5500000000000003, 6.2166666666666672E-12, 1.3333333333333335E-09, -4.499999999999995E-12
DataValue, 5, 3.9000000000000005E-13, -8.0000000000000008E-11, -2.5, 6.500000000000001E-12, 1.3333333333333335E-09, 1.2666666666666663E-11
DataValue, 5, 4.4900000000000006E-13, -8.0000000000000008E-11, -2.45, 7.4833333333333346E-12, 1.3333333333333335E-09, 2.83333333333334E-12
DataValue, 5, 4.0700000000000003E-13, -9.0000000000000012E-11, -2.4000000000000004, 6.783333333333334E-12, 1.5000000000000002E-09, -5.1666666666666634E-12
DataValue, 5, 4.1800000000000004E-13, -8.0000000000000008E-11, -2.35, 6.9666666666666678E-12, 1.3333333333333335E-09, 4.8333333333333255E-12
DataValue, 5, 4.36E-13, -9.0000000000000012E-11, -2.3000000000000003, 7.2666666666666669E-12, 1.5000000000000002E-09, -8.6666666666666674E-12
DataValue, 5, 3.66E-13, -8.0000000000000008E-11, -2.25, 6.1E-12, 1.3333333333333335E-09, -8.3333333333332975E-13
DataValue, 5, 4.3100000000000003E-13, -8.0000000000000008E-11, -2.2, 7.1833333333333339E-12, 1.3333333333333335E-09, 5.1666666666666868E-12
DataValue, 5, 3.97E-13, -9.0000000000000012E-11, -2.1500000000000004, 6.6166666666666671E-12, 1.5000000000000002E-09, -5.3333333333333327E-12
DataValue, 5, 3.99E-13, -8.0000000000000008E-11, -2.1, 6.65E-12, 1.3333333333333335E-09, 1.1499999999999996E-11
DataValue, 5, 4.66E-13, -9.0000000000000012E-11, -2.0500000000000003, 7.7666666666666676E-12, 1.5000000000000002E-09, -5.6666666666666633E-12
DataValue, 5, 3.65E-13, -8.0000000000000008E-11, -2, 6.0833333333333333E-12, 1.3333333333333335E-09, -1.3333333333333211E-12
DataValue, 5, 4.5800000000000007E-13, -9.0000000000000012E-11, -1.9500000000000002, 7.6333333333333354E-12, 1.5000000000000002E-09, -7.33333333333333E-12
DataValue, 5, 3.2100000000000005E-13, -9.0000000000000012E-11, -1.9000000000000001, 5.3500000000000012E-12, 1.5000000000000002E-09, -7.6666666666666774E-12
DataValue, 5, 4.12E-13, -9.0000000000000012E-11, -1.85, 6.866666666666667E-12, 1.5000000000000002E-09, 7.8333333333333224E-12
DataValue, 5, 3.6800000000000005E-13, -8.0000000000000008E-11, -1.8, 6.1333333333333341E-12, 1.3333333333333335E-09, -7.5E-12
DataValue, 5, 3.6700000000000005E-13, -9.0000000000000012E-11, -1.7500000000000002, 6.116666666666668E-12, 1.5000000000000002E-09, 2.300000000000004E-11
DataValue, 5, 5.0600000000000007E-13, -9.0000000000000012E-11, -1.7000000000000002, 8.4333333333333352E-12, 1.5000000000000002E-09, 2.9333333333333297E-11
DataValue, 5, 5.43E-13, -9.0000000000000012E-11, -1.6500000000000001, 9.05E-12, 1.5000000000000002E-09, 1.1933333333333323E-10
DataValue, 5, 1.222E-12, -9.0000000000000012E-11, -1.6, 2.0366666666666668E-11, 1.5000000000000002E-09, 5.2449999999999958E-10
DataValue, 5, 3.6900000000000006E-12, -9.0000000000000012E-11, -1.55, 6.1500000000000007E-11, 1.5000000000000002E-09, 1.9711666666666695E-09
DataValue, 5, 1.3049E-11, -9.0000000000000012E-11, -1.5000000000000002, 2.1748333333333335E-10, 1.5000000000000002E-09, 5.1571666666666732E-09
DataValue, 5, 3.4633E-11, -9.0000000000000012E-11, -1.4500000000000002, 5.7721666666666671E-10, 1.5000000000000002E-09, 1.8796666666666654E-08
DataValue, 5, 1.25829E-10, -9.0000000000000012E-11, -1.4000000000000001, 2.0971500000000004E-09, 1.5000000000000002E-09, 6.1175333333333293E-08
DataValue, 5, 4.0168500000000005E-10, -9.0000000000000012E-11, -1.35, 6.6947500000000011E-09, 1.5000000000000002E-09, 1.7929016666666653E-07
DataValue, 5, 1.20157E-09, -9.0000000000000012E-11, -1.3, 2.0026166666666668E-08, 1.5000000000000002E-09, 3.5667249999999973E-07
DataValue, 5, 2.54172E-09, -9.0000000000000012E-11, -1.25, 4.2362000000000006E-08, 1.5000000000000002E-09, 7.824200000000011E-07
DataValue, 5, 5.89609E-09, -9.0000000000000012E-11, -1.2000000000000002, 9.8268166666666675E-08, 1.5000000000000002E-09, 1.8214300000000024E-06
DataValue, 5, 1.3470299999999999E-08, -8.0000000000000008E-11, -1.1500000000000001, 2.2450499999999998E-07, 1.3333333333333335E-09, 3.7639183333333295E-06
DataValue, 5, 2.8479599999999996E-08, -9.0000000000000012E-11, -1.1, 4.7465999999999994E-07, 1.5000000000000002E-09, 7.2839333333333273E-06
DataValue, 5, 5.7173899999999994E-08, -9.0000000000000012E-11, -1.05, 9.528983333333333E-07, 1.5000000000000002E-09, 1.2607899999999988E-05
DataValue, 5, 1.04127E-07, -9.0000000000000012E-11, -1, 1.73545E-06, 1.5000000000000002E-09, 2.1704683333333339E-05
DataValue, 5, 1.87402E-07, -9.0000000000000012E-11, -0.95000000000000007, 3.1233666666666666E-06, 1.5000000000000002E-09, 4.0555666666666682E-05
DataValue, 5, 3.47461E-07, -9.0000000000000012E-11, -0.9, 5.7910166666666668E-06, 1.5000000000000002E-09, 7.439250000000001E-05
DataValue, 5, 6.33757E-07, -9.0000000000000012E-11, -0.85000000000000009, 1.0562616666666666E-05, 1.5000000000000002E-09, 0.00012455483333333338
DataValue, 5, 1.09479E-06, -9.0000000000000012E-11, -0.8, 1.8246500000000002E-05, 1.5000000000000002E-09, 0.00020626050000000006
DataValue, 5, 1.8713200000000001E-06, -1.0000000000000002E-10, -0.75000000000000011, 3.1188666666666668E-05, 1.6666666666666669E-09, 0.00032753000000000008
DataValue, 5, 3.0599700000000004E-06, -1.0000000000000002E-10, -0.70000000000000007, 5.0999500000000005E-05, 1.6666666666666669E-09, 0.00049857166666666627
DataValue, 5, 4.86275E-06, -9.0000000000000012E-11, -0.65, 8.1045833333333336E-05, 1.5000000000000002E-09, 0.00072720500000000019
DataValue, 5, 7.4232E-06, -1.0000000000000002E-10, -0.60000000000000009, 0.00012372000000000002, 1.6666666666666669E-09, 0.0010812416666666669
DataValue, 5, 1.13502E-05, -1.0000000000000002E-10, -0.55, 0.00018917, 1.6666666666666669E-09, 0.0015632499999999989
DataValue, 5, 1.68027E-05, -9.0000000000000012E-11, -0.5, 0.00028004500000000003, 1.5000000000000002E-09, 0.0021077499999999994
DataValue, 5, 2.39967E-05, -1.0000000000000002E-10, -0.45, 0.000399945, 1.6666666666666669E-09, 0.0028097333333333345
DataValue, 5, 3.36611E-05, -1.0000000000000002E-10, -0.4, 0.00056101833333333342, 1.6666666666666669E-09, 0.0037539333333333341
DataValue, 5, 4.65203E-05, -9.0000000000000012E-11, -0.35000000000000003, 0.00077533833333333336, 1.5000000000000002E-09, 0.0049202666666666676
DataValue, 5, 6.31827E-05, -1.0000000000000002E-10, -0.30000000000000004, 0.001053045, 1.6666666666666669E-09, 0.0062719833333333324
DataValue, 5, 8.41522E-05, -1.0000000000000002E-10, -0.25, 0.0014025366666666668, 1.6666666666666669E-09, 0.0077331666666666651
DataValue, 5, 0.0001095817, -1.0000000000000002E-10, -0.2, 0.0018263616666666668, 1.6666666666666669E-09, 0.0094928000000000061
DataValue, 5, 0.00014110900000000002, -9.0000000000000012E-11, -0.15000000000000002, 0.0023518166666666672, 1.5000000000000002E-09, 0.011422716666666668
