
SetupTitle, HEMT_transfer
PrimitiveTest, I/V Sweep
TestParameter, Context.MainFrame, B1500A
TestParameter, Channel.UnitType, SMU, SMU, SMU
TestParameter, Channel.Unit, SMU1:MP, SMU2:MC, GNDU:GND
TestParameter, Channel.IName, Id, Ig, Is
TestParameter, Channel.VName, Vd, Vg, Vs
TestParameter, Channel.Mode, V, V, COMMON
TestParameter, Channel.Func, CONST, VAR1, CONST
TestParameter, Channel.Index, 
TestParameter, Channel.Time, 
TestParameter, Measurement.Port.Unit, SMU1:MP, SMU2:MC, GNDU:GND
TestParameter, Measurement.Port.SeriesResistor, NONE, NONE, NONE
TestParameter, Measurement.Port.Filter, ON, ON, ON
TestParameter, Measurement.Port.OutputVoltageComparison, 0, 0, 0
TestParameter, Measurement.Primary.Locus, Single
TestParameter, Measurement.Primary.Scale, LINEAR
TestParameter, Measurement.Primary.Start, -5
TestParameter, Measurement.Primary.Stop, 5
TestParameter, Measurement.Primary.Step, 0.05
TestParameter, Measurement.Primary.Compliance, 0.001
TestParameter, Measurement.Primary.PowerCompliance, 0
TestParameter, Measurement.Aborting.Condition, CONTINUE AT ANY
TestParameter, Measurement.PostOutput.Value, START
TestParameter, Measurement.PostOutput.Retention, OFF
TestParameter, Measurement.Bias.Source, 5, -5, 0
TestParameter, Measurement.Bias.Compliance, 0.1, 0.001, 2
TestParameter, Measurement.Monitor.Unit, SMU1:MP, SMU2:MC, GNDU:GND
TestParameter, Measurement.Monitor.Adc, HR ADC, HS ADC, HR ADC
TestParameter, Measurement.Monitor.Measurement, Compliance Side, Force and Compliance Sides, Compliance Side
TestParameter, Measurement.Monitor.RangingMode, LIMITED, LIMITED, LIMITED
TestParameter, Measurement.Monitor.RangeBoundary, 1nA, 10uA, 1nA
TestParameter, Measurement.Monitor.RangeRating, BY FULL RANGE, BY FULL RANGE, BY FULL RANGE
TestParameter, Measurement.Monitor.RangeRatingCoeff, 50, 50, 50
TestParameter, Measurement.Timing.Hold, 0
TestParameter, Measurement.Timing.Delay, 0
TestParameter, Measurement.Adc.HighSpeed.Mode, PLC
TestParameter, Measurement.Adc.HighSpeed.Coeff, 2
TestParameter, Measurement.Adc.HighResolution.AutoZero, OFF
TestParameter, Measurement.Adc.HighResolution.Mode, PLC
TestParameter, Measurement.Adc.HighResolution.Coeff, 2
TestParameter, Measurement.WaitTime.Source.Coeff, 1
TestParameter, Measurement.WaitTime.Source.Offset, 0
TestParameter, Measurement.WaitTime.Monitor.Coeff, 1
TestParameter, Measurement.WaitTime.Monitor.Offset, 0
TestParameter, Function.User.Name, Id_dens, Ig_dens, gm
TestParameter, Function.User.Unit, A/mm, A/mm, S/mm
TestParameter, Function.User.Definition, Id/0.06, abs(Ig)/0.06, diff(Id_dens,Vg)
TestParameter, Output.Graph.Enabled, true
TestParameter, Output.Graph.AutoScaling, false
TestParameter, Output.Graph.XAxis.Data, Vg
TestParameter, Output.Graph.XAxis.Scale, Linear
TestParameter, Output.Graph.XAxis.Left, -2
TestParameter, Output.Graph.XAxis.Right, 10
TestParameter, Output.Graph.XAxis.RunTimeAutoScale, false
TestParameter, Output.Graph.YAxis.Data, Id_dens, Id_dens, gm, Ig_dens
TestParameter, Output.Graph.YAxis.Scale, Log, Linear, Linear, Log
TestParameter, Output.Graph.YAxis.Bottom, 0, 0, 0, 0
TestParameter, Output.Graph.YAxis.Top, 1, 1, 1, 1
TestParameter, Output.Graph.YAxis.Group, , , , 
TestParameter, Output.Graph.YAxis.RunTimeAutoScale, false, false, false, false
TestParameter, Output.List.Data, Vg, Id_dens, Ig_dens, Vd, gm
TestParameter, AutoAnalysis.Interpolation, false
TestParameter, AutoAnalysis.Line1.Enabled, false
TestParameter, AutoAnalysis.Line1.Type, 1
TestParameter, AutoAnalysis.Line1.Fix, True
TestParameter, AutoAnalysis.Line1.YAxis, 0
TestParameter, AutoAnalysis.Line1.Point1.Type, 0
TestParameter, AutoAnalysis.Line1.Point1.XY.X, 
TestParameter, AutoAnalysis.Line1.Point1.XY.Y, 
TestParameter, AutoAnalysis.Line1.Point1.Data.Var, 
TestParameter, AutoAnalysis.Line1.Point1.Data.Condition, 
TestParameter, AutoAnalysis.Line1.Point1.Data.Start, false
TestParameter, AutoAnalysis.Line1.Point1.Data.StartVar, 
TestParameter, AutoAnalysis.Line1.Point1.Data.StartCondition, 
TestParameter, AutoAnalysis.Line1.Point2.Type, 0
TestParameter, AutoAnalysis.Line1.Point2.XY.X, 
TestParameter, AutoAnalysis.Line1.Point2.XY.Y, 
TestParameter, AutoAnalysis.Line1.Point2.Data.Var, 
TestParameter, AutoAnalysis.Line1.Point2.Data.Condition, 
TestParameter, AutoAnalysis.Line1.Point2.Data.Start, false
TestParameter, AutoAnalysis.Line1.Point2.Data.StartVar, 
TestParameter, AutoAnalysis.Line1.Point2.Data.StartCondition, 
TestParameter, AutoAnalysis.Line1.GradientExpr, 0
TestParameter, AutoAnalysis.Line2.Enabled, false
TestParameter, AutoAnalysis.Line2.Type, 1
TestParameter, AutoAnalysis.Line2.Fix, True
TestParameter, AutoAnalysis.Line2.YAxis, 0
TestParameter, AutoAnalysis.Line2.Point1.Type, 0
TestParameter, AutoAnalysis.Line2.Point1.XY.X, 
TestParameter, AutoAnalysis.Line2.Point1.XY.Y, 
TestParameter, AutoAnalysis.Line2.Point1.Data.Var, 
TestParameter, AutoAnalysis.Line2.Point1.Data.Condition, 
TestParameter, AutoAnalysis.Line2.Point1.Data.Start, false
TestParameter, AutoAnalysis.Line2.Point1.Data.StartVar, 
TestParameter, AutoAnalysis.Line2.Point1.Data.StartCondition, 
TestParameter, AutoAnalysis.Line2.Point2.Type, 0
TestParameter, AutoAnalysis.Line2.Point2.XY.X, 
TestParameter, AutoAnalysis.Line2.Point2.XY.Y, 
TestParameter, AutoAnalysis.Line2.Point2.Data.Var, 
TestParameter, AutoAnalysis.Line2.Point2.Data.Condition, 
TestParameter, AutoAnalysis.Line2.Point2.Data.Start, false
TestParameter, AutoAnalysis.Line2.Point2.Data.StartVar, 
TestParameter, AutoAnalysis.Line2.Point2.Data.StartCondition, 
TestParameter, AutoAnalysis.Line2.GradientExpr, 0
TestParameter, AutoAnalysis.Marker.Enabled, false
TestParameter, AutoAnalysis.Marker.Data.Var, 
TestParameter, AutoAnalysis.Marker.Data.Condition, 
TestParameter, AutoAnalysis.Marker.Data.Start, false
TestParameter, AutoAnalysis.Marker.Data.StartVar, 
TestParameter, AutoAnalysis.Marker.Data.StartCondition, 
MetaData, TestRecord.EntryPoint, true
MetaData, TestRecord.RecordTime, 08/14/2019 11:07:27
MetaData, TestRecord.TestTarget, 
MetaData, TestRecord.IterationIndex, 2
MetaData, TestRecord.Preservation, true
MetaData, TestRecord.Flag, #
MetaData, TestRecord.Remarks, #188_F_implant_5nm_cap_die2_r4c1_W150_S70
MetaData, TestRecord.LinkKey, baa883e2-6fc6-42cf-9c27-a6ef5ffb3c7c
Dimension1, 201, 201, 201, 201, 201, 201, 201
Dimension2, 1, 1, 1, 1, 1, 1, 1
DataName, Vd, Id, Ig, Vg, Id_dens, Ig_dens, gm
DataValue, 5, 4.128E-12, -2.3000000000000003E-10, -5, 6.8800000000000011E-11, 3.8333333333333337E-09, -4.8133333333333508E-10
DataValue, 5, 2.6840000000000003E-12, -1.9000000000000002E-10, -4.95, 4.4733333333333342E-11, 3.1666666666666669E-09, -3.3800000000000121E-10
DataValue, 5, 2.1000000000000003E-12, -1.9000000000000002E-10, -4.9, 3.5000000000000008E-11, 3.1666666666666669E-09, -1.3216666666666717E-10
DataValue, 5, 1.8910000000000003E-12, -2.0000000000000003E-10, -4.8500000000000005, 3.1516666666666673E-11, 3.3333333333333338E-09, -5.9500000000000273E-11
DataValue, 5, 1.7430000000000002E-12, -1.9000000000000002E-10, -4.8000000000000007, 2.9050000000000002E-11, 3.1666666666666669E-09, -5.0166666666666442E-11
DataValue, 5, 1.59E-12, -1.9000000000000002E-10, -4.75, 2.6500000000000002E-11, 3.1666666666666669E-09, -4.8999999999999714E-11
DataValue, 5, 1.4490000000000002E-12, -1.9000000000000002E-10, -4.7, 2.4150000000000005E-11, 3.1666666666666669E-09, -4.0166666666666819E-11
DataValue, 5, 1.349E-12, -1.8000000000000003E-10, -4.65, 2.2483333333333335E-11, 3.0000000000000004E-09, -3.233333333333348E-11
DataValue, 5, 1.255E-12, -1.9000000000000002E-10, -4.6000000000000005, 2.0916666666666669E-11, 3.1666666666666669E-09, -1.6500000000000046E-11
DataValue, 5, 1.2500000000000001E-12, -1.8000000000000003E-10, -4.5500000000000007, 2.0833333333333336E-11, 3.0000000000000004E-09, 6.6666666666667376E-13
DataValue, 5, 1.2590000000000002E-12, -1.8000000000000003E-10, -4.5, 2.0983333333333336E-11, 3.0000000000000004E-09, -2.166666666666654E-11
DataValue, 5, 1.12E-12, -1.8000000000000003E-10, -4.45, 1.866666666666667E-11, 3.0000000000000004E-09, -2.1833333333333419E-11
DataValue, 5, 1.128E-12, -1.8000000000000003E-10, -4.4, 1.8800000000000002E-11, 3.0000000000000004E-09, -8.500000000000053E-12
DataValue, 5, 1.069E-12, -1.8000000000000003E-10, -4.3500000000000005, 1.7816666666666668E-11, 3.0000000000000004E-09, -2.3833333333333426E-11
DataValue, 5, 9.8500000000000014E-13, -1.7E-10, -4.3000000000000007, 1.6416666666666668E-11, 2.8333333333333335E-09, -1.3999999999999923E-11
DataValue, 5, 9.8500000000000014E-13, -1.7E-10, -4.25, 1.6416666666666668E-11, 2.8333333333333335E-09, -2.6666666666666627E-12
DataValue, 5, 9.69E-13, -1.8000000000000003E-10, -4.2, 1.615E-11, 3.0000000000000004E-09, -8.83333333333336E-12
DataValue, 5, 9.32E-13, -1.7E-10, -4.15, 1.5533333333333335E-11, 2.8333333333333335E-09, -2.1500000000000065E-11
DataValue, 5, 8.4000000000000006E-13, -1.7E-10, -4.1000000000000005, 1.4000000000000002E-11, 2.8333333333333335E-09, 6.6666666666667961E-13
DataValue, 5, 9.36E-13, -1.7E-10, -4.0500000000000007, 1.5600000000000003E-11, 2.8333333333333335E-09, 6.1666666666666349E-12
DataValue, 5, 8.770000000000001E-13, -1.7E-10, -4, 1.4616666666666669E-11, 2.8333333333333335E-09, -9.6666666666666074E-12
DataValue, 5, 8.780000000000001E-13, -1.7E-10, -3.95, 1.4633333333333337E-11, 2.8333333333333335E-09, 4.5000000000000071E-12
DataValue, 5, 9.0400000000000009E-13, -1.7E-10, -3.9000000000000004, 1.5066666666666668E-11, 2.8333333333333335E-09, -1.0666666666666728E-11
DataValue, 5, 8.1400000000000007E-13, -1.6000000000000002E-10, -3.8500000000000005, 1.3566666666666668E-11, 2.666666666666667E-09, -1.7666666666666657E-11
DataValue, 5, 7.98E-13, -1.7E-10, -3.8000000000000003, 1.33E-11, 2.8333333333333335E-09, -6.6666666666666053E-13
DataValue, 5, 8.1000000000000008E-13, -1.6000000000000002E-10, -3.7500000000000004, 1.3500000000000002E-11, 2.666666666666667E-09, -6.4999999999999687E-12
DataValue, 5, 7.590000000000001E-13, -1.6000000000000002E-10, -3.7, 1.2650000000000003E-11, 2.666666666666667E-09, -3.6666666666666572E-12
DataValue, 5, 7.8800000000000008E-13, -1.6000000000000002E-10, -3.6500000000000004, 1.3133333333333336E-11, 2.666666666666667E-09, 1.8333333333333125E-12
DataValue, 5, 7.7000000000000005E-13, -1.5000000000000003E-10, -3.6, 1.2833333333333334E-11, 2.5000000000000005E-09, -8.3333333333333288E-12
DataValue, 5, 7.3800000000000009E-13, -1.6000000000000002E-10, -3.5500000000000003, 1.2300000000000002E-11, 2.666666666666667E-09, -9.3333333333333544E-12
DataValue, 5, 7.1400000000000009E-13, -1.6000000000000002E-10, -3.5000000000000004, 1.1900000000000002E-11, 2.666666666666667E-09, -8.6666666666666674E-12
DataValue, 5, 6.86E-13, -1.5000000000000003E-10, -3.45, 1.1433333333333335E-11, 2.5000000000000005E-09, -1.266666666666668E-11
DataValue, 5, 6.38E-13, -1.5000000000000003E-10, -3.4000000000000004, 1.0633333333333333E-11, 2.5000000000000005E-09, 3.4999999999999879E-12
DataValue, 5, 7.07E-13, -1.6000000000000002E-10, -3.35, 1.1783333333333334E-11, 2.666666666666667E-09, 4.000000000000012E-12
DataValue, 5, 6.62E-13, -1.6000000000000002E-10, -3.3000000000000003, 1.1033333333333335E-11, 2.666666666666667E-09, 7.1666666666666936E-12
DataValue, 5, 7.5E-13, -1.5000000000000003E-10, -3.2500000000000004, 1.25E-11, 2.5000000000000005E-09, -2.1666666666666669E-12
DataValue, 5, 6.4900000000000006E-13, -1.5000000000000003E-10, -3.2, 1.0816666666666668E-11, 2.5000000000000005E-09, -2.0833333333333307E-11
DataValue, 5, 6.2500000000000006E-13, -1.5000000000000003E-10, -3.1500000000000004, 1.0416666666666668E-11, 2.5000000000000005E-09, 1.4499999999999992E-11
DataValue, 5, 7.360000000000001E-13, -1.5000000000000003E-10, -3.1, 1.2266666666666668E-11, 2.5000000000000005E-09, -4.3333333333333176E-12
DataValue, 5, 5.9900000000000007E-13, -1.5000000000000003E-10, -3.0500000000000003, 9.9833333333333357E-12, 2.5000000000000005E-09, -1.0000000000000033E-11
DataValue, 5, 6.76E-13, -1.5000000000000003E-10, -3.0000000000000004, 1.1266666666666669E-11, 2.5000000000000005E-09, 1.1999999999999986E-11
DataValue, 5, 6.7100000000000007E-13, -1.5000000000000003E-10, -2.95, 1.1183333333333335E-11, 2.5000000000000005E-09, -8.4999999999999981E-12
DataValue, 5, 6.2500000000000006E-13, -1.5000000000000003E-10, -2.9000000000000004, 1.0416666666666668E-11, 2.5000000000000005E-09, -7.5E-12
DataValue, 5, 6.2600000000000006E-13, -1.5000000000000003E-10, -2.85, 1.0433333333333335E-11, 2.5000000000000005E-09, 1.1833333333333333E-11
DataValue, 5, 6.9600000000000006E-13, -1.5000000000000003E-10, -2.8000000000000003, 1.1600000000000002E-11, 2.5000000000000005E-09, 4.166666666666683E-12
DataValue, 5, 6.5100000000000005E-13, -1.5000000000000003E-10, -2.7500000000000004, 1.0850000000000002E-11, 2.5000000000000005E-09, -1.1833333333333333E-11
DataValue, 5, 6.2500000000000006E-13, -1.5000000000000003E-10, -2.7, 1.0416666666666668E-11, 2.5000000000000005E-09, -4.1666666666666644E-12
DataValue, 5, 6.2600000000000006E-13, -1.5000000000000003E-10, -2.6500000000000004, 1.0433333333333335E-11, 2.5000000000000005E-09, -6.1666666666666623E-12
DataValue, 5, 5.88E-13, -1.5000000000000003E-10, -2.6, 9.8000000000000011E-12, 2.5000000000000005E-09, 0
DataValue, 5, 6.2600000000000006E-13, -1.5000000000000003E-10, -2.5500000000000003, 1.0433333333333335E-11, 2.5000000000000005E-09, 1.5333333333333322E-11
DataValue, 5, 6.8E-13, -1.5000000000000003E-10, -2.5, 1.1333333333333335E-11, 2.5000000000000005E-09, 1.0166666666666657E-11
DataValue, 5, 6.870000000000001E-13, -1.5000000000000003E-10, -2.45, 1.1450000000000002E-11, 2.5000000000000005E-09, 6.6666666666666994E-12
DataValue, 5, 7.2000000000000006E-13, -1.4E-10, -2.4000000000000004, 1.2000000000000002E-11, 2.3333333333333335E-09, -9.6666666666666672E-12
DataValue, 5, 6.29E-13, -1.4E-10, -2.35, 1.0483333333333334E-11, 2.3333333333333335E-09, -3.8333333333333427E-12
DataValue, 5, 6.9700000000000006E-13, -1.4E-10, -2.3000000000000003, 1.1616666666666668E-11, 2.3333333333333335E-09, 2.9333333333333323E-11
DataValue, 5, 8.050000000000001E-13, -1.3000000000000002E-10, -2.25, 1.3416666666666669E-11, 2.166666666666667E-09, 1.6E-11
DataValue, 5, 7.9300000000000005E-13, -1.4E-10, -2.2, 1.3216666666666669E-11, 2.3333333333333335E-09, -1.500000000000013E-12
DataValue, 5, 7.96E-13, -1.4E-10, -2.1500000000000004, 1.3266666666666668E-11, 2.3333333333333335E-09, 7.8333333333333224E-12
DataValue, 5, 8.4000000000000006E-13, -1.4E-10, -2.1, 1.4000000000000002E-11, 2.3333333333333335E-09, 2.2333333333333314E-11
DataValue, 5, 9.3E-13, -1.4E-10, -2.0500000000000003, 1.55E-11, 2.3333333333333335E-09, 2.5499999999999996E-11
DataValue, 5, 9.9300000000000011E-13, -1.4E-10, -2, 1.6550000000000004E-11, 2.3333333333333335E-09, 3.5333333333333315E-11
DataValue, 5, 1.1420000000000002E-12, -1.3000000000000002E-10, -1.9500000000000002, 1.9033333333333336E-11, 2.166666666666667E-09, 8.95000000000001E-11
DataValue, 5, 1.5300000000000001E-12, -1.4E-10, -1.9000000000000001, 2.5500000000000002E-11, 2.3333333333333335E-09, 1.3783333333333322E-10
DataValue, 5, 1.969E-12, -1.4E-10, -1.85, 3.2816666666666671E-11, 2.3333333333333335E-09, 2.9899999999999979E-10
DataValue, 5, 3.3240000000000004E-12, -1.4E-10, -1.8, 5.540000000000001E-11, 2.3333333333333335E-09, 8.9716666666666776E-10
DataValue, 5, 7.352E-12, -1.4E-10, -1.7500000000000002, 1.2253333333333333E-10, 2.3333333333333335E-09, 2.4680000000000035E-09
DataValue, 5, 1.8132E-11, -1.4E-10, -1.7000000000000002, 3.022E-10, 2.3333333333333335E-09, 4.6924999999999955E-09
DataValue, 5, 3.5507E-11, -1.3000000000000002E-10, -1.6500000000000001, 5.9178333333333339E-10, 2.166666666666667E-09, 1.1481999999999992E-08
DataValue, 5, 8.7024000000000009E-11, -1.2E-10, -1.6, 1.4504000000000003E-09, 2E-09, 2.5501333333333311E-08
DataValue, 5, 1.8851500000000002E-10, -1.3000000000000002E-10, -1.55, 3.141916666666667E-09, 2.166666666666667E-09, 5.3275500000000072E-08
DataValue, 5, 4.06677E-10, -1.3000000000000002E-10, -1.5000000000000002, 6.77795E-09, 2.166666666666667E-09, 1.1642750000000016E-07
DataValue, 5, 8.8708E-10, -1.3000000000000002E-10, -1.4500000000000002, 1.4784666666666667E-08, 2.166666666666667E-09, 2.4377049999999982E-07
DataValue, 5, 1.8693E-09, -1.3000000000000002E-10, -1.4000000000000001, 3.1155000000000003E-08, 2.166666666666667E-09, 4.1066666666666632E-07
DataValue, 5, 3.35108E-09, -1.3000000000000002E-10, -1.35, 5.5851333333333338E-08, 2.166666666666667E-09, 7.65581666666666E-07
DataValue, 5, 6.46279E-09, -1.3000000000000002E-10, -1.3, 1.0771316666666666E-07, 2.166666666666667E-09, 1.6251866666666649E-06
DataValue, 5, 1.3102199999999998E-08, -1.3000000000000002E-10, -1.25, 2.1836999999999996E-07, 2.166666666666667E-09, 2.73085166666667E-06
DataValue, 5, 2.28479E-08, -1.3000000000000002E-10, -1.2000000000000002, 3.8079833333333331E-07, 2.166666666666667E-09, 4.2287333333333383E-06
DataValue, 5, 3.84746E-08, -1.3000000000000002E-10, -1.1500000000000001, 6.4124333333333326E-07, 2.166666666666667E-09, 7.97996666666666E-06
DataValue, 5, 7.07277E-08, -1.3000000000000002E-10, -1.1, 1.178795E-06, 2.166666666666667E-09, 1.4595399999999987E-05
DataValue, 5, 1.26047E-07, -1.3000000000000002E-10, -1.05, 2.1007833333333332E-06, 2.166666666666667E-09, 2.3722549999999982E-05
DataValue, 5, 2.13063E-07, -1.3000000000000002E-10, -1, 3.55105E-06, 2.166666666666667E-09, 3.6954833333333348E-05
DataValue, 5, 3.47776E-07, -1.4E-10, -0.95000000000000007, 5.7962666666666673E-06, 2.3333333333333335E-09, 5.868283333333334E-05
DataValue, 5, 5.6516E-07, -1.3000000000000002E-10, -0.9, 9.4193333333333332E-06, 2.166666666666667E-09, 8.9777166666666692E-05
DataValue, 5, 8.86439E-07, -1.3000000000000002E-10, -0.85000000000000009, 1.4773983333333335E-05, 2.166666666666667E-09, 0.00013484000000000006
DataValue, 5, 1.3742000000000001E-06, -1.3000000000000002E-10, -0.8, 2.2903333333333335E-05, 2.166666666666667E-09, 0.00020271183333333339
DataValue, 5, 2.10271E-06, -1.2E-10, -0.75000000000000011, 3.5045166666666668E-05, 2E-09, 0.0002978150000000001
DataValue, 5, 3.1610900000000003E-06, -1.2E-10, -0.70000000000000007, 5.2684833333333341E-05, 2E-09, 0.00042417499999999973
DataValue, 5, 4.64776E-06, -1.3000000000000002E-10, -0.65, 7.746266666666668E-05, 2.166666666666667E-09, 0.00061207833333333354
DataValue, 5, 6.8335600000000007E-06, -1.3000000000000002E-10, -0.60000000000000009, 0.00011389266666666668, 2.166666666666667E-09, 0.0008532066666666672
DataValue, 5, 9.7670000000000015E-06, -1.2E-10, -0.55, 0.00016278333333333338, 2E-09, 0.0011492399999999991
DataValue, 5, 1.3729E-05, -1.2E-10, -0.5, 0.00022881666666666668, 2E-09, 0.001566316666666666
DataValue, 5, 1.91649E-05, -1.3000000000000002E-10, -0.45, 0.00031941500000000003, 2.166666666666667E-09, 0.0021059166666666674
DataValue, 5, 2.63645E-05, -1.2E-10, -0.4, 0.00043940833333333339, 2E-09, 0.0027144500000000015
DataValue, 5, 3.5451600000000005E-05, -1.2E-10, -0.35000000000000003, 0.00059086000000000013, 2E-09, 0.0034165166666666677
DataValue, 5, 4.68636E-05, -1.2E-10, -0.30000000000000004, 0.00078106000000000009, 2E-09, 0.0042844999999999975
DataValue, 5, 6.11586E-05, -1.3000000000000002E-10, -0.25, 0.00101931, 2.166666666666667E-09, 0.0052735833333333306
DataValue, 5, 7.85051E-05, -1.2E-10, -0.2, 0.0013084183333333334, 2E-09, 0.0063888833333333372
DataValue, 5, 9.9491900000000009E-05, -1.2E-10, -0.15000000000000002, 0.0016581983333333336, 2E-09, 0.0077008166666666707
DataValue, 5, 0.00012471000000000002, -1.2E-10, -0.1, 0.0020785000000000005, 2E-09, 0.0090751833333333285
DataValue, 5, 0.000153943, -1.2E-10, -0.05, 0.0025657166666666668, 2E-09, 0.010623500000000001
DataValue, 5, 0.00018845100000000002, -1.2E-10, 0, 0.0031408500000000006, 2E-09, 0.012298500000000006
DataValue, 5, 0.00022773400000000003, -1.2E-10, 0.05, 0.0037955666666666674, 2E-09, 0.014020833333333333
DataValue, 5, 0.000272576, -1.1000000000000001E-10, 0.1, 0.0045429333333333339, 1.8333333333333336E-09, 0.015761333333333325
