
SetupTitle, HEMT_transfer
PrimitiveTest, I/V Sweep
TestParameter, Context.MainFrame, B1500A
TestParameter, Channel.UnitType, SMU, SMU, SMU
TestParameter, Channel.Unit, SMU1:MP, SMU2:MC, GNDU:GND
TestParameter, Channel.IName, Id, Ig, Is
TestParameter, Channel.VName, Vd, Vg, Vs
TestParameter, Channel.Mode, V, V, COMMON
TestParameter, Channel.Func, CONST, VAR1, CONST
TestParameter, Channel.Index, 
TestParameter, Channel.Time, 
TestParameter, Measurement.Port.Unit, SMU1:MP, SMU2:MC, GNDU:GND
TestParameter, Measurement.Port.SeriesResistor, NONE, NONE, NONE
TestParameter, Measurement.Port.Filter, ON, ON, ON
TestParameter, Measurement.Port.OutputVoltageComparison, 0, 0, 0
TestParameter, Measurement.Primary.Locus, Single
TestParameter, Measurement.Primary.Scale, LINEAR
TestParameter, Measurement.Primary.Start, -5
TestParameter, Measurement.Primary.Stop, 5
TestParameter, Measurement.Primary.Step, 0.05
TestParameter, Measurement.Primary.Compliance, 0.001
TestParameter, Measurement.Primary.PowerCompliance, 0
TestParameter, Measurement.Aborting.Condition, CONTINUE AT ANY
TestParameter, Measurement.PostOutput.Value, START
TestParameter, Measurement.PostOutput.Retention, OFF
TestParameter, Measurement.Bias.Source, 5, -5, 0
TestParameter, Measurement.Bias.Compliance, 0.1, 0.001, 2
TestParameter, Measurement.Monitor.Unit, SMU1:MP, SMU2:MC, GNDU:GND
TestParameter, Measurement.Monitor.Adc, HR ADC, HS ADC, HR ADC
TestParameter, Measurement.Monitor.Measurement, Compliance Side, Force and Compliance Sides, Compliance Side
TestParameter, Measurement.Monitor.RangingMode, LIMITED, LIMITED, LIMITED
TestParameter, Measurement.Monitor.RangeBoundary, 1nA, 10uA, 1nA
TestParameter, Measurement.Monitor.RangeRating, BY FULL RANGE, BY FULL RANGE, BY FULL RANGE
TestParameter, Measurement.Monitor.RangeRatingCoeff, 50, 50, 50
TestParameter, Measurement.Timing.Hold, 0
TestParameter, Measurement.Timing.Delay, 0
TestParameter, Measurement.Adc.HighSpeed.Mode, PLC
TestParameter, Measurement.Adc.HighSpeed.Coeff, 2
TestParameter, Measurement.Adc.HighResolution.AutoZero, OFF
TestParameter, Measurement.Adc.HighResolution.Mode, PLC
TestParameter, Measurement.Adc.HighResolution.Coeff, 2
TestParameter, Measurement.WaitTime.Source.Coeff, 1
TestParameter, Measurement.WaitTime.Source.Offset, 0
TestParameter, Measurement.WaitTime.Monitor.Coeff, 1
TestParameter, Measurement.WaitTime.Monitor.Offset, 0
TestParameter, Function.User.Name, Id_dens, Ig_dens, gm
TestParameter, Function.User.Unit, A/mm, A/mm, S/mm
TestParameter, Function.User.Definition, Id/0.06, abs(Ig)/0.06, diff(Id_dens,Vg)
TestParameter, Output.Graph.Enabled, true
TestParameter, Output.Graph.AutoScaling, false
TestParameter, Output.Graph.XAxis.Data, Vg
TestParameter, Output.Graph.XAxis.Scale, Linear
TestParameter, Output.Graph.XAxis.Left, -2
TestParameter, Output.Graph.XAxis.Right, 10
TestParameter, Output.Graph.XAxis.RunTimeAutoScale, false
TestParameter, Output.Graph.YAxis.Data, Id_dens, Id_dens, gm, Ig_dens
TestParameter, Output.Graph.YAxis.Scale, Log, Linear, Linear, Log
TestParameter, Output.Graph.YAxis.Bottom, 0, 0, 0, 0
TestParameter, Output.Graph.YAxis.Top, 1, 1, 1, 1
TestParameter, Output.Graph.YAxis.Group, , , , 
TestParameter, Output.Graph.YAxis.RunTimeAutoScale, false, false, false, false
TestParameter, Output.List.Data, Vg, Id_dens, Ig_dens, Vd, gm
TestParameter, AutoAnalysis.Interpolation, false
TestParameter, AutoAnalysis.Line1.Enabled, false
TestParameter, AutoAnalysis.Line1.Type, 1
TestParameter, AutoAnalysis.Line1.Fix, True
TestParameter, AutoAnalysis.Line1.YAxis, 0
TestParameter, AutoAnalysis.Line1.Point1.Type, 0
TestParameter, AutoAnalysis.Line1.Point1.XY.X, 
TestParameter, AutoAnalysis.Line1.Point1.XY.Y, 
TestParameter, AutoAnalysis.Line1.Point1.Data.Var, 
TestParameter, AutoAnalysis.Line1.Point1.Data.Condition, 
TestParameter, AutoAnalysis.Line1.Point1.Data.Start, false
TestParameter, AutoAnalysis.Line1.Point1.Data.StartVar, 
TestParameter, AutoAnalysis.Line1.Point1.Data.StartCondition, 
TestParameter, AutoAnalysis.Line1.Point2.Type, 0
TestParameter, AutoAnalysis.Line1.Point2.XY.X, 
TestParameter, AutoAnalysis.Line1.Point2.XY.Y, 
TestParameter, AutoAnalysis.Line1.Point2.Data.Var, 
TestParameter, AutoAnalysis.Line1.Point2.Data.Condition, 
TestParameter, AutoAnalysis.Line1.Point2.Data.Start, false
TestParameter, AutoAnalysis.Line1.Point2.Data.StartVar, 
TestParameter, AutoAnalysis.Line1.Point2.Data.StartCondition, 
TestParameter, AutoAnalysis.Line1.GradientExpr, 0
TestParameter, AutoAnalysis.Line2.Enabled, false
TestParameter, AutoAnalysis.Line2.Type, 1
TestParameter, AutoAnalysis.Line2.Fix, True
TestParameter, AutoAnalysis.Line2.YAxis, 0
TestParameter, AutoAnalysis.Line2.Point1.Type, 0
TestParameter, AutoAnalysis.Line2.Point1.XY.X, 
TestParameter, AutoAnalysis.Line2.Point1.XY.Y, 
TestParameter, AutoAnalysis.Line2.Point1.Data.Var, 
TestParameter, AutoAnalysis.Line2.Point1.Data.Condition, 
TestParameter, AutoAnalysis.Line2.Point1.Data.Start, false
TestParameter, AutoAnalysis.Line2.Point1.Data.StartVar, 
TestParameter, AutoAnalysis.Line2.Point1.Data.StartCondition, 
TestParameter, AutoAnalysis.Line2.Point2.Type, 0
TestParameter, AutoAnalysis.Line2.Point2.XY.X, 
TestParameter, AutoAnalysis.Line2.Point2.XY.Y, 
TestParameter, AutoAnalysis.Line2.Point2.Data.Var, 
TestParameter, AutoAnalysis.Line2.Point2.Data.Condition, 
TestParameter, AutoAnalysis.Line2.Point2.Data.Start, false
TestParameter, AutoAnalysis.Line2.Point2.Data.StartVar, 
TestParameter, AutoAnalysis.Line2.Point2.Data.StartCondition, 
TestParameter, AutoAnalysis.Line2.GradientExpr, 0
TestParameter, AutoAnalysis.Marker.Enabled, false
TestParameter, AutoAnalysis.Marker.Data.Var, 
TestParameter, AutoAnalysis.Marker.Data.Condition, 
TestParameter, AutoAnalysis.Marker.Data.Start, false
TestParameter, AutoAnalysis.Marker.Data.StartVar, 
TestParameter, AutoAnalysis.Marker.Data.StartCondition, 
MetaData, TestRecord.EntryPoint, true
MetaData, TestRecord.RecordTime, 08/16/2019 12:23:58
MetaData, TestRecord.TestTarget, 
MetaData, TestRecord.IterationIndex, 1
MetaData, TestRecord.Preservation, true
MetaData, TestRecord.Flag, #
MetaData, TestRecord.Remarks, #089_LPCVD_trigate_die3_r1c3_W200
MetaData, TestRecord.LinkKey, bb25154a-0db6-49cb-be44-8f99eeef2f8d
Dimension1, 201, 201, 201, 201, 201, 201, 201
Dimension2, 1, 1, 1, 1, 1, 1, 1
DataName, Vd, Id, Ig, Vg, Id_dens, Ig_dens, gm
DataValue, 5, 6.2650000000000005E-12, -2.3000000000000003E-10, -5, 1.0441666666666668E-10, 3.8333333333333337E-09, -3.730000000000015E-10
DataValue, 5, 5.146E-12, -1.8000000000000003E-10, -4.95, 8.5766666666666673E-11, 3.0000000000000004E-09, -2.5433333333333416E-10
DataValue, 5, 4.7390000000000007E-12, -1.8000000000000003E-10, -4.9, 7.8983333333333353E-11, 3.0000000000000004E-09, -1.470000000000005E-10
DataValue, 5, 4.2640000000000004E-12, -1.8000000000000003E-10, -4.8500000000000005, 7.1066666666666675E-11, 3.0000000000000004E-09, -1.3966666666666722E-10
DataValue, 5, 3.9010000000000004E-12, -1.8000000000000003E-10, -4.8000000000000007, 6.501666666666668E-11, 3.0000000000000004E-09, -1.6766666666666583E-10
DataValue, 5, 3.258E-12, -1.8000000000000003E-10, -4.75, 5.43E-11, 3.0000000000000004E-09, -1.31166666666666E-10
DataValue, 5, 3.1140000000000003E-12, -1.8000000000000003E-10, -4.7, 5.1900000000000009E-11, 3.0000000000000004E-09, -4.0500000000000093E-11
DataValue, 5, 3.0150000000000004E-12, -1.8000000000000003E-10, -4.65, 5.0250000000000007E-11, 3.0000000000000004E-09, 5.4999999999999616E-12
DataValue, 5, 3.1470000000000002E-12, -1.7E-10, -4.6000000000000005, 5.2450000000000004E-11, 2.8333333333333335E-09, -2.3500000000000119E-11
DataValue, 5, 2.874E-12, -1.8000000000000003E-10, -4.5500000000000007, 4.7900000000000004E-11, 3.0000000000000004E-09, -7.4666666666666293E-11
DataValue, 5, 2.699E-12, -1.7E-10, -4.5, 4.4983333333333334E-11, 2.8333333333333335E-09, -4.3666666666666451E-11
DataValue, 5, 2.612E-12, -1.8000000000000003E-10, -4.45, 4.3533333333333336E-11, 3.0000000000000004E-09, -7.9999999999999627E-12
DataValue, 5, 2.6510000000000003E-12, -1.7E-10, -4.4, 4.4183333333333341E-11, 2.8333333333333335E-09, -1.216666666666663E-11
DataValue, 5, 2.5390000000000004E-12, -1.7E-10, -4.3500000000000005, 4.2316666666666677E-11, 2.8333333333333335E-09, -3.6666666666666863E-11
DataValue, 5, 2.431E-12, -1.8000000000000003E-10, -4.3000000000000007, 4.0516666666666668E-11, 3.0000000000000004E-09, -2.5833333333333234E-11
DataValue, 5, 2.3840000000000003E-12, -1.7E-10, -4.25, 3.973333333333334E-11, 2.8333333333333335E-09, -2.7666666666666474E-11
DataValue, 5, 2.265E-12, -1.7E-10, -4.2, 3.7750000000000005E-11, 2.8333333333333335E-09, -1.7000000000000106E-11
DataValue, 5, 2.282E-12, -1.6000000000000002E-10, -4.15, 3.8033333333333335E-11, 2.666666666666667E-09, 7.5E-12
DataValue, 5, 2.31E-12, -1.7E-10, -4.1000000000000005, 3.85E-11, 2.8333333333333335E-09, -4.5166666666666789E-11
DataValue, 5, 2.0110000000000002E-12, -1.6000000000000002E-10, -4.0500000000000007, 3.3516666666666672E-11, 2.666666666666667E-09, -5.9999999999999728E-11
DataValue, 5, 1.95E-12, -1.6000000000000002E-10, -4, 3.25E-11, 2.666666666666667E-09, -2.4999999999999846E-11
DataValue, 5, 1.8610000000000002E-12, -1.6000000000000002E-10, -3.95, 3.1016666666666675E-11, 2.666666666666667E-09, 5.4666666666666956E-11
DataValue, 5, 2.278E-12, -1.6000000000000002E-10, -3.9000000000000004, 3.7966666666666674E-11, 2.666666666666667E-09, 4.133333333333343E-11
DataValue, 5, 2.109E-12, -1.5000000000000003E-10, -3.8500000000000005, 3.515E-11, 2.5000000000000005E-09, -3.083333333333333E-11
DataValue, 5, 2.093E-12, -1.5000000000000003E-10, -3.8000000000000003, 3.4883333333333338E-11, 2.5000000000000005E-09, -3.1166666666666637E-11
DataValue, 5, 1.922E-12, -1.5000000000000003E-10, -3.7500000000000004, 3.2033333333333336E-11, 2.5000000000000005E-09, -3.8333333333333427E-12
DataValue, 5, 2.0700000000000003E-12, -1.6000000000000002E-10, -3.7, 3.4500000000000004E-11, 2.666666666666667E-09, 1.4166666666666669E-11
DataValue, 5, 2.0070000000000002E-12, -1.5000000000000003E-10, -3.6500000000000004, 3.3450000000000005E-11, 2.5000000000000005E-09, -3.11666666666667E-11
DataValue, 5, 1.883E-12, -1.5000000000000003E-10, -3.6, 3.1383333333333331E-11, 2.5000000000000005E-09, -5.6999999999999984E-11
DataValue, 5, 1.665E-12, -1.5000000000000003E-10, -3.5500000000000003, 2.775E-11, 2.5000000000000005E-09, -1.166666666666641E-12
DataValue, 5, 1.876E-12, -1.4E-10, -3.5000000000000004, 3.1266666666666667E-11, 2.3333333333333335E-09, 2.9666666666666693E-11
DataValue, 5, 1.843E-12, -1.4E-10, -3.45, 3.0716666666666673E-11, 2.3333333333333335E-09, 1.8500000000000036E-11
DataValue, 5, 1.9870000000000003E-12, -1.4E-10, -3.4000000000000004, 3.3116666666666673E-11, 2.3333333333333335E-09, -1.666666666666669E-11
DataValue, 5, 1.7430000000000002E-12, -1.4E-10, -3.35, 2.9050000000000002E-11, 2.3333333333333335E-09, -5.2166666666666661E-11
DataValue, 5, 1.6740000000000001E-12, -1.4E-10, -3.3000000000000003, 2.7900000000000002E-11, 2.3333333333333335E-09, 1.8833333333333394E-11
DataValue, 5, 1.856E-12, -1.4E-10, -3.2500000000000004, 3.0933333333333335E-11, 2.3333333333333335E-09, 2.4499999999999996E-11
DataValue, 5, 1.821E-12, -1.3000000000000002E-10, -3.2, 3.0350000000000004E-11, 2.166666666666667E-09, 8.3333333333333611E-12
DataValue, 5, 1.906E-12, -1.4E-10, -3.1500000000000004, 3.1766666666666672E-11, 2.3333333333333335E-09, -2.3166666666666645E-11
DataValue, 5, 1.6820000000000001E-12, -1.4E-10, -3.1, 2.8033333333333337E-11, 2.3333333333333335E-09, -4.1999999999999952E-11
DataValue, 5, 1.6540000000000002E-12, -1.4E-10, -3.0500000000000003, 2.7566666666666673E-11, 2.3333333333333335E-09, 1.0333333333333341E-11
DataValue, 5, 1.744E-12, -1.3000000000000002E-10, -3.0000000000000004, 2.9066666666666668E-11, 2.166666666666667E-09, 1.0499999999999948E-11
DataValue, 5, 1.717E-12, -1.3000000000000002E-10, -2.95, 2.8616666666666669E-11, 2.166666666666667E-09, -2.9833333333333282E-11
DataValue, 5, 1.565E-12, -1.4E-10, -2.9000000000000004, 2.6083333333333337E-11, 2.3333333333333335E-09, -3.6666666666666572E-12
DataValue, 5, 1.6950000000000002E-12, -1.3000000000000002E-10, -2.85, 2.8250000000000003E-11, 2.166666666666667E-09, 2.2666666666666653E-11
DataValue, 5, 1.7010000000000001E-12, -1.4E-10, -2.8000000000000003, 2.8350000000000004E-11, 2.3333333333333335E-09, 3.0333333333333474E-11
DataValue, 5, 1.877E-12, -1.3000000000000002E-10, -2.7500000000000004, 3.1283333333333339E-11, 2.166666666666667E-09, 1.6999999999999964E-11
DataValue, 5, 1.803E-12, -1.3000000000000002E-10, -2.7, 3.005E-11, 2.166666666666667E-09, 9.9499999999999863E-11
DataValue, 5, 2.474E-12, -1.3000000000000002E-10, -2.6500000000000004, 4.1233333333333334E-11, 2.166666666666667E-09, 8.5649999999999947E-10
DataValue, 5, 6.9420000000000009E-12, -1.3000000000000002E-10, -2.6, 1.1570000000000002E-10, 2.166666666666667E-09, 5.6939999999999954E-09
DataValue, 5, 3.6638000000000004E-11, -1.3000000000000002E-10, -2.5500000000000003, 6.1063333333333339E-10, 2.166666666666667E-09, 3.8533333333333308E-08
DataValue, 5, 2.3814200000000003E-10, -1.4E-10, -2.5, 3.9690333333333344E-09, 2.3333333333333335E-09, 2.3685199999999982E-07
DataValue, 5, 1.45775E-09, -1.3000000000000002E-10, -2.45, 2.4295833333333337E-08, 2.166666666666667E-09, 1.2891380000000045E-06
DataValue, 5, 7.97297E-09, -1.3000000000000002E-10, -2.4000000000000004, 1.3288283333333334E-07, 2.166666666666667E-09, 7.335624999999993E-06
DataValue, 5, 4.54715E-08, -1.3000000000000002E-10, -2.35, 7.5785833333333333E-07, 2.166666666666667E-09, 3.3927504999999977E-05
DataValue, 5, 2.11538E-07, -1.3000000000000002E-10, -2.3000000000000003, 3.5256333333333336E-06, 2.166666666666667E-09, 0.00012970841666666656
DataValue, 5, 8.23722E-07, -1.3000000000000002E-10, -2.25, 1.3728700000000001E-05, 2.166666666666667E-09, 0.00042571699999999966
DataValue, 5, 2.76584E-06, -1.3000000000000002E-10, -2.2, 4.6097333333333337E-05, 2.166666666666667E-09, 0.0011057313333333375
DataValue, 5, 7.4581100000000005E-06, -1.2E-10, -2.1500000000000004, 0.00012430183333333336, 2E-09, 0.0024749599999999983
DataValue, 5, 1.76156E-05, -1.3000000000000002E-10, -2.1, 0.00029359333333333335, 2.166666666666667E-09, 0.0047445816666666623
DataValue, 5, 3.59256E-05, -1.2E-10, -2.0500000000000003, 0.00059876, 2E-09, 0.0079635833333333277
DataValue, 5, 6.53971E-05, -1.2E-10, -2, 0.0010899516666666668, 2E-09, 0.011949933333333324
DataValue, 5, 0.0001076252, -1.2E-10, -1.9500000000000002, 0.0017937533333333335, 2E-09, 0.016844150000000026
DataValue, 5, 0.000166462, -1.2E-10, -1.9000000000000001, 0.0027743666666666671, 2E-09, 0.021378799999999983
DataValue, 5, 0.000235898, -1.3000000000000002E-10, -1.85, 0.0039316333333333335, 2.166666666666667E-09, 0.025723666666666641
DataValue, 5, 0.000320804, -1.2E-10, -1.8, 0.0053467333333333334, 2E-09, 0.030391666666666716
DataValue, 5, 0.000418248, -1.2E-10, -1.7500000000000002, 0.006970800000000001, 2E-09, 0.034513166666666727
DataValue, 5, 0.000527883, -1.2E-10, -1.7000000000000002, 0.0087980500000000017, 2E-09, 0.038499666666666627
DataValue, 5, 0.000649246, -1.2E-10, -1.6500000000000001, 0.010820766666666667, 2E-09, 0.042054833333333291
DataValue, 5, 0.00078021200000000007, -1.1000000000000001E-10, -1.6, 0.013003533333333334, 1.8333333333333336E-09, 0.0455633333333333
DataValue, 5, 0.00092262600000000007, -1.2E-10, -1.55, 0.015377100000000001, 2E-09, 0.048994666666666742
DataValue, 5, 0.00107418, -1.2E-10, -1.5000000000000002, 0.017903000000000002, 2E-09, 0.052480666666666724
DataValue, 5, 0.00123751, -1.1000000000000001E-10, -1.4500000000000002, 0.020625166666666667, 1.8333333333333336E-09, 0.055019999999999951
DataValue, 5, 0.0014043, -1.1000000000000001E-10, -1.4000000000000001, 0.023405000000000002, 1.8333333333333336E-09, 0.05684833333333332
DataValue, 5, 0.0015786, -1.1000000000000001E-10, -1.35, 0.026310000000000004, 1.8333333333333336E-09, 0.0595666666666666
DataValue, 5, 0.0017617, -1.2E-10, -1.3, 0.029361666666666668, 2E-09, 0.06239499999999993
DataValue, 5, 0.00195297, -1.1000000000000001E-10, -1.25, 0.0325495, 1.8333333333333336E-09, 0.064563333333333431
DataValue, 5, 0.0021490800000000003, -1.1000000000000001E-10, -1.2000000000000002, 0.035818, 1.8333333333333336E-09, 0.0667666666666668
DataValue, 5, 0.00235357, -1.1000000000000001E-10, -1.1500000000000001, 0.039226166666666673, 1.8333333333333336E-09, 0.0685699999999999
DataValue, 5, 0.0025605, -1.1000000000000001E-10, -1.1, 0.042675, 1.8333333333333336E-09, 0.070143333333333252
DataValue, 5, 0.00277443, -1.1000000000000001E-10, -1.05, 0.046240500000000004, 1.8333333333333336E-09, 0.072088333333333379
DataValue, 5, 0.0029930300000000003, -1.0000000000000002E-10, -1, 0.049883833333333343, 1.6666666666666669E-09, 0.074068333333333361
DataValue, 5, 0.00321884, -1.1000000000000001E-10, -0.95000000000000007, 0.053647333333333339, 1.8333333333333336E-09, 0.075691666666666629
DataValue, 5, 0.00344718, -1.0000000000000002E-10, -0.9, 0.057453000000000004, 1.6666666666666669E-09, 0.0768066666666667
DataValue, 5, 0.0036796800000000003, -1.0000000000000002E-10, -0.85000000000000009, 0.061328000000000008, 1.6666666666666669E-09, 0.0783500000000001
DataValue, 5, 0.00391728, -1.0000000000000002E-10, -0.8, 0.065288000000000013, 1.6666666666666669E-09, 0.07978
DataValue, 5, 0.00415836, -1.0000000000000002E-10, -0.75000000000000011, 0.069306, 1.6666666666666669E-09, 0.081048333333333264
DataValue, 5, 0.00440357, -1.0000000000000002E-10, -0.70000000000000007, 0.073392833333333338, 1.6666666666666669E-09, 0.082206666666666608
DataValue, 5, 0.0046516000000000005, -1.1000000000000001E-10, -0.65, 0.077526666666666674, 1.8333333333333336E-09, 0.083171666666666685
DataValue, 5, 0.0049026, -1.1000000000000001E-10, -0.60000000000000009, 0.08171, 1.8333333333333336E-09, 0.084230000000000013
DataValue, 5, 0.00515698, -1.0000000000000002E-10, -0.55, 0.085949666666666674, 1.6666666666666669E-09, 0.085353333333333323
DataValue, 5, 0.0054147200000000005, -1.0000000000000002E-10, -0.5, 0.090245333333333344, 1.6666666666666669E-09, 0.086169999999999969
DataValue, 5, 0.005674, -1.0000000000000002E-10, -0.45, 0.094566666666666674, 1.6666666666666669E-09, 0.08701166666666664
DataValue, 5, 0.00593679, -1.0000000000000002E-10, -0.4, 0.0989465, 1.6666666666666669E-09, 0.087876666666666672
DataValue, 5, 0.00620126, -1.0000000000000002E-10, -0.35000000000000003, 0.10335433333333334, 1.6666666666666669E-09, 0.088686666666666789
DataValue, 5, 0.0064689100000000005, -1.0000000000000002E-10, -0.30000000000000004, 0.10781516666666668, 1.6666666666666669E-09, 0.089695000000000025
DataValue, 5, 0.00673943, -1.0000000000000002E-10, -0.25, 0.11232383333333335, 1.6666666666666669E-09, 0.090524999999999883
DataValue, 5, 0.0070120600000000005, -1.0000000000000002E-10, -0.2, 0.11686766666666668, 1.6666666666666669E-09, 0.091323333333333409
DataValue, 5, 0.0072873700000000005, -1.0000000000000002E-10, -0.15000000000000002, 0.12145616666666668, 1.6666666666666669E-09, 0.092386666666666728
DataValue, 5, 0.00756638, -1.0000000000000002E-10, -0.1, 0.12610633333333335, 1.6666666666666669E-09, 0.093151666666666647
DataValue, 5, 0.00784628, -1.0000000000000002E-10, -0.05, 0.13077133333333335, 1.6666666666666669E-09, 0.093624999999999958
DataValue, 5, 0.00812813, -9.0000000000000012E-11, 0, 0.13546883333333334, 1.5000000000000002E-09, 0.094271666666666532
DataValue, 5, 0.00841191, -9.0000000000000012E-11, 0.05, 0.1401985, 1.5000000000000002E-09, 0.094950000000000034
DataValue, 5, 0.00869783, -1.0000000000000002E-10, 0.1, 0.14496383333333335, 1.6666666666666669E-09, 0.0956800000000002
DataValue, 5, 0.008985990000000001, -1.0000000000000002E-10, 0.15000000000000002, 0.14976650000000003, 1.6666666666666669E-09, 0.096408333333333207
DataValue, 5, 0.00927628, -9.0000000000000012E-11, 0.2, 0.15460466666666667, 1.5000000000000002E-09, 0.096951666666666464
