
SetupTitle, HEMT_transfer
PrimitiveTest, I/V Sweep
TestParameter, Context.MainFrame, B1500A
TestParameter, Channel.UnitType, SMU, SMU, SMU
TestParameter, Channel.Unit, SMU1:MP, SMU2:MC, GNDU:GND
TestParameter, Channel.IName, Id, Ig, Is
TestParameter, Channel.VName, Vd, Vg, Vs
TestParameter, Channel.Mode, V, V, COMMON
TestParameter, Channel.Func, CONST, VAR1, CONST
TestParameter, Channel.Index, 
TestParameter, Channel.Time, 
TestParameter, Measurement.Port.Unit, SMU1:MP, SMU2:MC, GNDU:GND
TestParameter, Measurement.Port.SeriesResistor, NONE, NONE, NONE
TestParameter, Measurement.Port.Filter, ON, ON, ON
TestParameter, Measurement.Port.OutputVoltageComparison, 0, 0, 0
TestParameter, Measurement.Primary.Locus, Single
TestParameter, Measurement.Primary.Scale, LINEAR
TestParameter, Measurement.Primary.Start, -5
TestParameter, Measurement.Primary.Stop, 5
TestParameter, Measurement.Primary.Step, 0.05
TestParameter, Measurement.Primary.Compliance, 0.001
TestParameter, Measurement.Primary.PowerCompliance, 0
TestParameter, Measurement.Aborting.Condition, CONTINUE AT ANY
TestParameter, Measurement.PostOutput.Value, START
TestParameter, Measurement.PostOutput.Retention, OFF
TestParameter, Measurement.Bias.Source, 5, -5, 0
TestParameter, Measurement.Bias.Compliance, 0.1, 0.001, 2
TestParameter, Measurement.Monitor.Unit, SMU1:MP, SMU2:MC, GNDU:GND
TestParameter, Measurement.Monitor.Adc, HR ADC, HS ADC, HR ADC
TestParameter, Measurement.Monitor.Measurement, Compliance Side, Force and Compliance Sides, Compliance Side
TestParameter, Measurement.Monitor.RangingMode, LIMITED, LIMITED, LIMITED
TestParameter, Measurement.Monitor.RangeBoundary, 1nA, 10uA, 1nA
TestParameter, Measurement.Monitor.RangeRating, BY FULL RANGE, BY FULL RANGE, BY FULL RANGE
TestParameter, Measurement.Monitor.RangeRatingCoeff, 50, 50, 50
TestParameter, Measurement.Timing.Hold, 0
TestParameter, Measurement.Timing.Delay, 0
TestParameter, Measurement.Adc.HighSpeed.Mode, PLC
TestParameter, Measurement.Adc.HighSpeed.Coeff, 2
TestParameter, Measurement.Adc.HighResolution.AutoZero, OFF
TestParameter, Measurement.Adc.HighResolution.Mode, PLC
TestParameter, Measurement.Adc.HighResolution.Coeff, 2
TestParameter, Measurement.WaitTime.Source.Coeff, 1
TestParameter, Measurement.WaitTime.Source.Offset, 0
TestParameter, Measurement.WaitTime.Monitor.Coeff, 1
TestParameter, Measurement.WaitTime.Monitor.Offset, 0
TestParameter, Function.User.Name, Id_dens, Ig_dens, gm
TestParameter, Function.User.Unit, A/mm, A/mm, S/mm
TestParameter, Function.User.Definition, Id/0.06, abs(Ig)/0.06, diff(Id_dens,Vg)
TestParameter, Output.Graph.Enabled, true
TestParameter, Output.Graph.AutoScaling, false
TestParameter, Output.Graph.XAxis.Data, Vg
TestParameter, Output.Graph.XAxis.Scale, Linear
TestParameter, Output.Graph.XAxis.Left, -2
TestParameter, Output.Graph.XAxis.Right, 10
TestParameter, Output.Graph.XAxis.RunTimeAutoScale, false
TestParameter, Output.Graph.YAxis.Data, Id_dens, Id_dens, gm, Ig_dens
TestParameter, Output.Graph.YAxis.Scale, Log, Linear, Linear, Log
TestParameter, Output.Graph.YAxis.Bottom, 0, 0, 0, 0
TestParameter, Output.Graph.YAxis.Top, 1, 1, 1, 1
TestParameter, Output.Graph.YAxis.Group, , , , 
TestParameter, Output.Graph.YAxis.RunTimeAutoScale, false, false, false, false
TestParameter, Output.List.Data, Vg, Id_dens, Ig_dens, Vd, gm
TestParameter, AutoAnalysis.Interpolation, false
TestParameter, AutoAnalysis.Line1.Enabled, false
TestParameter, AutoAnalysis.Line1.Type, 1
TestParameter, AutoAnalysis.Line1.Fix, True
TestParameter, AutoAnalysis.Line1.YAxis, 0
TestParameter, AutoAnalysis.Line1.Point1.Type, 0
TestParameter, AutoAnalysis.Line1.Point1.XY.X, 
TestParameter, AutoAnalysis.Line1.Point1.XY.Y, 
TestParameter, AutoAnalysis.Line1.Point1.Data.Var, 
TestParameter, AutoAnalysis.Line1.Point1.Data.Condition, 
TestParameter, AutoAnalysis.Line1.Point1.Data.Start, false
TestParameter, AutoAnalysis.Line1.Point1.Data.StartVar, 
TestParameter, AutoAnalysis.Line1.Point1.Data.StartCondition, 
TestParameter, AutoAnalysis.Line1.Point2.Type, 0
TestParameter, AutoAnalysis.Line1.Point2.XY.X, 
TestParameter, AutoAnalysis.Line1.Point2.XY.Y, 
TestParameter, AutoAnalysis.Line1.Point2.Data.Var, 
TestParameter, AutoAnalysis.Line1.Point2.Data.Condition, 
TestParameter, AutoAnalysis.Line1.Point2.Data.Start, false
TestParameter, AutoAnalysis.Line1.Point2.Data.StartVar, 
TestParameter, AutoAnalysis.Line1.Point2.Data.StartCondition, 
TestParameter, AutoAnalysis.Line1.GradientExpr, 0
TestParameter, AutoAnalysis.Line2.Enabled, false
TestParameter, AutoAnalysis.Line2.Type, 1
TestParameter, AutoAnalysis.Line2.Fix, True
TestParameter, AutoAnalysis.Line2.YAxis, 0
TestParameter, AutoAnalysis.Line2.Point1.Type, 0
TestParameter, AutoAnalysis.Line2.Point1.XY.X, 
TestParameter, AutoAnalysis.Line2.Point1.XY.Y, 
TestParameter, AutoAnalysis.Line2.Point1.Data.Var, 
TestParameter, AutoAnalysis.Line2.Point1.Data.Condition, 
TestParameter, AutoAnalysis.Line2.Point1.Data.Start, false
TestParameter, AutoAnalysis.Line2.Point1.Data.StartVar, 
TestParameter, AutoAnalysis.Line2.Point1.Data.StartCondition, 
TestParameter, AutoAnalysis.Line2.Point2.Type, 0
TestParameter, AutoAnalysis.Line2.Point2.XY.X, 
TestParameter, AutoAnalysis.Line2.Point2.XY.Y, 
TestParameter, AutoAnalysis.Line2.Point2.Data.Var, 
TestParameter, AutoAnalysis.Line2.Point2.Data.Condition, 
TestParameter, AutoAnalysis.Line2.Point2.Data.Start, false
TestParameter, AutoAnalysis.Line2.Point2.Data.StartVar, 
TestParameter, AutoAnalysis.Line2.Point2.Data.StartCondition, 
TestParameter, AutoAnalysis.Line2.GradientExpr, 0
TestParameter, AutoAnalysis.Marker.Enabled, false
TestParameter, AutoAnalysis.Marker.Data.Var, 
TestParameter, AutoAnalysis.Marker.Data.Condition, 
TestParameter, AutoAnalysis.Marker.Data.Start, false
TestParameter, AutoAnalysis.Marker.Data.StartVar, 
TestParameter, AutoAnalysis.Marker.Data.StartCondition, 
MetaData, TestRecord.EntryPoint, true
MetaData, TestRecord.RecordTime, 08/16/2019 12:20:40
MetaData, TestRecord.TestTarget, 
MetaData, TestRecord.IterationIndex, 1
MetaData, TestRecord.Preservation, true
MetaData, TestRecord.Flag, #
MetaData, TestRecord.Remarks, #089_LPCVD_trigate_die3_r1c3_W400
MetaData, TestRecord.LinkKey, 8c2406c6-fa8d-4ac9-aabd-0ea4f9682147
Dimension1, 201, 201, 201, 201, 201, 201, 201
Dimension2, 1, 1, 1, 1, 1, 1, 1
DataName, Vd, Id, Ig, Vg, Id_dens, Ig_dens, gm
DataValue, 5, 6.4620000000000005E-12, -2.3000000000000003E-10, -5, 1.0770000000000001E-10, 3.8333333333333337E-09, -3.5300000000000121E-10
DataValue, 5, 5.403E-12, -1.9000000000000002E-10, -4.95, 9.0050000000000015E-11, 3.1666666666666669E-09, -2.6683333333333432E-10
DataValue, 5, 4.861E-12, -1.7E-10, -4.9, 8.1016666666666676E-11, 2.8333333333333335E-09, -1.8966666666666749E-10
DataValue, 5, 4.265E-12, -1.8000000000000003E-10, -4.8500000000000005, 7.1083333333333333E-11, 3.0000000000000004E-09, -1.5200000000000064E-10
DataValue, 5, 3.949E-12, -1.8000000000000003E-10, -4.8000000000000007, 6.5816666666666667E-11, 3.0000000000000004E-09, -1.3733333333333252E-10
DataValue, 5, 3.4410000000000004E-12, -1.8000000000000003E-10, -4.75, 5.7350000000000007E-11, 3.0000000000000004E-09, -8.4999999999999513E-11
DataValue, 5, 3.439E-12, -1.7E-10, -4.7, 5.731666666666667E-11, 2.8333333333333335E-09, -4.033333333333344E-11
DataValue, 5, 3.1990000000000004E-12, -1.7E-10, -4.65, 5.3316666666666678E-11, 2.8333333333333335E-09, -5.4500000000000174E-11
DataValue, 5, 3.112E-12, -1.7E-10, -4.6000000000000005, 5.1866666666666672E-11, 2.8333333333333335E-09, -1.9333333333333451E-11
DataValue, 5, 3.083E-12, -1.7E-10, -4.5500000000000007, 5.1383333333333339E-11, 2.8333333333333335E-09, -3.1999999999999889E-11
DataValue, 5, 2.92E-12, -1.6000000000000002E-10, -4.5, 4.8666666666666667E-11, 2.666666666666667E-09, -6.5999999999999669E-11
DataValue, 5, 2.687E-12, -1.7E-10, -4.45, 4.4783333333333338E-11, 2.8333333333333335E-09, -3.9500000000000109E-11
DataValue, 5, 2.683E-12, -1.6000000000000002E-10, -4.4, 4.471666666666667E-11, 2.666666666666667E-09, 3.6833333333333452E-11
DataValue, 5, 2.908E-12, -1.6000000000000002E-10, -4.3500000000000005, 4.846666666666667E-11, 2.666666666666667E-09, -2.1500000000000081E-11
DataValue, 5, 2.5540000000000002E-12, -1.6000000000000002E-10, -4.3000000000000007, 4.256666666666667E-11, 2.666666666666667E-09, -6.29999999999996E-11
DataValue, 5, 2.5300000000000003E-12, -1.6000000000000002E-10, -4.25, 4.2166666666666676E-11, 2.666666666666667E-09, -8.9999999999999334E-12
DataValue, 5, 2.5000000000000003E-12, -1.5000000000000003E-10, -4.2, 4.1666666666666671E-11, 2.5000000000000005E-09, -3.2166666666666827E-11
DataValue, 5, 2.3370000000000002E-12, -1.5000000000000003E-10, -4.15, 3.8950000000000005E-11, 2.5000000000000005E-09, -7.6000000000000255E-11
DataValue, 5, 2.044E-12, -1.6000000000000002E-10, -4.1000000000000005, 3.4066666666666673E-11, 2.666666666666667E-09, -1.5166666666666721E-11
DataValue, 5, 2.2460000000000003E-12, -1.6000000000000002E-10, -4.0500000000000007, 3.7433333333333338E-11, 2.666666666666667E-09, 3.466666666666645E-11
DataValue, 5, 2.252E-12, -1.5000000000000003E-10, -4, 3.7533333333333337E-11, 2.5000000000000005E-09, -2.0999999999999866E-11
DataValue, 5, 2.1200000000000003E-12, -1.5000000000000003E-10, -3.95, 3.5333333333333341E-11, 2.5000000000000005E-09, -4.1666666666666668E-12
DataValue, 5, 2.227E-12, -1.5000000000000003E-10, -3.9000000000000004, 3.7116666666666672E-11, 2.5000000000000005E-09, 2.3833333333333426E-11
DataValue, 5, 2.2630000000000004E-12, -1.5000000000000003E-10, -3.8500000000000005, 3.7716666666666675E-11, 2.5000000000000005E-09, -3.1166666666666637E-11
DataValue, 5, 2.04E-12, -1.5000000000000003E-10, -3.8000000000000003, 3.4000000000000005E-11, 2.5000000000000005E-09, -1.5500000000000024E-11
DataValue, 5, 2.1700000000000002E-12, -1.5000000000000003E-10, -3.7500000000000004, 3.6166666666666671E-11, 2.5000000000000005E-09, 6.5666666666666647E-11
DataValue, 5, 2.4340000000000003E-12, -1.5000000000000003E-10, -3.7, 4.0566666666666677E-11, 2.5000000000000005E-09, 4.5649999999999966E-10
DataValue, 5, 4.909E-12, -1.5000000000000003E-10, -3.6500000000000004, 8.1816666666666676E-11, 2.5000000000000005E-09, 3.2014999999999981E-09
DataValue, 5, 2.1643000000000002E-11, -1.5000000000000003E-10, -3.6, 3.6071666666666673E-10, 2.5000000000000005E-09, 1.8817333333333318E-08
DataValue, 5, 1.17813E-10, -1.4E-10, -3.5500000000000003, 1.9635500000000003E-09, 2.3333333333333335E-09, 1.0402283333333369E-07
DataValue, 5, 6.4578E-10, -1.4E-10, -3.5000000000000004, 1.0763E-08, 2.3333333333333335E-09, 6.2138949999999949E-07
DataValue, 5, 3.84615E-09, -1.4E-10, -3.45, 6.41025E-08, 2.3333333333333335E-09, 3.56735333333333E-06
DataValue, 5, 2.2049899999999997E-08, -1.3000000000000002E-10, -3.4000000000000004, 3.6749833333333332E-07, 2.166666666666667E-09, 1.7944641666666652E-05
DataValue, 5, 1.11514E-07, -1.4E-10, -3.35, 1.8585666666666667E-06, 2.3333333333333335E-09, 8.0474349999999932E-05
DataValue, 5, 5.04896E-07, -1.4E-10, -3.3000000000000003, 8.4149333333333348E-06, 2.3333333333333335E-09, 0.00027630433333333435
DataValue, 5, 1.7693400000000002E-06, -1.4E-10, -3.2500000000000004, 2.9489000000000005E-05, 2.3333333333333335E-09, 0.000789090666666666
DataValue, 5, 5.2394400000000004E-06, -1.4E-10, -3.2, 8.7324E-05, 2.3333333333333335E-09, 0.0018705933333333319
DataValue, 5, 1.29929E-05, -1.4E-10, -3.1500000000000004, 0.00021654833333333335, 2.3333333333333335E-09, 0.0036141933333333305
DataValue, 5, 2.69246E-05, -1.3000000000000002E-10, -3.1, 0.00044874333333333336, 2.166666666666667E-09, 0.0060356833333333288
DataValue, 5, 4.9207000000000005E-05, -1.3000000000000002E-10, -3.0500000000000003, 0.00082011666666666682, 2.166666666666667E-09, 0.0090043333333333676
DataValue, 5, 8.09506E-05, -1.4E-10, -3.0000000000000004, 0.0013491766666666669, 2.3333333333333335E-09, 0.012590666666666658
DataValue, 5, 0.000124751, -1.4E-10, -2.95, 0.0020791833333333337, 2.3333333333333335E-09, 0.015975899999999984
DataValue, 5, 0.000176806, -1.3000000000000002E-10, -2.9000000000000004, 0.0029467666666666667, 2.166666666666667E-09, 0.019246833333333317
DataValue, 5, 0.00024023200000000003, -1.4E-10, -2.85, 0.0040038666666666672, 2.3333333333333335E-09, 0.022938499999999983
DataValue, 5, 0.00031443700000000004, -1.3000000000000002E-10, -2.8000000000000003, 0.0052406166666666672, 2.166666666666667E-09, 0.02626266666666676
DataValue, 5, 0.00039780800000000004, -1.2E-10, -2.7500000000000004, 0.0066301333333333339, 2E-09, 0.029312333333333298
DataValue, 5, 0.000490311, -1.3000000000000002E-10, -2.7, 0.00817185, 2.166666666666667E-09, 0.03237566666666665
DataValue, 5, 0.00059206200000000008, -1.2E-10, -2.6500000000000004, 0.0098677000000000018, 2E-09, 0.035430666666666638
DataValue, 5, 0.000702895, -1.2E-10, -2.6, 0.011714916666666667, 2E-09, 0.03805683333333329
DataValue, 5, 0.000820403, -1.2E-10, -2.5500000000000003, 0.013673383333333334, 2E-09, 0.040646333333333291
DataValue, 5, 0.000946773, -1.2E-10, -2.5, 0.01577955, 2E-09, 0.043181333333333308
DataValue, 5, 0.0010794910000000001, -1.2E-10, -2.45, 0.017991516666666669, 2E-09, 0.045861166666666835
DataValue, 5, 0.00122194, -1.2E-10, -2.4000000000000004, 0.020365666666666667, 2E-09, 0.0475548333333333
DataValue, 5, 0.00136482, -1.1000000000000001E-10, -2.35, 0.022747000000000003, 1.8333333333333336E-09, 0.049096666666666622
DataValue, 5, 0.00151652, -1.2E-10, -2.3000000000000003, 0.025275333333333334, 2E-09, 0.051313333333333266
DataValue, 5, 0.0016727, -1.2E-10, -2.25, 0.027878333333333335, 2E-09, 0.053119999999999994
DataValue, 5, 0.0018352400000000001, -1.2E-10, -2.2, 0.030587333333333338, 2E-09, 0.054930000000000208
DataValue, 5, 0.00200228, -1.1000000000000001E-10, -2.1500000000000004, 0.033371333333333336, 1.8333333333333336E-09, 0.056453333333333272
DataValue, 5, 0.00217396, -1.2E-10, -2.1, 0.03623266666666667, 2E-09, 0.05759666666666665
DataValue, 5, 0.0023478600000000002, -1.1000000000000001E-10, -2.0500000000000003, 0.039131000000000006, 1.8333333333333336E-09, 0.059043333333333253
DataValue, 5, 0.00252822, -1.1000000000000001E-10, -2, 0.042137, 1.8333333333333336E-09, 0.06058666666666658
DataValue, 5, 0.00271138, -1.2E-10, -1.9500000000000002, 0.04518966666666667, 2E-09, 0.061781666666666804
DataValue, 5, 0.00289891, -1.2E-10, -1.9000000000000001, 0.048315166666666673, 2E-09, 0.062843333333333237
DataValue, 5, 0.00308844, -1.1000000000000001E-10, -1.85, 0.051474, 1.8333333333333336E-09, 0.063769999999999882
DataValue, 5, 0.00328153, -1.1000000000000001E-10, -1.8, 0.054692166666666667, 1.8333333333333336E-09, 0.065180000000000182
DataValue, 5, 0.0034795200000000003, -1.1000000000000001E-10, -1.7500000000000002, 0.057992000000000009, 1.8333333333333336E-09, 0.065945000000000115
DataValue, 5, 0.0036772000000000003, -1.2E-10, -1.7000000000000002, 0.06128666666666667, 2E-09, 0.0668149999999998
DataValue, 5, 0.00388041, -1.0000000000000002E-10, -1.6500000000000001, 0.0646735, 1.6666666666666669E-09, 0.068009999999999959
DataValue, 5, 0.00408526, -1.1000000000000001E-10, -1.6, 0.068087666666666671, 1.8333333333333336E-09, 0.068694999999999951
DataValue, 5, 0.00429258, -1.1000000000000001E-10, -1.55, 0.071543, 1.8333333333333336E-09, 0.069608333333333425
DataValue, 5, 0.00450291, -1.2E-10, -1.5000000000000002, 0.0750485, 2E-09, 0.070470000000000074
DataValue, 5, 0.0047154, -1.1000000000000001E-10, -1.4500000000000002, 0.07859, 1.8333333333333336E-09, 0.070921666666666563
DataValue, 5, 0.00492844, -1.1000000000000001E-10, -1.4000000000000001, 0.082140666666666667, 1.8333333333333336E-09, 0.0716300000000001
DataValue, 5, 0.00514518, -1.2E-10, -1.35, 0.08575300000000001, 2E-09, 0.072596666666666573
DataValue, 5, 0.00536402, -1.1000000000000001E-10, -1.3, 0.089400333333333332, 1.8333333333333336E-09, 0.073001666666666562
DataValue, 5, 0.00558319, -1.1000000000000001E-10, -1.25, 0.093053166666666673, 1.8333333333333336E-09, 0.073378333333333448
DataValue, 5, 0.00580429, -1.1000000000000001E-10, -1.2000000000000002, 0.096738166666666667, 1.8333333333333336E-09, 0.074151666666666768
DataValue, 5, 0.0060281, -1.0000000000000002E-10, -1.1500000000000001, 0.10046833333333334, 1.6666666666666669E-09, 0.074736666666666632
DataValue, 5, 0.00625271, -1.0000000000000002E-10, -1.1, 0.10421183333333334, 1.6666666666666669E-09, 0.0750399999999999
DataValue, 5, 0.00647834, -1.0000000000000002E-10, -1.05, 0.10797233333333334, 1.6666666666666669E-09, 0.075658333333333341
DataValue, 5, 0.0067066600000000006, -1.1000000000000001E-10, -1, 0.11177766666666668, 1.8333333333333336E-09, 0.076036666666666766
DataValue, 5, 0.00693456, -1.1000000000000001E-10, -0.95000000000000007, 0.11557600000000001, 1.8333333333333336E-09, 0.0761933333333334
DataValue, 5, 0.00716382, -1.1000000000000001E-10, -0.9, 0.11939700000000002, 1.8333333333333336E-09, 0.076863333333333381
DataValue, 5, 0.0073957400000000005, -1.0000000000000002E-10, -0.85000000000000009, 0.12326233333333335, 1.6666666666666669E-09, 0.077568333333333114
DataValue, 5, 0.00762923, -1.0000000000000002E-10, -0.8, 0.12715383333333333, 1.6666666666666669E-09, 0.0776600000000001
DataValue, 5, 0.007861700000000001, -1.0000000000000002E-10, -0.75000000000000011, 0.13102833333333336, 1.6666666666666669E-09, 0.077698333333333661
DataValue, 5, 0.00809542, -1.0000000000000002E-10, -0.70000000000000007, 0.13492366666666669, 1.6666666666666669E-09, 0.078243333333333151
DataValue, 5, 0.00833116, -1.0000000000000002E-10, -0.65, 0.13885266666666668, 1.6666666666666669E-09, 0.078566666666666521
DataValue, 5, 0.008566820000000001, -1.0000000000000002E-10, -0.60000000000000009, 0.14278033333333334, 1.6666666666666669E-09, 0.07839833333333325
DataValue, 5, 0.00880155, -9.0000000000000012E-11, -0.55, 0.1466925, 1.5000000000000002E-09, 0.0788266666666667
DataValue, 5, 0.00903978, -9.0000000000000012E-11, -0.5, 0.15066300000000002, 1.5000000000000002E-09, 0.079259999999999858
DataValue, 5, 0.00927711, -1.0000000000000002E-10, -0.45, 0.1546185, 1.6666666666666669E-09, 0.079265000000000044
DataValue, 5, 0.00951537, -9.0000000000000012E-11, -0.4, 0.15858950000000002, 1.5000000000000002E-09, 0.079754999999999979
DataValue, 5, 0.00975564, -1.0000000000000002E-10, -0.35000000000000003, 0.162594, 1.6666666666666669E-09, 0.079699999999999785
DataValue, 5, 0.00999357, -1.0000000000000002E-10, -0.30000000000000004, 0.1665595, 1.6666666666666669E-09, 0.079223333333333618
DataValue, 5, 0.01023098, -1.0000000000000002E-10, -0.25, 0.17051633333333335, 1.6666666666666669E-09, 0.079268333333333246
DataValue, 5, 0.01046918, -9.0000000000000012E-11, -0.2, 0.17448633333333333, 1.5000000000000002E-09, 0.079593333333333474
DataValue, 5, 0.01070854, -1.0000000000000002E-10, -0.15000000000000002, 0.1784756666666667, 1.6666666666666669E-09, 0.080001666666666971
DataValue, 5, 0.010949190000000001, -1.0000000000000002E-10, -0.1, 0.18248650000000002, 1.6666666666666669E-09, 0.080124999999999766
DataValue, 5, 0.011189290000000001, -1.0000000000000002E-10, -0.05, 0.18648816666666668, 1.6666666666666669E-09, 0.079738333333333189
DataValue, 5, 0.01142762, -1.0000000000000002E-10, 0, 0.19046033333333334, 1.6666666666666669E-09, 0.082235000000000225
DataValue, 5, 0.0116827, -1.0000000000000002E-10, 0.05, 0.1947116666666667, 1.6666666666666669E-09, 0.08166333333333331
DataValue, 5, 0.0119176, -9.0000000000000012E-11, 0.1, 0.19862666666666667, 1.5000000000000002E-09, 0.07855
DataValue, 5, 0.012154000000000002, -9.0000000000000012E-11, 0.15000000000000002, 0.2025666666666667, 1.5000000000000002E-09, 0.07843333333333341
DataValue, 5, 0.0123882, -9.0000000000000012E-11, 0.2, 0.20647000000000002, 1.5000000000000002E-09, 0.077883333333333429
DataValue, 5, 0.012621300000000002, -9.0000000000000012E-11, 0.25, 0.21035500000000004, 1.5000000000000002E-09, 0.077333333333333393
DataValue, 5, 0.012852200000000001, -1.0000000000000002E-10, 0.30000000000000004, 0.21420333333333336, 1.6666666666666669E-09, 0.076316666666666449
