
SetupTitle, HEMT_transfer
PrimitiveTest, I/V Sweep
TestParameter, Context.MainFrame, B1500A
TestParameter, Channel.UnitType, SMU, SMU, SMU
TestParameter, Channel.Unit, SMU1:MP, SMU2:MC, GNDU:GND
TestParameter, Channel.IName, Id, Ig, Is
TestParameter, Channel.VName, Vd, Vg, Vs
TestParameter, Channel.Mode, V, V, COMMON
TestParameter, Channel.Func, CONST, VAR1, CONST
TestParameter, Channel.Index, 
TestParameter, Channel.Time, 
TestParameter, Measurement.Port.Unit, SMU1:MP, SMU2:MC, GNDU:GND
TestParameter, Measurement.Port.SeriesResistor, NONE, NONE, NONE
TestParameter, Measurement.Port.Filter, ON, ON, ON
TestParameter, Measurement.Port.OutputVoltageComparison, 0, 0, 0
TestParameter, Measurement.Primary.Locus, Single
TestParameter, Measurement.Primary.Scale, LINEAR
TestParameter, Measurement.Primary.Start, -8
TestParameter, Measurement.Primary.Stop, 5
TestParameter, Measurement.Primary.Step, 0.065
TestParameter, Measurement.Primary.Compliance, 0.001
TestParameter, Measurement.Primary.PowerCompliance, 0
TestParameter, Measurement.Aborting.Condition, CONTINUE AT ANY
TestParameter, Measurement.PostOutput.Value, START
TestParameter, Measurement.PostOutput.Retention, OFF
TestParameter, Measurement.Bias.Source, 5, -8, 0
TestParameter, Measurement.Bias.Compliance, 0.1, 0.001, 2
TestParameter, Measurement.Monitor.Unit, SMU1:MP, SMU2:MC, GNDU:GND
TestParameter, Measurement.Monitor.Adc, HR ADC, HS ADC, HR ADC
TestParameter, Measurement.Monitor.Measurement, Compliance Side, Force and Compliance Sides, Compliance Side
TestParameter, Measurement.Monitor.RangingMode, LIMITED, LIMITED, LIMITED
TestParameter, Measurement.Monitor.RangeBoundary, 1nA, 10uA, 1nA
TestParameter, Measurement.Monitor.RangeRating, BY FULL RANGE, BY FULL RANGE, BY FULL RANGE
TestParameter, Measurement.Monitor.RangeRatingCoeff, 50, 50, 50
TestParameter, Measurement.Timing.Hold, 0
TestParameter, Measurement.Timing.Delay, 0
TestParameter, Measurement.Adc.HighSpeed.Mode, PLC
TestParameter, Measurement.Adc.HighSpeed.Coeff, 2
TestParameter, Measurement.Adc.HighResolution.AutoZero, OFF
TestParameter, Measurement.Adc.HighResolution.Mode, PLC
TestParameter, Measurement.Adc.HighResolution.Coeff, 2
TestParameter, Measurement.WaitTime.Source.Coeff, 1
TestParameter, Measurement.WaitTime.Source.Offset, 0
TestParameter, Measurement.WaitTime.Monitor.Coeff, 1
TestParameter, Measurement.WaitTime.Monitor.Offset, 0
TestParameter, Function.User.Name, Id_dens, Ig_dens, gm
TestParameter, Function.User.Unit, A/mm, A/mm, S/mm
TestParameter, Function.User.Definition, Id/0.06, abs(Ig)/0.06, diff(Id_dens,Vg)
TestParameter, Output.Graph.Enabled, true
TestParameter, Output.Graph.AutoScaling, false
TestParameter, Output.Graph.XAxis.Data, Vg
TestParameter, Output.Graph.XAxis.Scale, Linear
TestParameter, Output.Graph.XAxis.Left, -2
TestParameter, Output.Graph.XAxis.Right, 10
TestParameter, Output.Graph.XAxis.RunTimeAutoScale, false
TestParameter, Output.Graph.YAxis.Data, Id_dens, Id_dens, gm, Ig_dens
TestParameter, Output.Graph.YAxis.Scale, Log, Linear, Linear, Log
TestParameter, Output.Graph.YAxis.Bottom, 0, 0, 0, 0
TestParameter, Output.Graph.YAxis.Top, 1, 1, 1, 1
TestParameter, Output.Graph.YAxis.Group, , , , 
TestParameter, Output.Graph.YAxis.RunTimeAutoScale, false, false, false, false
TestParameter, Output.List.Data, Vg, Id_dens, Ig_dens, Vd, gm
TestParameter, AutoAnalysis.Interpolation, false
TestParameter, AutoAnalysis.Line1.Enabled, false
TestParameter, AutoAnalysis.Line1.Type, 1
TestParameter, AutoAnalysis.Line1.Fix, True
TestParameter, AutoAnalysis.Line1.YAxis, 0
TestParameter, AutoAnalysis.Line1.Point1.Type, 0
TestParameter, AutoAnalysis.Line1.Point1.XY.X, 
TestParameter, AutoAnalysis.Line1.Point1.XY.Y, 
TestParameter, AutoAnalysis.Line1.Point1.Data.Var, 
TestParameter, AutoAnalysis.Line1.Point1.Data.Condition, 
TestParameter, AutoAnalysis.Line1.Point1.Data.Start, false
TestParameter, AutoAnalysis.Line1.Point1.Data.StartVar, 
TestParameter, AutoAnalysis.Line1.Point1.Data.StartCondition, 
TestParameter, AutoAnalysis.Line1.Point2.Type, 0
TestParameter, AutoAnalysis.Line1.Point2.XY.X, 
TestParameter, AutoAnalysis.Line1.Point2.XY.Y, 
TestParameter, AutoAnalysis.Line1.Point2.Data.Var, 
TestParameter, AutoAnalysis.Line1.Point2.Data.Condition, 
TestParameter, AutoAnalysis.Line1.Point2.Data.Start, false
TestParameter, AutoAnalysis.Line1.Point2.Data.StartVar, 
TestParameter, AutoAnalysis.Line1.Point2.Data.StartCondition, 
TestParameter, AutoAnalysis.Line1.GradientExpr, 0
TestParameter, AutoAnalysis.Line2.Enabled, false
TestParameter, AutoAnalysis.Line2.Type, 1
TestParameter, AutoAnalysis.Line2.Fix, True
TestParameter, AutoAnalysis.Line2.YAxis, 0
TestParameter, AutoAnalysis.Line2.Point1.Type, 0
TestParameter, AutoAnalysis.Line2.Point1.XY.X, 
TestParameter, AutoAnalysis.Line2.Point1.XY.Y, 
TestParameter, AutoAnalysis.Line2.Point1.Data.Var, 
TestParameter, AutoAnalysis.Line2.Point1.Data.Condition, 
TestParameter, AutoAnalysis.Line2.Point1.Data.Start, false
TestParameter, AutoAnalysis.Line2.Point1.Data.StartVar, 
TestParameter, AutoAnalysis.Line2.Point1.Data.StartCondition, 
TestParameter, AutoAnalysis.Line2.Point2.Type, 0
TestParameter, AutoAnalysis.Line2.Point2.XY.X, 
TestParameter, AutoAnalysis.Line2.Point2.XY.Y, 
TestParameter, AutoAnalysis.Line2.Point2.Data.Var, 
TestParameter, AutoAnalysis.Line2.Point2.Data.Condition, 
TestParameter, AutoAnalysis.Line2.Point2.Data.Start, false
TestParameter, AutoAnalysis.Line2.Point2.Data.StartVar, 
TestParameter, AutoAnalysis.Line2.Point2.Data.StartCondition, 
TestParameter, AutoAnalysis.Line2.GradientExpr, 0
TestParameter, AutoAnalysis.Marker.Enabled, false
TestParameter, AutoAnalysis.Marker.Data.Var, 
TestParameter, AutoAnalysis.Marker.Data.Condition, 
TestParameter, AutoAnalysis.Marker.Data.Start, false
TestParameter, AutoAnalysis.Marker.Data.StartVar, 
TestParameter, AutoAnalysis.Marker.Data.StartCondition, 
MetaData, TestRecord.EntryPoint, true
MetaData, TestRecord.RecordTime, 08/14/2019 16:19:55
MetaData, TestRecord.TestTarget, 
MetaData, TestRecord.IterationIndex, 2
MetaData, TestRecord.Preservation, true
MetaData, TestRecord.Flag, #
MetaData, TestRecord.Remarks, #188_F_implant_5nm_cap_die2_r3c4_Planar_F500
MetaData, TestRecord.LinkKey, 277be683-c64b-4e91-a421-e4c03fcb5e16
Dimension1, 201, 201, 201, 201, 201, 201, 201
Dimension2, 1, 1, 1, 1, 1, 1, 1
DataName, Vd, Id, Ig, Vg, Id_dens, Ig_dens, gm
DataValue, 5, 1.829E-12, -1.7E-10, -8, 3.0483333333333333E-11, 2.8333333333333335E-09, -7.5897435897436439E-11
DataValue, 5, 1.533E-12, -9.0000000000000012E-11, -7.9350000000000005, 2.555E-11, 1.5000000000000002E-09, -8.4871794871795479E-11
DataValue, 5, 1.1670000000000002E-12, -9.0000000000000012E-11, -7.870000000000001, 1.9450000000000005E-11, 1.5000000000000002E-09, -4.80769230769231E-11
DataValue, 5, 1.1580000000000001E-12, -9.0000000000000012E-11, -7.8050000000000006, 1.9300000000000004E-11, 1.5000000000000002E-09, -6.5384615384615159E-12
DataValue, 5, 1.116E-12, -9.0000000000000012E-11, -7.74, 1.8600000000000002E-11, 1.5000000000000002E-09, -4.9999999999999965E-12
DataValue, 5, 1.1190000000000002E-12, -8.0000000000000008E-11, -7.6750000000000007, 1.8650000000000005E-11, 1.3333333333333335E-09, -1.6666666666666696E-11
DataValue, 5, 9.86E-13, -8.0000000000000008E-11, -7.61, 1.6433333333333333E-11, 1.3333333333333335E-09, -4.5512820512820565E-11
DataValue, 5, 7.6400000000000008E-13, -8.0000000000000008E-11, -7.5450000000000008, 1.2733333333333336E-11, 1.3333333333333335E-09, -1.5256410256410263E-11
DataValue, 5, 8.67E-13, -9.0000000000000012E-11, -7.48, 1.4450000000000001E-11, 1.5000000000000002E-09, 9.4871794871794854E-12
DataValue, 5, 8.3800000000000006E-13, -9.0000000000000012E-11, -7.4150000000000009, 1.3966666666666668E-11, 1.5000000000000002E-09, -6.9230769230769273E-12
DataValue, 5, 8.1300000000000007E-13, -8.0000000000000008E-11, -7.3500000000000005, 1.3550000000000001E-11, 1.3333333333333335E-09, -1.6666666666666683E-11
DataValue, 5, 7.08E-13, -8.0000000000000008E-11, -7.285000000000001, 1.18E-11, 1.3333333333333335E-09, -1.5000000000000003E-11
DataValue, 5, 6.9600000000000006E-13, -8.0000000000000008E-11, -7.2200000000000006, 1.1600000000000002E-11, 1.3333333333333335E-09, 1.8333333333333241E-11
DataValue, 5, 8.5100000000000011E-13, -8.0000000000000008E-11, -7.155, 1.4183333333333336E-11, 1.3333333333333335E-09, 1.3076923076923072E-11
DataValue, 5, 7.98E-13, -8.0000000000000008E-11, -7.0900000000000007, 1.33E-11, 1.3333333333333335E-09, -2.5897435897435933E-11
DataValue, 5, 6.4900000000000006E-13, -8.0000000000000008E-11, -7.025, 1.0816666666666668E-11, 1.3333333333333335E-09, -3.8589743589743613E-11
DataValue, 5, 4.97E-13, -7E-11, -6.9600000000000009, 8.2833333333333345E-12, 1.1666666666666668E-09, -5.5128205128205186E-12
DataValue, 5, 6.06E-13, -8.0000000000000008E-11, -6.8950000000000005, 1.0100000000000001E-11, 1.3333333333333335E-09, 1.8846153846153865E-11
DataValue, 5, 6.4400000000000008E-13, -8.0000000000000008E-11, -6.830000000000001, 1.0733333333333335E-11, 1.3333333333333335E-09, -8.3333333333333482E-12
DataValue, 5, 5.41E-13, -7E-11, -6.7650000000000006, 9.0166666666666665E-12, 1.1666666666666668E-09, -6.9230769230768926E-12
DataValue, 5, 5.9E-13, -8.0000000000000008E-11, -6.7, 9.8333333333333333E-12, 1.3333333333333335E-09, 2.5000000000000033E-11
DataValue, 5, 7.360000000000001E-13, -8.0000000000000008E-11, -6.6350000000000007, 1.2266666666666668E-11, 1.3333333333333335E-09, 1.5769230769230797E-11
DataValue, 5, 7.1300000000000009E-13, -8.0000000000000008E-11, -6.57, 1.1883333333333335E-11, 1.3333333333333335E-09, -1.5256410256410263E-11
DataValue, 5, 6.170000000000001E-13, -8.0000000000000008E-11, -6.5050000000000008, 1.0283333333333336E-11, 1.3333333333333335E-09, -3.2435897435897471E-11
DataValue, 5, 4.6000000000000006E-13, -7E-11, -6.44, 7.6666666666666677E-12, 1.1666666666666668E-09, -1.2435897435897457E-11
DataValue, 5, 5.2E-13, -8.0000000000000008E-11, -6.3750000000000009, 8.6666666666666674E-12, 1.3333333333333335E-09, 1.0128205128205136E-11
DataValue, 5, 5.39E-13, -7E-11, -6.3100000000000005, 8.9833333333333343E-12, 1.1666666666666668E-09, -4.9999999999999625E-12
DataValue, 5, 4.8100000000000007E-13, -6E-11, -6.245, 8.0166666666666684E-12, 1E-09, -2.7179487179487205E-11
DataValue, 5, 3.27E-13, -8.0000000000000008E-11, -6.1800000000000006, 5.4500000000000004E-12, 1.3333333333333335E-09, -1.3846153846153868E-11
DataValue, 5, 3.7300000000000003E-13, -7E-11, -6.115, 6.2166666666666672E-12, 1.1666666666666668E-09, 2.5641025641025666E-11
DataValue, 5, 5.2700000000000008E-13, -7E-11, -6.0500000000000007, 8.7833333333333343E-12, 1.1666666666666668E-09, 3.7692307692307743E-11
DataValue, 5, 6.6700000000000009E-13, -7E-11, -5.985, 1.1116666666666669E-11, 1.1666666666666668E-09, -1.6666666666666698E-12
DataValue, 5, 5.14E-13, -7E-11, -5.9200000000000008, 8.5666666666666675E-12, 1.1666666666666668E-09, -2.7692307692307722E-11
DataValue, 5, 4.5100000000000005E-13, -7E-11, -5.855, 7.5166666666666685E-12, 1.1666666666666668E-09, -1.0769230769230703E-11
DataValue, 5, 4.3000000000000004E-13, -7E-11, -5.79, 7.1666666666666678E-12, 1.1666666666666668E-09, -9.1025641025641176E-12
DataValue, 5, 3.8000000000000005E-13, -8.0000000000000008E-11, -5.7250000000000005, 6.3333333333333341E-12, 1.3333333333333335E-09, -1.5512820512820524E-11
DataValue, 5, 3.0900000000000005E-13, -8.0000000000000008E-11, -5.66, 5.1500000000000013E-12, 1.3333333333333335E-09, 1.2051282051282054E-11
DataValue, 5, 4.74E-13, -8.0000000000000008E-11, -5.5950000000000006, 7.9E-12, 1.3333333333333335E-09, 1.7948717948717962E-11
DataValue, 5, 4.4900000000000006E-13, -7E-11, -5.53, 7.4833333333333346E-12, 1.1666666666666668E-09, 2.6538461538461572E-11
DataValue, 5, 6.81E-13, -7E-11, -5.4650000000000007, 1.1350000000000002E-11, 1.1666666666666668E-09, 5.9487179487179537E-11
DataValue, 5, 9.13E-13, -8.0000000000000008E-11, -5.4, 1.5216666666666668E-11, 1.3333333333333335E-09, 8.06410256410257E-11
DataValue, 5, 1.31E-12, -8.0000000000000008E-11, -5.3350000000000009, 2.1833333333333335E-11, 1.3333333333333335E-09, 3.1435897435897465E-10
DataValue, 5, 3.3650000000000003E-12, -7E-11, -5.2700000000000005, 5.608333333333334E-11, 1.1666666666666668E-09, 9.99999999999994E-10
DataValue, 5, 9.1100000000000014E-12, -8.0000000000000008E-11, -5.205, 1.5183333333333335E-10, 1.3333333333333335E-09, 2.4448717948717972E-09
DataValue, 5, 2.2435E-11, -8.0000000000000008E-11, -5.1400000000000006, 3.7391666666666669E-10, 1.3333333333333335E-09, 6.1083333333333384E-09
DataValue, 5, 5.6755E-11, -8.0000000000000008E-11, -5.075, 9.4591666666666668E-10, 1.3333333333333335E-09, 1.2511025641025652E-08
DataValue, 5, 1.20021E-10, -8.0000000000000008E-11, -5.0100000000000007, 2.00035E-09, 1.3333333333333335E-09, 3.0303461538461572E-08
DataValue, 5, 2.9312200000000003E-10, -8.0000000000000008E-11, -4.945, 4.8853666666666676E-09, 1.3333333333333335E-09, 6.2978076923076979E-08
DataValue, 5, 6.1125E-10, -9.0000000000000012E-11, -4.8800000000000008, 1.0187500000000001E-08, 1.5000000000000002E-09, 1.4538820512820525E-07
DataValue, 5, 1.42715E-09, -8.0000000000000008E-11, -4.815, 2.3785833333333334E-08, 1.3333333333333335E-09, 3.1896794871794674E-07
DataValue, 5, 3.0992E-09, -8.0000000000000008E-11, -4.75, 5.1653333333333329E-08, 1.3333333333333335E-09, 6.23762820512821E-07
DataValue, 5, 6.2925E-09, -8.0000000000000008E-11, -4.6850000000000005, 1.04875E-07, 1.3333333333333335E-09, 1.190602564102565E-06
DataValue, 5, 1.2385899999999999E-08, -9.0000000000000012E-11, -4.62, 2.0643166666666666E-07, 1.5000000000000002E-09, 2.3305000000000017E-06
DataValue, 5, 2.44704E-08, -8.0000000000000008E-11, -4.5550000000000006, 4.0784E-07, 1.3333333333333335E-09, 4.4150512820512857E-06
DataValue, 5, 4.68233E-08, -8.0000000000000008E-11, -4.49, 7.803883333333333E-07, 1.3333333333333335E-09, 7.7298076923077E-06
DataValue, 5, 8.47629E-08, -8.0000000000000008E-11, -4.4250000000000007, 1.412715E-06, 1.3333333333333335E-09, 1.3130730769230781E-05
DataValue, 5, 1.49243E-07, -8.0000000000000008E-11, -4.36, 2.4873833333333334E-06, 1.3333333333333335E-09, 2.2591294871794738E-05
DataValue, 5, 2.60975E-07, -9.0000000000000012E-11, -4.295, 4.349583333333334E-06, 1.5000000000000002E-09, 3.7826794871794904E-05
DataValue, 5, 4.4429199999999997E-07, -8.0000000000000008E-11, -4.23, 7.4048666666666666E-06, 1.3333333333333335E-09, 6.0499230769230817E-05
DataValue, 5, 7.32869E-07, -8.0000000000000008E-11, -4.165, 1.2214483333333333E-05, 1.3333333333333335E-09, 8.97728205128206E-05
DataValue, 5, 1.1445200000000001E-06, -8.0000000000000008E-11, -4.1000000000000005, 1.9075333333333337E-05, 1.3333333333333335E-09, 0.00014071038461538476
DataValue, 5, 1.8304100000000002E-06, -8.0000000000000008E-11, -4.035, 3.0506833333333338E-05, 1.3333333333333335E-09, 0.00021961538461538407
DataValue, 5, 2.8575200000000003E-06, -8.0000000000000008E-11, -3.97, 4.762533333333334E-05, 1.3333333333333335E-09, 0.00032351282051282086
DataValue, 5, 4.35381E-06, -9.0000000000000012E-11, -3.9050000000000002, 7.2563500000000011E-05, 1.5000000000000002E-09, 0.0004690551282051286
DataValue, 5, 6.51615E-06, -8.0000000000000008E-11, -3.8400000000000003, 0.00010860250000000001, 1.3333333333333335E-09, 0.00066518717948718014
DataValue, 5, 9.5422700000000014E-06, -7E-11, -3.7750000000000004, 0.00015903783333333336, 1.1666666666666668E-09, 0.00090249358974359053
DataValue, 5, 1.3555600000000001E-05, -9.0000000000000012E-11, -3.7100000000000004, 0.00022592666666666669, 1.5000000000000002E-09, 0.0012486192307692319
DataValue, 5, 1.92815E-05, -8.0000000000000008E-11, -3.6450000000000005, 0.00032135833333333337, 1.3333333333333335E-09, 0.0016777692307692264
DataValue, 5, 2.66422E-05, -9.0000000000000012E-11, -3.58, 0.00044403666666666667, 1.5000000000000002E-09, 0.0021621282051281993
DataValue, 5, 3.61461E-05, -9.0000000000000012E-11, -3.515, 0.000602435, 1.5000000000000002E-09, 0.0027827051282051317
DataValue, 5, 4.8347300000000004E-05, -9.0000000000000012E-11, -3.45, 0.00080578833333333347, 1.5000000000000002E-09, 0.0035206025641025679
DataValue, 5, 6.36068E-05, -9.0000000000000012E-11, -3.3850000000000002, 0.0010601133333333335, 1.5000000000000002E-09, 0.0043872692307692345
DataValue, 5, 8.2568E-05, -9.0000000000000012E-11, -3.3200000000000003, 0.0013761333333333335, 1.5000000000000002E-09, 0.0053766538461538504
DataValue, 5, 0.0001055447, -8.0000000000000008E-11, -3.2550000000000003, 0.0017590783333333335, 1.3333333333333335E-09, 0.00649858974358975
DataValue, 5, 0.00013325700000000002, -9.0000000000000012E-11, -3.1900000000000004, 0.00222095, 1.5000000000000002E-09, 0.0077715769230769323
DataValue, 5, 0.00016616300000000002, -9.0000000000000012E-11, -3.1250000000000004, 0.0027693833333333339, 1.5000000000000002E-09, 0.0091129487179486945
DataValue, 5, 0.000204338, -9.0000000000000012E-11, -3.06, 0.0034056333333333335, 1.5000000000000002E-09, 0.010608076923076897
DataValue, 5, 0.000248906, -9.0000000000000012E-11, -2.995, 0.004148433333333334, 1.5000000000000002E-09, 0.012330641025641041
DataValue, 5, 0.00030051700000000004, -8.0000000000000008E-11, -2.93, 0.0050086166666666676, 1.3333333333333335E-09, 0.014074743589743602
DataValue, 5, 0.00035868900000000003, -9.0000000000000012E-11, -2.865, 0.0059781500000000007, 1.5000000000000002E-09, 0.015917435897435907
DataValue, 5, 0.00042467300000000003, -9.0000000000000012E-11, -2.8000000000000003, 0.0070778833333333341, 1.5000000000000002E-09, 0.01797358974358975
DataValue, 5, 0.000498883, -8.0000000000000008E-11, -2.7350000000000003, 0.0083147166666666661, 1.3333333333333335E-09, 0.020133717948717964
DataValue, 5, 0.000581716, -1.0000000000000002E-10, -2.6700000000000004, 0.0096952666666666673, 1.6666666666666669E-09, 0.022320000000000038
DataValue, 5, 0.00067297900000000009, -8.0000000000000008E-11, -2.6050000000000004, 0.011216316666666669, 1.3333333333333335E-09, 0.024559230769230715
DataValue, 5, 0.00077327800000000007, -8.0000000000000008E-11, -2.54, 0.012887966666666669, 1.3333333333333335E-09, 0.027046410256410185
DataValue, 5, 0.00088394100000000007, -9.0000000000000012E-11, -2.475, 0.014732350000000002, 1.5000000000000002E-09, 0.029588974358974389
DataValue, 5, 0.0010040720000000002, -9.0000000000000012E-11, -2.41, 0.016734533333333336, 1.5000000000000002E-09, 0.032612692307692315
DataValue, 5, 0.00113832, -8.0000000000000008E-11, -2.345, 0.018972, 1.3333333333333335E-09, 0.034913846153846177
DataValue, 5, 0.0012764, -8.0000000000000008E-11, -2.2800000000000002, 0.021273333333333335, 1.3333333333333335E-09, 0.036830769230769264
DataValue, 5, 0.0014256, -9.0000000000000012E-11, -2.2150000000000003, 0.02376, 1.5000000000000002E-09, 0.039660256410256459
DataValue, 5, 0.0015857500000000001, -9.0000000000000012E-11, -2.1500000000000004, 0.02642916666666667, 1.5000000000000002E-09, 0.042401282051281956
DataValue, 5, 0.00175633, -8.0000000000000008E-11, -2.085, 0.029272166666666669, 1.3333333333333335E-09, 0.045029487179487029
DataValue, 5, 0.00193698, -9.0000000000000012E-11, -2.02, 0.032283, 1.5000000000000002E-09, 0.047632051282051308
DataValue, 5, 0.00212786, -9.0000000000000012E-11, -1.955, 0.035464333333333334, 1.5000000000000002E-09, 0.050239743589743611
DataValue, 5, 0.00232885, -9.0000000000000012E-11, -1.8900000000000001, 0.038814166666666663, 1.5000000000000002E-09, 0.052687179487179575
DataValue, 5, 0.0025388200000000002, -9.0000000000000012E-11, -1.8250000000000002, 0.042313666666666673, 1.5000000000000002E-09, 0.055429487179487293
DataValue, 5, 0.0027612, -9.0000000000000012E-11, -1.7600000000000002, 0.046020000000000005, 1.5000000000000002E-09, 0.058142307692307611
DataValue, 5, 0.00299233, -8.0000000000000008E-11, -1.695, 0.049872166666666669, 1.3333333333333335E-09, 0.060923076923076844
DataValue, 5, 0.0032364, -9.0000000000000012E-11, -1.6300000000000001, 0.05394, 1.5000000000000002E-09, 0.063357692307692365
