
SetupTitle, HEMT_transfer
PrimitiveTest, I/V Sweep
TestParameter, Context.MainFrame, B1500A
TestParameter, Channel.UnitType, SMU, SMU, SMU
TestParameter, Channel.Unit, SMU1:MP, SMU2:MC, GNDU:GND
TestParameter, Channel.IName, Id, Ig, Is
TestParameter, Channel.VName, Vd, Vg, Vs
TestParameter, Channel.Mode, V, V, COMMON
TestParameter, Channel.Func, CONST, VAR1, CONST
TestParameter, Channel.Index, 
TestParameter, Channel.Time, 
TestParameter, Measurement.Port.Unit, SMU1:MP, SMU2:MC, GNDU:GND
TestParameter, Measurement.Port.SeriesResistor, NONE, NONE, NONE
TestParameter, Measurement.Port.Filter, ON, ON, ON
TestParameter, Measurement.Port.OutputVoltageComparison, 0, 0, 0
TestParameter, Measurement.Primary.Locus, Single
TestParameter, Measurement.Primary.Scale, LINEAR
TestParameter, Measurement.Primary.Start, -5
TestParameter, Measurement.Primary.Stop, 5
TestParameter, Measurement.Primary.Step, 0.05
TestParameter, Measurement.Primary.Compliance, 0.001
TestParameter, Measurement.Primary.PowerCompliance, 0
TestParameter, Measurement.Aborting.Condition, CONTINUE AT ANY
TestParameter, Measurement.PostOutput.Value, START
TestParameter, Measurement.PostOutput.Retention, OFF
TestParameter, Measurement.Bias.Source, 5, -5, 0
TestParameter, Measurement.Bias.Compliance, 0.1, 0.001, 2
TestParameter, Measurement.Monitor.Unit, SMU1:MP, SMU2:MC, GNDU:GND
TestParameter, Measurement.Monitor.Adc, HR ADC, HS ADC, HR ADC
TestParameter, Measurement.Monitor.Measurement, Compliance Side, Force and Compliance Sides, Compliance Side
TestParameter, Measurement.Monitor.RangingMode, LIMITED, LIMITED, LIMITED
TestParameter, Measurement.Monitor.RangeBoundary, 1nA, 10uA, 1nA
TestParameter, Measurement.Monitor.RangeRating, BY FULL RANGE, BY FULL RANGE, BY FULL RANGE
TestParameter, Measurement.Monitor.RangeRatingCoeff, 50, 50, 50
TestParameter, Measurement.Timing.Hold, 0
TestParameter, Measurement.Timing.Delay, 0
TestParameter, Measurement.Adc.HighSpeed.Mode, PLC
TestParameter, Measurement.Adc.HighSpeed.Coeff, 2
TestParameter, Measurement.Adc.HighResolution.AutoZero, OFF
TestParameter, Measurement.Adc.HighResolution.Mode, PLC
TestParameter, Measurement.Adc.HighResolution.Coeff, 2
TestParameter, Measurement.WaitTime.Source.Coeff, 1
TestParameter, Measurement.WaitTime.Source.Offset, 0
TestParameter, Measurement.WaitTime.Monitor.Coeff, 1
TestParameter, Measurement.WaitTime.Monitor.Offset, 0
TestParameter, Function.User.Name, Id_dens, Ig_dens, gm
TestParameter, Function.User.Unit, A/mm, A/mm, S/mm
TestParameter, Function.User.Definition, Id/0.06, abs(Ig)/0.06, diff(Id_dens,Vg)
TestParameter, Output.Graph.Enabled, true
TestParameter, Output.Graph.AutoScaling, false
TestParameter, Output.Graph.XAxis.Data, Vg
TestParameter, Output.Graph.XAxis.Scale, Linear
TestParameter, Output.Graph.XAxis.Left, -2
TestParameter, Output.Graph.XAxis.Right, 10
TestParameter, Output.Graph.XAxis.RunTimeAutoScale, false
TestParameter, Output.Graph.YAxis.Data, Id_dens, Id_dens, gm, Ig_dens
TestParameter, Output.Graph.YAxis.Scale, Log, Linear, Linear, Log
TestParameter, Output.Graph.YAxis.Bottom, 0, 0, 0, 0
TestParameter, Output.Graph.YAxis.Top, 1, 1, 1, 1
TestParameter, Output.Graph.YAxis.Group, , , , 
TestParameter, Output.Graph.YAxis.RunTimeAutoScale, false, false, false, false
TestParameter, Output.List.Data, Vg, Id_dens, Ig_dens, Vd, gm
TestParameter, AutoAnalysis.Interpolation, false
TestParameter, AutoAnalysis.Line1.Enabled, false
TestParameter, AutoAnalysis.Line1.Type, 1
TestParameter, AutoAnalysis.Line1.Fix, True
TestParameter, AutoAnalysis.Line1.YAxis, 0
TestParameter, AutoAnalysis.Line1.Point1.Type, 0
TestParameter, AutoAnalysis.Line1.Point1.XY.X, 
TestParameter, AutoAnalysis.Line1.Point1.XY.Y, 
TestParameter, AutoAnalysis.Line1.Point1.Data.Var, 
TestParameter, AutoAnalysis.Line1.Point1.Data.Condition, 
TestParameter, AutoAnalysis.Line1.Point1.Data.Start, false
TestParameter, AutoAnalysis.Line1.Point1.Data.StartVar, 
TestParameter, AutoAnalysis.Line1.Point1.Data.StartCondition, 
TestParameter, AutoAnalysis.Line1.Point2.Type, 0
TestParameter, AutoAnalysis.Line1.Point2.XY.X, 
TestParameter, AutoAnalysis.Line1.Point2.XY.Y, 
TestParameter, AutoAnalysis.Line1.Point2.Data.Var, 
TestParameter, AutoAnalysis.Line1.Point2.Data.Condition, 
TestParameter, AutoAnalysis.Line1.Point2.Data.Start, false
TestParameter, AutoAnalysis.Line1.Point2.Data.StartVar, 
TestParameter, AutoAnalysis.Line1.Point2.Data.StartCondition, 
TestParameter, AutoAnalysis.Line1.GradientExpr, 0
TestParameter, AutoAnalysis.Line2.Enabled, false
TestParameter, AutoAnalysis.Line2.Type, 1
TestParameter, AutoAnalysis.Line2.Fix, True
TestParameter, AutoAnalysis.Line2.YAxis, 0
TestParameter, AutoAnalysis.Line2.Point1.Type, 0
TestParameter, AutoAnalysis.Line2.Point1.XY.X, 
TestParameter, AutoAnalysis.Line2.Point1.XY.Y, 
TestParameter, AutoAnalysis.Line2.Point1.Data.Var, 
TestParameter, AutoAnalysis.Line2.Point1.Data.Condition, 
TestParameter, AutoAnalysis.Line2.Point1.Data.Start, false
TestParameter, AutoAnalysis.Line2.Point1.Data.StartVar, 
TestParameter, AutoAnalysis.Line2.Point1.Data.StartCondition, 
TestParameter, AutoAnalysis.Line2.Point2.Type, 0
TestParameter, AutoAnalysis.Line2.Point2.XY.X, 
TestParameter, AutoAnalysis.Line2.Point2.XY.Y, 
TestParameter, AutoAnalysis.Line2.Point2.Data.Var, 
TestParameter, AutoAnalysis.Line2.Point2.Data.Condition, 
TestParameter, AutoAnalysis.Line2.Point2.Data.Start, false
TestParameter, AutoAnalysis.Line2.Point2.Data.StartVar, 
TestParameter, AutoAnalysis.Line2.Point2.Data.StartCondition, 
TestParameter, AutoAnalysis.Line2.GradientExpr, 0
TestParameter, AutoAnalysis.Marker.Enabled, false
TestParameter, AutoAnalysis.Marker.Data.Var, 
TestParameter, AutoAnalysis.Marker.Data.Condition, 
TestParameter, AutoAnalysis.Marker.Data.Start, false
TestParameter, AutoAnalysis.Marker.Data.StartVar, 
TestParameter, AutoAnalysis.Marker.Data.StartCondition, 
MetaData, TestRecord.EntryPoint, true
MetaData, TestRecord.RecordTime, 08/16/2019 12:29:12
MetaData, TestRecord.TestTarget, 
MetaData, TestRecord.IterationIndex, 1
MetaData, TestRecord.Preservation, true
MetaData, TestRecord.Flag, #
MetaData, TestRecord.Remarks, #089_LPCVD_trigate_die3_r1c3_W50
MetaData, TestRecord.LinkKey, 5a69ad19-9183-43a2-a0b6-85ac70b78588
Dimension1, 201, 201, 201, 201, 201, 201, 201
Dimension2, 1, 1, 1, 1, 1, 1, 1
DataName, Vd, Id, Ig, Vg, Id_dens, Ig_dens, gm
DataValue, 5, 6.295E-12, -2.3000000000000003E-10, -5, 1.0491666666666668E-10, 3.8333333333333337E-09, -3.2900000000000129E-10
DataValue, 5, 5.3080000000000004E-12, -1.8000000000000003E-10, -4.95, 8.8466666666666674E-11, 3.0000000000000004E-09, -3.0583333333333455E-10
DataValue, 5, 4.46E-12, -1.8000000000000003E-10, -4.9, 7.4333333333333335E-11, 3.0000000000000004E-09, -2.0000000000000065E-10
DataValue, 5, 4.1080000000000007E-12, -1.8000000000000003E-10, -4.8500000000000005, 6.8466666666666678E-11, 3.0000000000000004E-09, -9.58333333333336E-11
DataValue, 5, 3.8850000000000005E-12, -1.8000000000000003E-10, -4.8000000000000007, 6.4750000000000009E-11, 3.0000000000000004E-09, -9.2999999999999472E-11
DataValue, 5, 3.5500000000000004E-12, -1.7E-10, -4.75, 5.9166666666666682E-11, 2.8333333333333335E-09, -8.16666666666662E-11
DataValue, 5, 3.3950000000000004E-12, -1.7E-10, -4.7, 5.6583333333333345E-11, 2.8333333333333335E-09, -6.6833333333333645E-11
DataValue, 5, 3.1490000000000004E-12, -1.7E-10, -4.65, 5.2483333333333341E-11, 2.8333333333333335E-09, -8.0166666666666984E-11
DataValue, 5, 2.9140000000000003E-12, -1.7E-10, -4.6000000000000005, 4.8566666666666675E-11, 2.8333333333333335E-09, -5.2666666666666918E-11
DataValue, 5, 2.833E-12, -1.6000000000000002E-10, -4.5500000000000007, 4.7216666666666668E-11, 2.666666666666667E-09, -4.4166666666666475E-11
DataValue, 5, 2.649E-12, -1.6000000000000002E-10, -4.5, 4.4150000000000004E-11, 2.666666666666667E-09, -3.866666666666643E-11
DataValue, 5, 2.6010000000000003E-12, -1.7E-10, -4.45, 4.3350000000000004E-11, 2.8333333333333335E-09, -1.2833333333333373E-11
DataValue, 5, 2.5720000000000003E-12, -1.6000000000000002E-10, -4.4, 4.2866666666666671E-11, 2.666666666666667E-09, -2.4666666666666759E-11
DataValue, 5, 2.453E-12, -1.5000000000000003E-10, -4.3500000000000005, 4.0883333333333337E-11, 2.5000000000000005E-09, -1.5333333333333374E-11
DataValue, 5, 2.4800000000000003E-12, -1.6000000000000002E-10, -4.3000000000000007, 4.1333333333333339E-11, 2.666666666666667E-09, -2.0499999999999845E-11
DataValue, 5, 2.3300000000000004E-12, -1.6000000000000002E-10, -4.25, 3.8833333333333341E-11, 2.666666666666667E-09, -3.783333333333317E-11
DataValue, 5, 2.253E-12, -1.6000000000000002E-10, -4.2, 3.755E-11, 2.666666666666667E-09, 1.6666666666658912E-13
DataValue, 5, 2.331E-12, -1.5000000000000003E-10, -4.15, 3.885E-11, 2.5000000000000005E-09, -8.0000000000000273E-12
DataValue, 5, 2.205E-12, -1.6000000000000002E-10, -4.1000000000000005, 3.675E-11, 2.666666666666667E-09, -1.5833333333333334E-11
DataValue, 5, 2.236E-12, -1.5000000000000003E-10, -4.0500000000000007, 3.7266666666666672E-11, 2.5000000000000005E-09, -2.7499999999999824E-11
DataValue, 5, 2.04E-12, -1.5000000000000003E-10, -4, 3.4000000000000005E-11, 2.5000000000000005E-09, -2.4833333333333193E-11
DataValue, 5, 2.0870000000000003E-12, -1.5000000000000003E-10, -3.95, 3.478333333333334E-11, 2.5000000000000005E-09, -8.16666666666668E-12
DataValue, 5, 1.9910000000000003E-12, -1.5000000000000003E-10, -3.9000000000000004, 3.318333333333334E-11, 2.5000000000000005E-09, -2.2833333333333503E-11
DataValue, 5, 1.95E-12, -1.5000000000000003E-10, -3.8500000000000005, 3.25E-11, 2.5000000000000005E-09, 9.4999999999999333E-12
DataValue, 5, 2.048E-12, -1.5000000000000003E-10, -3.8000000000000003, 3.4133333333333334E-11, 2.5000000000000005E-09, -9.1666666666665623E-12
DataValue, 5, 1.8950000000000003E-12, -1.5000000000000003E-10, -3.7500000000000004, 3.1583333333333341E-11, 2.5000000000000005E-09, -2.8166666666666621E-11
DataValue, 5, 1.879E-12, -1.5000000000000003E-10, -3.7, 3.131666666666667E-11, 2.5000000000000005E-09, -6.6666666666667668E-13
DataValue, 5, 1.8910000000000003E-12, -1.5000000000000003E-10, -3.6500000000000004, 3.1516666666666673E-11, 2.5000000000000005E-09, 5.3333333333333488E-12
DataValue, 5, 1.9110000000000002E-12, -1.5000000000000003E-10, -3.6, 3.1850000000000005E-11, 2.5000000000000005E-09, -9.3333333333333447E-12
DataValue, 5, 1.835E-12, -1.5000000000000003E-10, -3.5500000000000003, 3.0583333333333338E-11, 2.5000000000000005E-09, -1.450000000000004E-11
DataValue, 5, 1.8240000000000003E-12, -1.5000000000000003E-10, -3.5000000000000004, 3.0400000000000006E-11, 2.5000000000000005E-09, 1.3666666666666645E-11
DataValue, 5, 1.917E-12, -1.4E-10, -3.45, 3.1950000000000003E-11, 2.3333333333333335E-09, 2.83333333333336E-12
DataValue, 5, 1.8410000000000003E-12, -1.4E-10, -3.4000000000000004, 3.0683333333333342E-11, 2.3333333333333335E-09, -8.6666666666666674E-12
DataValue, 5, 1.8650000000000002E-12, -1.4E-10, -3.35, 3.1083333333333336E-11, 2.3333333333333335E-09, -1.8833333333333375E-11
DataValue, 5, 1.7280000000000001E-12, -1.4E-10, -3.3000000000000003, 2.8800000000000003E-11, 2.3333333333333335E-09, -3.66666666666668E-11
DataValue, 5, 1.6450000000000002E-12, -1.4E-10, -3.2500000000000004, 2.7416666666666669E-11, 2.3333333333333335E-09, -2.8333333333333276E-12
DataValue, 5, 1.711E-12, -1.4E-10, -3.2, 2.851666666666667E-11, 2.3333333333333335E-09, 3.0000000000000127E-12
DataValue, 5, 1.663E-12, -1.3000000000000002E-10, -3.1500000000000004, 2.771666666666667E-11, 2.166666666666667E-09, 1.950000000000002E-11
DataValue, 5, 1.8280000000000003E-12, -1.3000000000000002E-10, -3.1, 3.0466666666666674E-11, 2.166666666666667E-09, -2.83333333333336E-12
DataValue, 5, 1.646E-12, -1.3000000000000002E-10, -3.0500000000000003, 2.7433333333333334E-11, 2.166666666666667E-09, -1.8166666666666778E-11
DataValue, 5, 1.719E-12, -1.3000000000000002E-10, -3.0000000000000004, 2.8650000000000003E-11, 2.166666666666667E-09, 2.500000000000002E-11
DataValue, 5, 1.7960000000000002E-12, -1.3000000000000002E-10, -2.95, 2.9933333333333339E-11, 2.166666666666667E-09, -1.2499999999999978E-11
DataValue, 5, 1.644E-12, -1.3000000000000002E-10, -2.9000000000000004, 2.7400000000000004E-11, 2.166666666666667E-09, -1.8666666666666689E-11
DataValue, 5, 1.684E-12, -1.3000000000000002E-10, -2.85, 2.8066666666666668E-11, 2.166666666666667E-09, 3.333333333333319E-12
DataValue, 5, 1.6640000000000002E-12, -1.3000000000000002E-10, -2.8000000000000003, 2.7733333333333336E-11, 2.166666666666667E-09, -2.4333333333333421E-11
DataValue, 5, 1.5380000000000001E-12, -1.3000000000000002E-10, -2.7500000000000004, 2.5633333333333335E-11, 2.166666666666667E-09, -1.5666666666666645E-11
DataValue, 5, 1.5700000000000002E-12, -1.3000000000000002E-10, -2.7, 2.616666666666667E-11, 2.166666666666667E-09, 2.5666666666666665E-11
DataValue, 5, 1.692E-12, -1.2E-10, -2.6500000000000004, 2.8200000000000003E-11, 2E-09, 2.7499999999999976E-11
DataValue, 5, 1.7350000000000002E-12, -1.3000000000000002E-10, -2.6, 2.891666666666667E-11, 2.166666666666667E-09, -3.6499999999999984E-11
DataValue, 5, 1.473E-12, -1.3000000000000002E-10, -2.5500000000000003, 2.4550000000000002E-11, 2.166666666666667E-09, -2.5166666666666641E-11
DataValue, 5, 1.5840000000000001E-12, -1.3000000000000002E-10, -2.5, 2.6400000000000004E-11, 2.166666666666667E-09, 1.1166666666666657E-11
DataValue, 5, 1.5400000000000001E-12, -1.3000000000000002E-10, -2.45, 2.5666666666666669E-11, 2.166666666666667E-09, 2.7333333333333446E-11
DataValue, 5, 1.7480000000000002E-12, -1.3000000000000002E-10, -2.4000000000000004, 2.9133333333333339E-11, 2.166666666666667E-09, -1.7499999999999988E-11
DataValue, 5, 1.435E-12, -1.2E-10, -2.35, 2.3916666666666668E-11, 2E-09, -3.5166666666666629E-11
DataValue, 5, 1.5370000000000002E-12, -1.2E-10, -2.3000000000000003, 2.5616666666666673E-11, 2E-09, 1.7499999999999988E-11
DataValue, 5, 1.5400000000000001E-12, -1.2E-10, -2.25, 2.5666666666666669E-11, 2E-09, 1.3166666666666623E-11
DataValue, 5, 1.6160000000000002E-12, -1.2E-10, -2.2, 2.6933333333333336E-11, 2E-09, -1.7166666666666727E-11
DataValue, 5, 1.437E-12, -1.2E-10, -2.1500000000000004, 2.3950000000000002E-11, 2E-09, -2.0499999999999968E-11
DataValue, 5, 1.4930000000000002E-12, -1.2E-10, -2.1, 2.4883333333333337E-11, 2E-09, 2.8666666666666645E-11
DataValue, 5, 1.6090000000000001E-12, -1.2E-10, -2.0500000000000003, 2.6816666666666669E-11, 2E-09, -1.3333333333333534E-12
DataValue, 5, 1.485E-12, -1.2E-10, -2, 2.4750000000000002E-11, 2E-09, -3.2499999999999991E-11
DataValue, 5, 1.414E-12, -1.2E-10, -1.9500000000000002, 2.3566666666666667E-11, 2E-09, 3.3333333333333586E-12
DataValue, 5, 1.5050000000000002E-12, -1.2E-10, -1.9000000000000001, 2.5083333333333337E-11, 2E-09, 2.3333333333333685E-12
DataValue, 5, 1.4280000000000002E-12, -1.2E-10, -1.85, 2.3800000000000004E-11, 2E-09, -8.8333333333333529E-12
DataValue, 5, 1.452E-12, -1.2E-10, -1.8, 2.42E-11, 2E-09, 1.8000000000000019E-11
DataValue, 5, 1.5360000000000001E-12, -1.2E-10, -1.7500000000000002, 2.5600000000000004E-11, 2E-09, -3.3833333333333385E-11
DataValue, 5, 1.249E-12, -1.1000000000000001E-10, -1.7000000000000002, 2.0816666666666667E-11, 1.8333333333333336E-09, -3.08333333333333E-11
DataValue, 5, 1.3510000000000002E-12, -1.1000000000000001E-10, -1.6500000000000001, 2.2516666666666672E-11, 1.8333333333333336E-09, 2.2999999999999992E-11
DataValue, 5, 1.387E-12, -1.1000000000000001E-10, -1.6, 2.3116666666666668E-11, 1.8333333333333336E-09, 3.0499999999999959E-11
DataValue, 5, 1.5340000000000001E-12, -1.1000000000000001E-10, -1.55, 2.556666666666667E-11, 1.8333333333333336E-09, 1.8000000000000051E-11
DataValue, 5, 1.4950000000000002E-12, -1.1000000000000001E-10, -1.5000000000000002, 2.4916666666666671E-11, 1.8333333333333336E-09, -2.1666666666666718E-11
DataValue, 5, 1.404E-12, -1.1000000000000001E-10, -1.4500000000000002, 2.34E-11, 1.8333333333333336E-09, -4.6666666666666724E-12
DataValue, 5, 1.4670000000000001E-12, -1.1000000000000001E-10, -1.4000000000000001, 2.4450000000000003E-11, 1.8333333333333336E-09, -1.0333333333333294E-11
DataValue, 5, 1.3420000000000001E-12, -1.1000000000000001E-10, -1.35, 2.2366666666666671E-11, 1.8333333333333336E-09, -9.3333333333333124E-12
DataValue, 5, 1.4110000000000002E-12, -1.1000000000000001E-10, -1.3, 2.3516666666666671E-11, 1.8333333333333336E-09, 3.216666666666662E-11
DataValue, 5, 1.535E-12, -1.0000000000000002E-10, -1.25, 2.5583333333333335E-11, 1.6666666666666669E-09, 1.5166666666666653E-11
DataValue, 5, 1.502E-12, -1.0000000000000002E-10, -1.2000000000000002, 2.5033333333333335E-11, 1.6666666666666669E-09, -1.0166666666666664E-11
DataValue, 5, 1.4740000000000002E-12, -1.0000000000000002E-10, -1.1500000000000001, 2.456666666666667E-11, 1.6666666666666669E-09, -1.7333333333333303E-11
DataValue, 5, 1.3980000000000001E-12, -1.1000000000000001E-10, -1.1, 2.3300000000000003E-11, 1.8333333333333336E-09, -5.6666666666666552E-12
DataValue, 5, 1.4400000000000001E-12, -1.0000000000000002E-10, -1.05, 2.4000000000000004E-11, 1.6666666666666669E-09, 1.5000000000000063E-12
DataValue, 5, 1.4070000000000002E-12, -1.0000000000000002E-10, -1, 2.3450000000000004E-11, 1.6666666666666669E-09, -1.5000000000000405E-12
DataValue, 5, 1.431E-12, -1.0000000000000002E-10, -0.95000000000000007, 2.385E-11, 1.6666666666666669E-09, 5.5000000000000085E-12
DataValue, 5, 1.4400000000000001E-12, -1.0000000000000002E-10, -0.9, 2.4000000000000004E-11, 1.6666666666666669E-09, -3.08333333333333E-11
DataValue, 5, 1.2460000000000001E-12, -9.0000000000000012E-11, -0.85000000000000009, 2.0766666666666671E-11, 1.5000000000000002E-09, -3.333333333333387E-13
DataValue, 5, 1.4380000000000001E-12, -1.0000000000000002E-10, -0.8, 2.396666666666667E-11, 1.6666666666666669E-09, 2.6499999999999992E-11
DataValue, 5, 1.4050000000000002E-12, -1.0000000000000002E-10, -0.75000000000000011, 2.341666666666667E-11, 1.6666666666666669E-09, -7.8333333333333467E-12
DataValue, 5, 1.391E-12, -1.0000000000000002E-10, -0.70000000000000007, 2.3183333333333336E-11, 1.6666666666666669E-09, 9.3333333333333124E-12
DataValue, 5, 1.4610000000000001E-12, -1.0000000000000002E-10, -0.65, 2.4350000000000002E-11, 1.6666666666666669E-09, 1.1499999999999976E-11
DataValue, 5, 1.46E-12, -1.0000000000000002E-10, -0.60000000000000009, 2.4333333333333333E-11, 1.6666666666666669E-09, 4.8666666666666712E-11
DataValue, 5, 1.7530000000000001E-12, -9.0000000000000012E-11, -0.55, 2.9216666666666672E-11, 1.5000000000000002E-09, 4.3449999999999969E-10
DataValue, 5, 4.067E-12, -9.0000000000000012E-11, -0.5, 6.7783333333333342E-11, 1.5000000000000002E-09, 3.1303333333333323E-09
DataValue, 5, 2.0535E-11, -9.0000000000000012E-11, -0.45, 3.4225000000000003E-10, 1.5000000000000002E-09, 2.1120666666666672E-08
DataValue, 5, 1.30791E-10, -1.0000000000000002E-10, -0.4, 2.17985E-09, 1.6666666666666669E-09, 1.4383750000000003E-07
DataValue, 5, 8.8356E-10, -1.0000000000000002E-10, -0.35000000000000003, 1.4726E-08, 1.6666666666666669E-09, 9.3037816666666693E-07
DataValue, 5, 5.71306E-09, -1.0000000000000002E-10, -0.30000000000000004, 9.521766666666667E-08, 1.6666666666666669E-09, 5.4804066666666644E-06
DataValue, 5, 3.3766E-08, -1.0000000000000002E-10, -0.25, 5.6276666666666663E-07, 1.6666666666666669E-09, 3.0650323333333326E-05
DataValue, 5, 1.89615E-07, -9.0000000000000012E-11, -0.2, 3.16025E-06, 1.5000000000000002E-09, 0.00013484716666666669
DataValue, 5, 8.42849E-07, -9.0000000000000012E-11, -0.15000000000000002, 1.4047483333333334E-05, 1.5000000000000002E-09, 0.00050266583333333334
DataValue, 5, 3.20561E-06, -9.0000000000000012E-11, -0.1, 5.3426833333333335E-05, 1.5000000000000002E-09, 0.0014136951666666666
DataValue, 5, 9.3250200000000011E-06, -9.0000000000000012E-11, -0.05, 0.00015541700000000003, 1.5000000000000002E-09, 0.003310648333333333
DataValue, 5, 2.30695E-05, -9.0000000000000012E-11, 0, 0.00038449166666666668, 1.5000000000000002E-09, 0.0062507633333333335
