
SetupTitle, HEMT_transfer
PrimitiveTest, I/V Sweep
TestParameter, Context.MainFrame, B1500A
TestParameter, Channel.UnitType, SMU, SMU, SMU
TestParameter, Channel.Unit, SMU1:MP, SMU2:MC, GNDU:GND
TestParameter, Channel.IName, Id, Ig, Is
TestParameter, Channel.VName, Vd, Vg, Vs
TestParameter, Channel.Mode, V, V, COMMON
TestParameter, Channel.Func, CONST, VAR1, CONST
TestParameter, Channel.Index, 
TestParameter, Channel.Time, 
TestParameter, Measurement.Port.Unit, SMU1:MP, SMU2:MC, GNDU:GND
TestParameter, Measurement.Port.SeriesResistor, NONE, NONE, NONE
TestParameter, Measurement.Port.Filter, ON, ON, ON
TestParameter, Measurement.Port.OutputVoltageComparison, 0, 0, 0
TestParameter, Measurement.Primary.Locus, Single
TestParameter, Measurement.Primary.Scale, LINEAR
TestParameter, Measurement.Primary.Start, -8
TestParameter, Measurement.Primary.Stop, 5
TestParameter, Measurement.Primary.Step, 0.065
TestParameter, Measurement.Primary.Compliance, 0.001
TestParameter, Measurement.Primary.PowerCompliance, 0
TestParameter, Measurement.Aborting.Condition, CONTINUE AT ANY
TestParameter, Measurement.PostOutput.Value, START
TestParameter, Measurement.PostOutput.Retention, OFF
TestParameter, Measurement.Bias.Source, 5, -8, 0
TestParameter, Measurement.Bias.Compliance, 0.1, 0.001, 2
TestParameter, Measurement.Monitor.Unit, SMU1:MP, SMU2:MC, GNDU:GND
TestParameter, Measurement.Monitor.Adc, HR ADC, HS ADC, HR ADC
TestParameter, Measurement.Monitor.Measurement, Compliance Side, Force and Compliance Sides, Compliance Side
TestParameter, Measurement.Monitor.RangingMode, LIMITED, LIMITED, LIMITED
TestParameter, Measurement.Monitor.RangeBoundary, 1nA, 10uA, 1nA
TestParameter, Measurement.Monitor.RangeRating, BY FULL RANGE, BY FULL RANGE, BY FULL RANGE
TestParameter, Measurement.Monitor.RangeRatingCoeff, 50, 50, 50
TestParameter, Measurement.Timing.Hold, 0
TestParameter, Measurement.Timing.Delay, 0
TestParameter, Measurement.Adc.HighSpeed.Mode, PLC
TestParameter, Measurement.Adc.HighSpeed.Coeff, 2
TestParameter, Measurement.Adc.HighResolution.AutoZero, OFF
TestParameter, Measurement.Adc.HighResolution.Mode, PLC
TestParameter, Measurement.Adc.HighResolution.Coeff, 2
TestParameter, Measurement.WaitTime.Source.Coeff, 1
TestParameter, Measurement.WaitTime.Source.Offset, 0
TestParameter, Measurement.WaitTime.Monitor.Coeff, 1
TestParameter, Measurement.WaitTime.Monitor.Offset, 0
TestParameter, Function.User.Name, Id_dens, Ig_dens, gm
TestParameter, Function.User.Unit, A/mm, A/mm, S/mm
TestParameter, Function.User.Definition, Id/0.06, abs(Ig)/0.06, diff(Id_dens,Vg)
TestParameter, Output.Graph.Enabled, true
TestParameter, Output.Graph.AutoScaling, false
TestParameter, Output.Graph.XAxis.Data, Vg
TestParameter, Output.Graph.XAxis.Scale, Linear
TestParameter, Output.Graph.XAxis.Left, -2
TestParameter, Output.Graph.XAxis.Right, 10
TestParameter, Output.Graph.XAxis.RunTimeAutoScale, false
TestParameter, Output.Graph.YAxis.Data, Id_dens, Id_dens, gm, Ig_dens
TestParameter, Output.Graph.YAxis.Scale, Log, Linear, Linear, Log
TestParameter, Output.Graph.YAxis.Bottom, 0, 0, 0, 0
TestParameter, Output.Graph.YAxis.Top, 1, 1, 1, 1
TestParameter, Output.Graph.YAxis.Group, , , , 
TestParameter, Output.Graph.YAxis.RunTimeAutoScale, false, false, false, false
TestParameter, Output.List.Data, Vg, Id_dens, Ig_dens, Vd, gm
TestParameter, AutoAnalysis.Interpolation, false
TestParameter, AutoAnalysis.Line1.Enabled, false
TestParameter, AutoAnalysis.Line1.Type, 1
TestParameter, AutoAnalysis.Line1.Fix, True
TestParameter, AutoAnalysis.Line1.YAxis, 0
TestParameter, AutoAnalysis.Line1.Point1.Type, 0
TestParameter, AutoAnalysis.Line1.Point1.XY.X, 
TestParameter, AutoAnalysis.Line1.Point1.XY.Y, 
TestParameter, AutoAnalysis.Line1.Point1.Data.Var, 
TestParameter, AutoAnalysis.Line1.Point1.Data.Condition, 
TestParameter, AutoAnalysis.Line1.Point1.Data.Start, false
TestParameter, AutoAnalysis.Line1.Point1.Data.StartVar, 
TestParameter, AutoAnalysis.Line1.Point1.Data.StartCondition, 
TestParameter, AutoAnalysis.Line1.Point2.Type, 0
TestParameter, AutoAnalysis.Line1.Point2.XY.X, 
TestParameter, AutoAnalysis.Line1.Point2.XY.Y, 
TestParameter, AutoAnalysis.Line1.Point2.Data.Var, 
TestParameter, AutoAnalysis.Line1.Point2.Data.Condition, 
TestParameter, AutoAnalysis.Line1.Point2.Data.Start, false
TestParameter, AutoAnalysis.Line1.Point2.Data.StartVar, 
TestParameter, AutoAnalysis.Line1.Point2.Data.StartCondition, 
TestParameter, AutoAnalysis.Line1.GradientExpr, 0
TestParameter, AutoAnalysis.Line2.Enabled, false
TestParameter, AutoAnalysis.Line2.Type, 1
TestParameter, AutoAnalysis.Line2.Fix, True
TestParameter, AutoAnalysis.Line2.YAxis, 0
TestParameter, AutoAnalysis.Line2.Point1.Type, 0
TestParameter, AutoAnalysis.Line2.Point1.XY.X, 
TestParameter, AutoAnalysis.Line2.Point1.XY.Y, 
TestParameter, AutoAnalysis.Line2.Point1.Data.Var, 
TestParameter, AutoAnalysis.Line2.Point1.Data.Condition, 
TestParameter, AutoAnalysis.Line2.Point1.Data.Start, false
TestParameter, AutoAnalysis.Line2.Point1.Data.StartVar, 
TestParameter, AutoAnalysis.Line2.Point1.Data.StartCondition, 
TestParameter, AutoAnalysis.Line2.Point2.Type, 0
TestParameter, AutoAnalysis.Line2.Point2.XY.X, 
TestParameter, AutoAnalysis.Line2.Point2.XY.Y, 
TestParameter, AutoAnalysis.Line2.Point2.Data.Var, 
TestParameter, AutoAnalysis.Line2.Point2.Data.Condition, 
TestParameter, AutoAnalysis.Line2.Point2.Data.Start, false
TestParameter, AutoAnalysis.Line2.Point2.Data.StartVar, 
TestParameter, AutoAnalysis.Line2.Point2.Data.StartCondition, 
TestParameter, AutoAnalysis.Line2.GradientExpr, 0
TestParameter, AutoAnalysis.Marker.Enabled, false
TestParameter, AutoAnalysis.Marker.Data.Var, 
TestParameter, AutoAnalysis.Marker.Data.Condition, 
TestParameter, AutoAnalysis.Marker.Data.Start, false
TestParameter, AutoAnalysis.Marker.Data.StartVar, 
TestParameter, AutoAnalysis.Marker.Data.StartCondition, 
MetaData, TestRecord.EntryPoint, true
MetaData, TestRecord.RecordTime, 08/14/2019 16:22:13
MetaData, TestRecord.TestTarget, 
MetaData, TestRecord.IterationIndex, 3
MetaData, TestRecord.Preservation, true
MetaData, TestRecord.Flag, #
MetaData, TestRecord.Remarks, #188_F_implant_5nm_cap_die2_r3c4_Planar_L10
MetaData, TestRecord.LinkKey, 8dbdfa42-d40e-4aac-9c3b-4c76a2157ffd
Dimension1, 201, 201, 201, 201, 201, 201, 201
Dimension2, 1, 1, 1, 1, 1, 1, 1
DataName, Vd, Id, Ig, Vg, Id_dens, Ig_dens, gm
DataValue, 5, 2.102E-12, -1.7E-10, -8, 3.5033333333333339E-11, 2.8333333333333335E-09, -7.5128205128205777E-11
DataValue, 5, 1.809E-12, -1.1000000000000001E-10, -7.9350000000000005, 3.015E-11, 1.8333333333333336E-09, -9.2692307692308425E-11
DataValue, 5, 1.379E-12, -1.0000000000000002E-10, -7.870000000000001, 2.2983333333333336E-11, 1.6666666666666669E-09, -8.2307692307692341E-11
DataValue, 5, 1.1670000000000002E-12, -9.0000000000000012E-11, -7.8050000000000006, 1.9450000000000005E-11, 1.5000000000000002E-09, -2.6025641025640874E-11
DataValue, 5, 1.176E-12, -9.0000000000000012E-11, -7.74, 1.9600000000000002E-11, 1.5000000000000002E-09, -7.948717948717982E-12
DataValue, 5, 1.105E-12, -9.0000000000000012E-11, -7.6750000000000007, 1.8416666666666668E-11, 1.5000000000000002E-09, -2.2692307692307714E-11
DataValue, 5, 9.99E-13, -9.0000000000000012E-11, -7.61, 1.6650000000000002E-11, 1.5000000000000002E-09, -3.5256410256410278E-11
DataValue, 5, 8.300000000000001E-13, -8.0000000000000008E-11, -7.5450000000000008, 1.3833333333333336E-11, 1.3333333333333335E-09, -1.8717948717948733E-11
DataValue, 5, 8.530000000000001E-13, -8.0000000000000008E-11, -7.48, 1.4216666666666669E-11, 1.3333333333333335E-09, -5.25641025641027E-12
DataValue, 5, 7.8900000000000007E-13, -9.0000000000000012E-11, -7.4150000000000009, 1.3150000000000001E-11, 1.5000000000000002E-09, -2.1794871794871786E-12
DataValue, 5, 8.3600000000000007E-13, -8.0000000000000008E-11, -7.3500000000000005, 1.3933333333333336E-11, 1.3333333333333335E-09, -2.192307692307693E-11
DataValue, 5, 6.1800000000000009E-13, -8.0000000000000008E-11, -7.285000000000001, 1.0300000000000003E-11, 1.3333333333333335E-09, -2.3974358974359002E-11
DataValue, 5, 6.4900000000000006E-13, -8.0000000000000008E-11, -7.2200000000000006, 1.0816666666666668E-11, 1.3333333333333335E-09, 1.6025641025640925E-11
DataValue, 5, 7.4300000000000007E-13, -8.0000000000000008E-11, -7.155, 1.2383333333333335E-11, 1.3333333333333335E-09, 6.4102564102563931E-13
DataValue, 5, 6.54E-13, -9.0000000000000012E-11, -7.0900000000000007, 1.0900000000000001E-11, 1.5000000000000002E-09, -3.7820512820512855E-11
DataValue, 5, 4.48E-13, -8.0000000000000008E-11, -7.025, 7.4666666666666677E-12, 1.3333333333333335E-09, 6.4102564102563931E-13
DataValue, 5, 6.59E-13, -8.0000000000000008E-11, -6.9600000000000009, 1.0983333333333334E-11, 1.3333333333333335E-09, 9.6153846153846155E-12
DataValue, 5, 5.23E-13, -8.0000000000000008E-11, -6.8950000000000005, 8.7166666666666666E-12, 1.3333333333333335E-09, 1.7692307692307715E-11
DataValue, 5, 7.97E-13, -8.0000000000000008E-11, -6.830000000000001, 1.3283333333333335E-11, 1.3333333333333335E-09, -7.8205128205128148E-12
DataValue, 5, 4.6200000000000005E-13, -7E-11, -6.7650000000000006, 7.7000000000000015E-12, 1.1666666666666668E-09, -4.7307692307692022E-11
DataValue, 5, 4.2800000000000004E-13, -8.0000000000000008E-11, -6.7, 7.1333333333333347E-12, 1.3333333333333335E-09, 6.025641025641027E-12
DataValue, 5, 5.0900000000000005E-13, -8.0000000000000008E-11, -6.6350000000000007, 8.4833333333333344E-12, 1.3333333333333335E-09, 2.8461538461538484E-11
DataValue, 5, 6.5000000000000006E-13, -9.0000000000000012E-11, -6.57, 1.0833333333333335E-11, 1.5000000000000002E-09, -3.0769230769230789E-12
DataValue, 5, 4.8500000000000005E-13, -8.0000000000000008E-11, -6.5050000000000008, 8.0833333333333345E-12, 1.3333333333333335E-09, -2.8461538461538484E-11
DataValue, 5, 4.2800000000000004E-13, -8.0000000000000008E-11, -6.44, 7.1333333333333347E-12, 1.3333333333333335E-09, -7.6923076923076974E-13
DataValue, 5, 4.7900000000000008E-13, -8.0000000000000008E-11, -6.3750000000000009, 7.9833333333333345E-12, 1.3333333333333335E-09, 3.1153846153846185E-11
DataValue, 5, 6.7100000000000007E-13, -9.0000000000000012E-11, -6.3100000000000005, 1.1183333333333335E-11, 1.5000000000000002E-09, -2.6923076923076692E-12
DataValue, 5, 4.5800000000000007E-13, -8.0000000000000008E-11, -6.245, 7.6333333333333354E-12, 1.3333333333333335E-09, -4.20512820512821E-11
DataValue, 5, 3.43E-13, -9.0000000000000012E-11, -6.1800000000000006, 5.7166666666666673E-12, 1.5000000000000002E-09, -1.7948717948717975E-11
DataValue, 5, 3.18E-13, -9.0000000000000012E-11, -6.115, 5.3000000000000004E-12, 1.5000000000000002E-09, 1.3974358974358985E-11
DataValue, 5, 4.5200000000000004E-13, -9.0000000000000012E-11, -6.0500000000000007, 7.5333333333333338E-12, 1.5000000000000002E-09, 2.3717948717948742E-11
DataValue, 5, 5.0300000000000008E-13, -9.0000000000000012E-11, -5.985, 8.3833333333333344E-12, 1.5000000000000002E-09, -3.7179487179487178E-12
DataValue, 5, 4.23E-13, -8.0000000000000008E-11, -5.9200000000000008, 7.0500000000000009E-12, 1.3333333333333335E-09, -1.8974358974358987E-11
DataValue, 5, 3.5500000000000005E-13, -8.0000000000000008E-11, -5.855, 5.916666666666668E-12, 1.3333333333333335E-09, 4.2307692307692109E-12
DataValue, 5, 4.5600000000000008E-13, -9.0000000000000012E-11, -5.79, 7.6000000000000015E-12, 1.5000000000000002E-09, 3.0769230769230797E-11
DataValue, 5, 5.9500000000000009E-13, -9.0000000000000012E-11, -5.7250000000000005, 9.916666666666668E-12, 1.5000000000000002E-09, 1.5897435897435903E-11
DataValue, 5, 5.8000000000000005E-13, -8.0000000000000008E-11, -5.66, 9.6666666666666672E-12, 1.3333333333333335E-09, 1.3512820512820526E-10
DataValue, 5, 1.6490000000000001E-12, -9.0000000000000012E-11, -5.5950000000000006, 2.7483333333333337E-11, 1.5000000000000002E-09, 5.1717948717948768E-10
DataValue, 5, 4.614E-12, -8.0000000000000008E-11, -5.53, 7.6900000000000014E-11, 1.3333333333333335E-09, 2.0067948717948738E-09
DataValue, 5, 1.7302000000000002E-11, -8.0000000000000008E-11, -5.4650000000000007, 2.8836666666666672E-10, 1.3333333333333335E-09, 4.2939743589743632E-09
DataValue, 5, 3.8107000000000005E-11, -8.0000000000000008E-11, -5.4, 6.3511666666666678E-10, 1.3333333333333335E-09, 9.7455128205128288E-09
DataValue, 5, 9.3317000000000007E-11, -9.0000000000000012E-11, -5.3350000000000009, 1.5552833333333335E-09, 1.5000000000000002E-09, 2.5626410256410272E-08
DataValue, 5, 2.37993E-10, -8.0000000000000008E-11, -5.2700000000000005, 3.96655E-09, 1.3333333333333335E-09, 5.0288846153845851E-08
DataValue, 5, 4.8557E-10, -8.0000000000000008E-11, -5.205, 8.0928333333333338E-09, 1.3333333333333335E-09, 1.1181756410256419E-07
DataValue, 5, 1.11017E-09, -9.0000000000000012E-11, -5.1400000000000006, 1.8502833333333332E-08, 1.5000000000000002E-09, 2.5548076923076951E-07
DataValue, 5, 2.47832E-09, -8.0000000000000008E-11, -5.075, 4.1305333333333341E-08, 1.3333333333333335E-09, 4.95191025641026E-07
DataValue, 5, 4.97266E-09, -8.0000000000000008E-11, -5.0100000000000007, 8.2877666666666667E-08, 1.3333333333333335E-09, 6.8763846153846208E-07
DataValue, 5, 7.8419E-09, -9.0000000000000012E-11, -4.945, 1.3069833333333334E-07, 1.5000000000000002E-09, 1.3448256410256422E-06
DataValue, 5, 1.54623E-08, -9.0000000000000012E-11, -4.8800000000000008, 2.57705E-07, 1.5000000000000002E-09, 2.6155512820512841E-06
DataValue, 5, 2.8243199999999998E-08, -9.0000000000000012E-11, -4.815, 4.7071999999999997E-07, 1.5000000000000002E-09, 4.5230769230768955E-06
DataValue, 5, 5.0742299999999995E-08, -9.0000000000000012E-11, -4.75, 8.4570499999999994E-07, 1.5000000000000002E-09, 7.54535897435898E-06
DataValue, 5, 8.7096999999999989E-08, -9.0000000000000012E-11, -4.6850000000000005, 1.4516166666666665E-06, 1.5000000000000002E-09, 1.2514320512820526E-05
DataValue, 5, 1.48354E-07, -9.0000000000000012E-11, -4.62, 2.4725666666666669E-06, 1.5000000000000002E-09, 2.3275256410256434E-05
DataValue, 5, 2.68644E-07, -9.0000000000000012E-11, -4.5550000000000006, 4.4774000000000005E-06, 1.5000000000000002E-09, 3.8217692307692338E-05
DataValue, 5, 4.46452E-07, -9.0000000000000012E-11, -4.49, 7.4408666666666668E-06, 1.5000000000000002E-09, 5.8817307692307739E-05
DataValue, 5, 7.27419E-07, -9.0000000000000012E-11, -4.4250000000000007, 1.212365E-05, 1.5000000000000002E-09, 8.7440769230769308E-05
DataValue, 5, 1.12849E-06, -9.0000000000000012E-11, -4.36, 1.8808166666666667E-05, 1.5000000000000002E-09, 0.00013697705128205048
DataValue, 5, 1.7958400000000003E-06, -8.0000000000000008E-11, -4.295, 2.9930666666666671E-05, 1.3333333333333335E-09, 0.00021474615384615406
DataValue, 5, 2.80351E-06, -9.0000000000000012E-11, -4.23, 4.6725166666666671E-05, 1.5000000000000002E-09, 0.00030958846153846182
DataValue, 5, 4.21063E-06, -8.0000000000000008E-11, -4.165, 7.0177166666666676E-05, 1.3333333333333335E-09, 0.00045249358974359022
DataValue, 5, 6.3329600000000008E-06, -8.0000000000000008E-11, -4.1000000000000005, 0.00010554933333333335, 1.3333333333333335E-09, 0.00066047179487179538
DataValue, 5, 9.36231E-06, -9.0000000000000012E-11, -4.035, 0.0001560385, 1.5000000000000002E-09, 0.00089418461538461318
DataValue, 5, 1.3307600000000001E-05, -9.0000000000000012E-11, -3.97, 0.00022179333333333337, 1.5000000000000002E-09, 0.0012268705128205138
DataValue, 5, 1.89319E-05, -8.0000000000000008E-11, -3.9050000000000002, 0.00031553166666666667, 1.3333333333333335E-09, 0.001652141025641027
DataValue, 5, 2.61943E-05, -8.0000000000000008E-11, -3.8400000000000003, 0.00043657166666666671, 1.3333333333333335E-09, 0.0021720641025641048
DataValue, 5, 3.5874E-05, -8.0000000000000008E-11, -3.7750000000000004, 0.00059790000000000006, 1.3333333333333335E-09, 0.0028477307692307721
DataValue, 5, 4.8406600000000005E-05, -9.0000000000000012E-11, -3.7100000000000004, 0.00080677666666666679, 1.5000000000000002E-09, 0.0036775256410256441
DataValue, 5, 6.45587E-05, -9.0000000000000012E-11, -3.6450000000000005, 0.0010759783333333334, 1.5000000000000002E-09, 0.0045970897435897318
DataValue, 5, 8.42639E-05, -9.0000000000000012E-11, -3.58, 0.0014043983333333334, 1.5000000000000002E-09, 0.0056172179487179348
DataValue, 5, 0.000108373, -8.0000000000000008E-11, -3.515, 0.0018062166666666668, 1.3333333333333335E-09, 0.0068612948717948789
DataValue, 5, 0.000137782, -8.0000000000000008E-11, -3.45, 0.002296366666666667, 1.3333333333333335E-09, 0.0083957692307692379
DataValue, 5, 0.00017386000000000002, -8.0000000000000008E-11, -3.3850000000000002, 0.0028976666666666669, 1.3333333333333335E-09, 0.010027820512820519
DataValue, 5, 0.000215999, -9.0000000000000012E-11, -3.3200000000000003, 0.0035999833333333333, 1.5000000000000002E-09, 0.01175525641025642
DataValue, 5, 0.000265551, -8.0000000000000008E-11, -3.2550000000000003, 0.00442585, 1.3333333333333335E-09, 0.013681794871794889
DataValue, 5, 0.00032271700000000003, -8.0000000000000008E-11, -3.1900000000000004, 0.0053786166666666673, 1.3333333333333335E-09, 0.015869871794871808
DataValue, 5, 0.000389336, -9.0000000000000012E-11, -3.1250000000000004, 0.0064889333333333337, 1.5000000000000002E-09, 0.018187692307692259
DataValue, 5, 0.00046458100000000004, -9.0000000000000012E-11, -3.06, 0.0077430166666666673, 1.5000000000000002E-09, 0.020564230769230713
DataValue, 5, 0.000549737, -9.0000000000000012E-11, -2.995, 0.0091622833333333334, 1.5000000000000002E-09, 0.023210897435897462
DataValue, 5, 0.00064562600000000006, -9.0000000000000012E-11, -2.93, 0.010760433333333335, 1.5000000000000002E-09, 0.025866538461538496
DataValue, 5, 0.000751496, -9.0000000000000012E-11, -2.865, 0.012524933333333335, 1.5000000000000002E-09, 0.028613333333333352
DataValue, 5, 0.00086881, -9.0000000000000012E-11, -2.8000000000000003, 0.014480166666666667, 1.5000000000000002E-09, 0.031573205128205169
DataValue, 5, 0.000997767, -9.0000000000000012E-11, -2.7350000000000003, 0.016629450000000004, 1.5000000000000002E-09, 0.034988461538461559
DataValue, 5, 0.00114172, -1.0000000000000002E-10, -2.6700000000000004, 0.019028666666666666, 1.6666666666666669E-09, 0.037732435897435905
DataValue, 5, 0.00129208, -9.0000000000000012E-11, -2.6050000000000004, 0.021534666666666667, 1.5000000000000002E-09, 0.04017051282051274
DataValue, 5, 0.00145505, -9.0000000000000012E-11, -2.54, 0.024250833333333336, 1.5000000000000002E-09, 0.043226923076922989
DataValue, 5, 0.00162925, -9.0000000000000012E-11, -2.475, 0.02715416666666667, 1.5000000000000002E-09, 0.046189743589743613
DataValue, 5, 0.00181533, -1.0000000000000002E-10, -2.41, 0.0302555, 1.6666666666666669E-09, 0.049307692307692365
DataValue, 5, 0.00201385, -1.0000000000000002E-10, -2.345, 0.033564166666666673, 1.6666666666666669E-09, 0.0522423076923077
DataValue, 5, 0.00222282, -9.0000000000000012E-11, -2.2800000000000002, 0.037047, 1.5000000000000002E-09, 0.05522435897435897
DataValue, 5, 0.0024446, -9.0000000000000012E-11, -2.2150000000000003, 0.040743333333333333, 1.5000000000000002E-09, 0.058143589743589831
DataValue, 5, 0.00267634, -1.0000000000000002E-10, -2.1500000000000004, 0.044605666666666668, 1.6666666666666669E-09, 0.06090897435897423
DataValue, 5, 0.00291969, -9.0000000000000012E-11, -2.085, 0.0486615, 1.5000000000000002E-09, 0.0640243589743588
DataValue, 5, 0.00317573, -9.0000000000000012E-11, -2.02, 0.052928833333333335, 1.5000000000000002E-09, 0.066721794871794915
DataValue, 5, 0.00344012, -9.0000000000000012E-11, -1.955, 0.057335333333333335, 1.5000000000000002E-09, 0.069198717948718014
DataValue, 5, 0.00371548, -1.0000000000000002E-10, -1.8900000000000001, 0.06192466666666667, 1.6666666666666669E-09, 0.072274358974359007
DataValue, 5, 0.00400386, -1.0000000000000002E-10, -1.8250000000000002, 0.066731, 1.6666666666666669E-09, 0.074810256410256487
DataValue, 5, 0.004299, -9.0000000000000012E-11, -1.7600000000000002, 0.07165, 1.5000000000000002E-09, 0.077133333333333359
DataValue, 5, 0.0046055, -9.0000000000000012E-11, -1.695, 0.076758333333333345, 1.5000000000000002E-09, 0.0797346153846153
