
SetupTitle, HEMT_transfer
PrimitiveTest, I/V Sweep
TestParameter, Context.MainFrame, B1500A
TestParameter, Channel.UnitType, SMU, SMU, SMU
TestParameter, Channel.Unit, SMU1:MP, SMU2:MC, GNDU:GND
TestParameter, Channel.IName, Id, Ig, Is
TestParameter, Channel.VName, Vd, Vg, Vs
TestParameter, Channel.Mode, V, V, COMMON
TestParameter, Channel.Func, CONST, VAR1, CONST
TestParameter, Channel.Index, 
TestParameter, Channel.Time, 
TestParameter, Measurement.Port.Unit, SMU1:MP, SMU2:MC, GNDU:GND
TestParameter, Measurement.Port.SeriesResistor, NONE, NONE, NONE
TestParameter, Measurement.Port.Filter, ON, ON, ON
TestParameter, Measurement.Port.OutputVoltageComparison, 0, 0, 0
TestParameter, Measurement.Primary.Locus, Single
TestParameter, Measurement.Primary.Scale, LINEAR
TestParameter, Measurement.Primary.Start, -5
TestParameter, Measurement.Primary.Stop, 5
TestParameter, Measurement.Primary.Step, 0.05
TestParameter, Measurement.Primary.Compliance, 0.001
TestParameter, Measurement.Primary.PowerCompliance, 0
TestParameter, Measurement.Aborting.Condition, CONTINUE AT ANY
TestParameter, Measurement.PostOutput.Value, START
TestParameter, Measurement.PostOutput.Retention, OFF
TestParameter, Measurement.Bias.Source, 5, -5, 0
TestParameter, Measurement.Bias.Compliance, 0.1, 0.001, 2
TestParameter, Measurement.Monitor.Unit, SMU1:MP, SMU2:MC, GNDU:GND
TestParameter, Measurement.Monitor.Adc, HR ADC, HS ADC, HR ADC
TestParameter, Measurement.Monitor.Measurement, Compliance Side, Force and Compliance Sides, Compliance Side
TestParameter, Measurement.Monitor.RangingMode, LIMITED, LIMITED, LIMITED
TestParameter, Measurement.Monitor.RangeBoundary, 1nA, 10uA, 1nA
TestParameter, Measurement.Monitor.RangeRating, BY FULL RANGE, BY FULL RANGE, BY FULL RANGE
TestParameter, Measurement.Monitor.RangeRatingCoeff, 50, 50, 50
TestParameter, Measurement.Timing.Hold, 0
TestParameter, Measurement.Timing.Delay, 0
TestParameter, Measurement.Adc.HighSpeed.Mode, PLC
TestParameter, Measurement.Adc.HighSpeed.Coeff, 2
TestParameter, Measurement.Adc.HighResolution.AutoZero, OFF
TestParameter, Measurement.Adc.HighResolution.Mode, PLC
TestParameter, Measurement.Adc.HighResolution.Coeff, 2
TestParameter, Measurement.WaitTime.Source.Coeff, 1
TestParameter, Measurement.WaitTime.Source.Offset, 0
TestParameter, Measurement.WaitTime.Monitor.Coeff, 1
TestParameter, Measurement.WaitTime.Monitor.Offset, 0
TestParameter, Function.User.Name, Id_dens, Ig_dens, gm
TestParameter, Function.User.Unit, A/mm, A/mm, S/mm
TestParameter, Function.User.Definition, Id/0.06, abs(Ig)/0.06, diff(Id_dens,Vg)
TestParameter, Output.Graph.Enabled, true
TestParameter, Output.Graph.AutoScaling, false
TestParameter, Output.Graph.XAxis.Data, Vg
TestParameter, Output.Graph.XAxis.Scale, Linear
TestParameter, Output.Graph.XAxis.Left, -2
TestParameter, Output.Graph.XAxis.Right, 10
TestParameter, Output.Graph.XAxis.RunTimeAutoScale, false
TestParameter, Output.Graph.YAxis.Data, Id_dens, Id_dens, gm, Ig_dens
TestParameter, Output.Graph.YAxis.Scale, Log, Linear, Linear, Log
TestParameter, Output.Graph.YAxis.Bottom, 0, 0, 0, 0
TestParameter, Output.Graph.YAxis.Top, 1, 1, 1, 1
TestParameter, Output.Graph.YAxis.Group, , , , 
TestParameter, Output.Graph.YAxis.RunTimeAutoScale, false, false, false, false
TestParameter, Output.List.Data, Vg, Id_dens, Ig_dens, Vd, gm
TestParameter, AutoAnalysis.Interpolation, false
TestParameter, AutoAnalysis.Line1.Enabled, false
TestParameter, AutoAnalysis.Line1.Type, 1
TestParameter, AutoAnalysis.Line1.Fix, True
TestParameter, AutoAnalysis.Line1.YAxis, 0
TestParameter, AutoAnalysis.Line1.Point1.Type, 0
TestParameter, AutoAnalysis.Line1.Point1.XY.X, 
TestParameter, AutoAnalysis.Line1.Point1.XY.Y, 
TestParameter, AutoAnalysis.Line1.Point1.Data.Var, 
TestParameter, AutoAnalysis.Line1.Point1.Data.Condition, 
TestParameter, AutoAnalysis.Line1.Point1.Data.Start, false
TestParameter, AutoAnalysis.Line1.Point1.Data.StartVar, 
TestParameter, AutoAnalysis.Line1.Point1.Data.StartCondition, 
TestParameter, AutoAnalysis.Line1.Point2.Type, 0
TestParameter, AutoAnalysis.Line1.Point2.XY.X, 
TestParameter, AutoAnalysis.Line1.Point2.XY.Y, 
TestParameter, AutoAnalysis.Line1.Point2.Data.Var, 
TestParameter, AutoAnalysis.Line1.Point2.Data.Condition, 
TestParameter, AutoAnalysis.Line1.Point2.Data.Start, false
TestParameter, AutoAnalysis.Line1.Point2.Data.StartVar, 
TestParameter, AutoAnalysis.Line1.Point2.Data.StartCondition, 
TestParameter, AutoAnalysis.Line1.GradientExpr, 0
TestParameter, AutoAnalysis.Line2.Enabled, false
TestParameter, AutoAnalysis.Line2.Type, 1
TestParameter, AutoAnalysis.Line2.Fix, True
TestParameter, AutoAnalysis.Line2.YAxis, 0
TestParameter, AutoAnalysis.Line2.Point1.Type, 0
TestParameter, AutoAnalysis.Line2.Point1.XY.X, 
TestParameter, AutoAnalysis.Line2.Point1.XY.Y, 
TestParameter, AutoAnalysis.Line2.Point1.Data.Var, 
TestParameter, AutoAnalysis.Line2.Point1.Data.Condition, 
TestParameter, AutoAnalysis.Line2.Point1.Data.Start, false
TestParameter, AutoAnalysis.Line2.Point1.Data.StartVar, 
TestParameter, AutoAnalysis.Line2.Point1.Data.StartCondition, 
TestParameter, AutoAnalysis.Line2.Point2.Type, 0
TestParameter, AutoAnalysis.Line2.Point2.XY.X, 
TestParameter, AutoAnalysis.Line2.Point2.XY.Y, 
TestParameter, AutoAnalysis.Line2.Point2.Data.Var, 
TestParameter, AutoAnalysis.Line2.Point2.Data.Condition, 
TestParameter, AutoAnalysis.Line2.Point2.Data.Start, false
TestParameter, AutoAnalysis.Line2.Point2.Data.StartVar, 
TestParameter, AutoAnalysis.Line2.Point2.Data.StartCondition, 
TestParameter, AutoAnalysis.Line2.GradientExpr, 0
TestParameter, AutoAnalysis.Marker.Enabled, false
TestParameter, AutoAnalysis.Marker.Data.Var, 
TestParameter, AutoAnalysis.Marker.Data.Condition, 
TestParameter, AutoAnalysis.Marker.Data.Start, false
TestParameter, AutoAnalysis.Marker.Data.StartVar, 
TestParameter, AutoAnalysis.Marker.Data.StartCondition, 
MetaData, TestRecord.EntryPoint, true
MetaData, TestRecord.RecordTime, 08/16/2019 16:12:48
MetaData, TestRecord.TestTarget, 
MetaData, TestRecord.IterationIndex, 1
MetaData, TestRecord.Preservation, true
MetaData, TestRecord.Flag, #
MetaData, TestRecord.Remarks, #089_LPCVD_trigate_die3_r2c2_W400
MetaData, TestRecord.LinkKey, 60278932-3528-4013-b2df-a031e44a2056
Dimension1, 201, 201, 201, 201, 201, 201, 201
Dimension2, 1, 1, 1, 1, 1, 1, 1
DataName, Vd, Id, Ig, Vg, Id_dens, Ig_dens, gm
DataValue, 5, 2.2834000000000002E-11, -2.2000000000000002E-10, -5, 3.8056666666666672E-10, 3.6666666666666672E-09, -2.3510000000000089E-09
DataValue, 5, 1.5781E-11, -1.5000000000000003E-10, -4.95, 2.6301666666666669E-10, 2.5000000000000005E-09, -1.5438333333333389E-09
DataValue, 5, 1.3571000000000002E-11, -1.3000000000000002E-10, -4.9, 2.2618333333333339E-10, 2.166666666666667E-09, -5.7316666666666877E-10
DataValue, 5, 1.2342E-11, -1.4E-10, -4.8500000000000005, 2.0570000000000002E-10, 2.3333333333333335E-09, -3.5900000000000155E-10
DataValue, 5, 1.1417000000000001E-11, -1.3000000000000002E-10, -4.8000000000000007, 1.9028333333333336E-10, 2.166666666666667E-09, -2.5433333333333194E-10
DataValue, 5, 1.0816E-11, -1.3000000000000002E-10, -4.75, 1.802666666666667E-10, 2.166666666666667E-09, -2.2649999999999873E-10
DataValue, 5, 1.0058000000000001E-11, -1.3000000000000002E-10, -4.7, 1.6763333333333336E-10, 2.166666666666667E-09, -1.6216666666666735E-10
DataValue, 5, 9.843E-12, -1.3000000000000002E-10, -4.65, 1.6405000000000002E-10, 2.166666666666667E-09, -7.2333333333333807E-11
DataValue, 5, 9.624E-12, -1.3000000000000002E-10, -4.6000000000000005, 1.604E-10, 2.166666666666667E-09, -1.2400000000000048E-10
DataValue, 5, 9.099E-12, -1.3000000000000002E-10, -4.5500000000000007, 1.5165000000000001E-10, 2.166666666666667E-09, -1.528333333333326E-10
DataValue, 5, 8.707E-12, -1.3000000000000002E-10, -4.5, 1.4511666666666667E-10, 2.166666666666667E-09, -1.1799999999999939E-10
DataValue, 5, 8.391E-12, -1.2E-10, -4.45, 1.3985000000000001E-10, 2E-09, -9.5833333333333338E-11
DataValue, 5, 8.1320000000000013E-12, -1.3000000000000002E-10, -4.4, 1.3553333333333337E-10, 2.166666666666667E-09, -1.1450000000000037E-10
DataValue, 5, 7.704E-12, -1.2E-10, -4.3500000000000005, 1.2840000000000002E-10, 2E-09, -1.2033333333333398E-10
DataValue, 5, 7.41E-12, -1.2E-10, -4.3000000000000007, 1.2350000000000001E-10, 2E-09, -5.2833333333333228E-11
DataValue, 5, 7.387E-12, -1.2E-10, -4.25, 1.2311666666666667E-10, 2E-09, -2.2666666666666521E-11
DataValue, 5, 7.2740000000000007E-12, -1.2E-10, -4.2, 1.2123333333333335E-10, 2E-09, -8.1833333333333516E-11
DataValue, 5, 6.8960000000000005E-12, -1.1000000000000001E-10, -4.15, 1.1493333333333334E-10, 1.8333333333333336E-09, -9.6166666666667033E-11
DataValue, 5, 6.697E-12, -1.2E-10, -4.1000000000000005, 1.1161666666666668E-10, 2E-09, -2.1500000000000081E-11
DataValue, 5, 6.7670000000000005E-12, -1.2E-10, -4.0500000000000007, 1.1278333333333334E-10, 2E-09, -1.666666666666652E-12
DataValue, 5, 6.6870000000000009E-12, -1.2E-10, -4, 1.1145000000000001E-10, 2E-09, -4.5999999999999777E-11
DataValue, 5, 6.4910000000000005E-12, -1.2E-10, -3.95, 1.0818333333333334E-10, 2E-09, -3.7833333333333442E-11
DataValue, 5, 6.46E-12, -1.2E-10, -3.9000000000000004, 1.0766666666666668E-10, 2E-09, 1.8666666666666903E-11
DataValue, 5, 6.6030000000000008E-12, -1.2E-10, -3.8500000000000005, 1.1005000000000002E-10, 2E-09, 5.6666666666666678E-11
DataValue, 5, 6.8000000000000009E-12, -1.2E-10, -3.8000000000000003, 1.1333333333333336E-10, 2E-09, 2.8483333333333307E-10
DataValue, 5, 8.3120000000000009E-12, -1.2E-10, -3.7500000000000004, 1.3853333333333336E-10, 2E-09, 2.0611666666666649E-09
DataValue, 5, 1.9167E-11, -1.1000000000000001E-10, -3.7, 3.1945E-10, 1.8333333333333336E-09, 1.2043166666666657E-08
DataValue, 5, 8.0571000000000008E-11, -1.1000000000000001E-10, -3.6500000000000004, 1.3428500000000002E-09, 1.8333333333333336E-09, 6.4285666666666615E-08
DataValue, 5, 4.04881E-10, -1.0000000000000002E-10, -3.6, 6.7480166666666667E-09, 1.6666666666666669E-09, 3.5446149999999968E-07
DataValue, 5, 2.20734E-09, -1.0000000000000002E-10, -3.5500000000000003, 3.6789E-08, 1.6666666666666669E-09, 1.9284031666666737E-06
DataValue, 5, 1.19753E-08, -1.1000000000000001E-10, -3.5000000000000004, 1.9958833333333334E-07, 1.8333333333333336E-09, 8.9979766666666581E-06
DataValue, 5, 5.6195199999999992E-08, -1.0000000000000002E-10, -3.45, 9.3658666666666657E-07, 1.6666666666666669E-09, 3.8572616666666633E-05
DataValue, 5, 2.43411E-07, -1.0000000000000002E-10, -3.4000000000000004, 4.05685E-06, 1.6666666666666669E-09, 0.00013305863333333321
DataValue, 5, 8.54547E-07, -1.0000000000000002E-10, -3.35, 1.424245E-05, 1.6666666666666669E-09, 0.00037951816666666644
DataValue, 5, 2.5205200000000004E-06, -1.0000000000000002E-10, -3.3000000000000003, 4.2008666666666677E-05, 1.6666666666666669E-09, 0.00092473050000000355
DataValue, 5, 6.4029300000000005E-06, -1.0000000000000002E-10, -3.2500000000000004, 0.00010671550000000002, 1.6666666666666669E-09, 0.0020039966666666651
DataValue, 5, 1.4544500000000001E-05, -1.0000000000000002E-10, -3.2, 0.00024240833333333335, 1.6666666666666669E-09, 0.0036064783333333303
DataValue, 5, 2.80418E-05, -1.0000000000000002E-10, -3.1500000000000004, 0.00046736333333333337, 1.6666666666666669E-09, 0.0059368833333333284
DataValue, 5, 5.01658E-05, -1.0000000000000002E-10, -3.1, 0.00083609666666666668, 1.6666666666666669E-09, 0.0090496999999999939
DataValue, 5, 8.234E-05, -1.0000000000000002E-10, -3.0500000000000003, 0.0013723333333333335, 1.6666666666666669E-09, 0.01281620000000005
DataValue, 5, 0.000127063, -9.0000000000000012E-11, -3.0000000000000004, 0.0021177166666666671, 1.5000000000000002E-09, 0.016470999999999989
DataValue, 5, 0.00018116600000000002, -1.0000000000000002E-10, -2.95, 0.0030194333333333338, 1.6666666666666669E-09, 0.019934833333333318
DataValue, 5, 0.000246672, -1.0000000000000002E-10, -2.9000000000000004, 0.0041112000000000006, 1.6666666666666669E-09, 0.023941999999999984
DataValue, 5, 0.00032481800000000005, -1.0000000000000002E-10, -2.85, 0.0054136333333333342, 1.6666666666666669E-09, 0.027873999999999972
DataValue, 5, 0.000413916, -1.0000000000000002E-10, -2.8000000000000003, 0.0068986, 1.6666666666666669E-09, 0.031905000000000121
DataValue, 5, 0.00051624800000000008, -9.0000000000000012E-11, -2.7500000000000004, 0.0086041333333333348, 1.5000000000000002E-09, 0.035534499999999976
DataValue, 5, 0.000627123, -9.0000000000000012E-11, -2.7, 0.010452050000000001, 1.5000000000000002E-09, 0.038785499999999966
DataValue, 5, 0.000748961, -9.0000000000000012E-11, -2.6500000000000004, 0.012482683333333335, 1.5000000000000002E-09, 0.04214216666666664
DataValue, 5, 0.00087997600000000009, -9.0000000000000012E-11, -2.6, 0.014666266666666669, 1.5000000000000002E-09, 0.04550849999999998
DataValue, 5, 0.001022012, -9.0000000000000012E-11, -2.5500000000000003, 0.017033533333333337, 1.5000000000000002E-09, 0.049012333333333283
DataValue, 5, 0.00117405, -9.0000000000000012E-11, -2.5, 0.0195675, 1.5000000000000002E-09, 0.051572999999999952
DataValue, 5, 0.00133145, -9.0000000000000012E-11, -2.45, 0.022190833333333337, 1.5000000000000002E-09, 0.053758333333333526
DataValue, 5, 0.0014966, -9.0000000000000012E-11, -2.4000000000000004, 0.024943333333333335, 1.5000000000000002E-09, 0.05625333333333328
DataValue, 5, 0.00166897, -9.0000000000000012E-11, -2.35, 0.02781616666666667, 1.5000000000000002E-09, 0.05893666666666663
DataValue, 5, 0.00185022, -9.0000000000000012E-11, -2.3000000000000003, 0.030837000000000003, 1.5000000000000002E-09, 0.06129999999999998
DataValue, 5, 0.0020367700000000002, -9.0000000000000012E-11, -2.25, 0.033946166666666673, 1.5000000000000002E-09, 0.063378333333333217
DataValue, 5, 0.00223049, -9.0000000000000012E-11, -2.2, 0.037174833333333331, 1.5000000000000002E-09, 0.065613333333333593
DataValue, 5, 0.0024304500000000002, -8.0000000000000008E-11, -2.1500000000000004, 0.040507500000000009, 1.3333333333333335E-09, 0.067456666666666651
DataValue, 5, 0.00263523, -8.0000000000000008E-11, -2.1, 0.0439205, 1.3333333333333335E-09, 0.0696016666666665
DataValue, 5, 0.00284806, -8.0000000000000008E-11, -2.0500000000000003, 0.047467666666666665, 1.3333333333333335E-09, 0.071479999999999946
DataValue, 5, 0.00306411, -9.0000000000000012E-11, -2, 0.0510685, 1.5000000000000002E-09, 0.073114999999999986
DataValue, 5, 0.00328675, -8.0000000000000008E-11, -1.9500000000000002, 0.05477916666666667, 1.3333333333333335E-09, 0.074635000000000076
DataValue, 5, 0.00351192, -8.0000000000000008E-11, -1.9000000000000001, 0.058532, 1.3333333333333335E-09, 0.076079999999999967
DataValue, 5, 0.00374323, -9.0000000000000012E-11, -1.85, 0.062387166666666674, 1.5000000000000002E-09, 0.07805
DataValue, 5, 0.0039802200000000005, -9.0000000000000012E-11, -1.8, 0.066337000000000007, 1.5000000000000002E-09, 0.079310000000000047
DataValue, 5, 0.00421909, -8.0000000000000008E-11, -1.7500000000000002, 0.070318166666666668, 1.3333333333333335E-09, 0.0802816666666668
DataValue, 5, 0.00446191, -8.0000000000000008E-11, -1.7000000000000002, 0.074365166666666677, 1.3333333333333335E-09, 0.0819683333333334
DataValue, 5, 0.0047109000000000005, -9.0000000000000012E-11, -1.6500000000000001, 0.078515000000000015, 1.5000000000000002E-09, 0.083418333333333192
DataValue, 5, 0.00496242, -8.0000000000000008E-11, -1.6, 0.082707, 1.3333333333333335E-09, 0.0845433333333332
DataValue, 5, 0.00521816, -8.0000000000000008E-11, -1.55, 0.086969333333333343, 1.3333333333333335E-09, 0.085881666666666856
DataValue, 5, 0.00547771, -8.0000000000000008E-11, -1.5000000000000002, 0.091295166666666677, 1.3333333333333335E-09, 0.086851666666666716
DataValue, 5, 0.00573927, -8.0000000000000008E-11, -1.4500000000000002, 0.0956545, 1.3333333333333335E-09, 0.087913333333333232
DataValue, 5, 0.0060051900000000005, -7E-11, -1.4000000000000001, 0.10008650000000001, 1.1666666666666668E-09, 0.089274999999999827
DataValue, 5, 0.00627492, -8.0000000000000008E-11, -1.35, 0.104582, 1.3333333333333335E-09, 0.089746666666666641
DataValue, 5, 0.0065436700000000006, -7E-11, -1.3, 0.10906116666666668, 1.1666666666666668E-09, 0.090505000000000085
DataValue, 5, 0.0068179500000000006, -7E-11, -1.25, 0.11363250000000001, 1.1666666666666668E-09, 0.091875
DataValue, 5, 0.00709492, -7E-11, -1.2000000000000002, 0.11824866666666667, 1.1666666666666668E-09, 0.092460000000000028
DataValue, 5, 0.00737271, -7E-11, -1.1500000000000001, 0.1228785, 1.1666666666666668E-09, 0.093119999999999786
DataValue, 5, 0.00765364, -8.0000000000000008E-11, -1.1, 0.12756066666666666, 1.3333333333333335E-09, 0.094060000000000171
DataValue, 5, 0.0079370700000000009, -8.0000000000000008E-11, -1.05, 0.13228450000000003, 1.3333333333333335E-09, 0.094918333333333577
DataValue, 5, 0.00822315, -7E-11, -1, 0.13705250000000002, 1.1666666666666668E-09, 0.095520000000000077
DataValue, 5, 0.00851019, -7E-11, -0.95000000000000007, 0.14183650000000003, 1.1666666666666668E-09, 0.096481666666666549
DataValue, 5, 0.00880204, -7E-11, -0.9, 0.14670066666666667, 1.1666666666666668E-09, 0.09717666666666655
DataValue, 5, 0.00909325, -7E-11, -0.85000000000000009, 0.15155416666666668, 1.1666666666666668E-09, 0.097425000000000178
DataValue, 5, 0.00938659, -7E-11, -0.8, 0.15644316666666669, 1.1666666666666668E-09, 0.09841499999999978
DataValue, 5, 0.00968374, -7E-11, -0.75000000000000011, 0.16139566666666666, 1.1666666666666668E-09, 0.099051666666666621
DataValue, 5, 0.0099809000000000009, -7E-11, -0.70000000000000007, 0.16634833333333335, 1.1666666666666668E-09, 0.099369999999999931
DataValue, 5, 0.01027996, -8.0000000000000008E-11, -0.65, 0.17133266666666666, 1.3333333333333335E-09, 0.10008333333333316
DataValue, 5, 0.0105814, -8.0000000000000008E-11, -0.60000000000000009, 0.17635666666666666, 1.3333333333333335E-09, 0.10073500000000016
DataValue, 5, 0.01088437, -7E-11, -0.55, 0.18140616666666667, 1.1666666666666668E-09, 0.10089333333333331
DataValue, 5, 0.01118676, -7E-11, -0.5, 0.186446, 1.1666666666666668E-09, 0.10503833333333347
DataValue, 5, 0.011514600000000002, -8.0000000000000008E-11, -0.45, 0.19191000000000003, 1.3333333333333335E-09, 0.10507333333333371
DataValue, 5, 0.011817200000000002, -8.0000000000000008E-11, -0.4, 0.19695333333333337, 1.3333333333333335E-09, 0.10153333333333323
DataValue, 5, 0.0121238, -7E-11, -0.35000000000000003, 0.20206333333333335, 1.1666666666666668E-09, 0.10264999999999999
DataValue, 5, 0.0124331, -8.0000000000000008E-11, -0.30000000000000004, 0.20721833333333337, 1.3333333333333335E-09, 0.10265000000000021
DataValue, 5, 0.012739700000000001, -8.0000000000000008E-11, -0.25, 0.21232833333333337, 1.3333333333333335E-09, 0.10284999999999986
DataValue, 5, 0.013050200000000001, -7E-11, -0.2, 0.21750333333333335, 1.1666666666666668E-09, 0.10366666666666666
DataValue, 5, 0.0133617, -8.0000000000000008E-11, -0.15000000000000002, 0.22269500000000003, 1.3333333333333335E-09, 0.10353333333333353
DataValue, 5, 0.013671400000000002, -7E-11, -0.1, 0.22785666666666671, 1.1666666666666668E-09, 0.10353333333333324
DataValue, 5, 0.013982900000000001, -7E-11, -0.05, 0.23304833333333336, 1.1666666666666668E-09, 0.10340000000000016
DataValue, 5, 0.014291800000000002, -7E-11, 0, 0.23819666666666672, 1.1666666666666668E-09, 0.10300000000000004
DataValue, 5, 0.014600900000000002, -7E-11, 0.05, 0.24334833333333336, 1.1666666666666668E-09, 0.10304999999999953
DataValue, 5, 0.0149101, -7E-11, 0.1, 0.24850166666666668, 1.1666666666666668E-09, 0.10264999999999995
DataValue, 5, 0.0152168, -7E-11, 0.15000000000000002, 0.25361333333333336, 1.1666666666666668E-09, 0.10156666666666703
DataValue, 5, 0.015519500000000002, -6E-11, 0.2, 0.25865833333333338, 1E-09, 0.10054999999999983
DataValue, 5, 0.0158201, -7E-11, 0.25, 0.26366833333333334, 1.1666666666666668E-09, 0.099816666666666637
DataValue, 5, 0.0161184, -7E-11, 0.30000000000000004, 0.26864000000000005, 1.1666666666666668E-09, 0.098750000000000754
