
SetupTitle, HEMT_transfer
PrimitiveTest, I/V Sweep
TestParameter, Context.MainFrame, B1500A
TestParameter, Channel.UnitType, SMU, SMU, SMU
TestParameter, Channel.Unit, SMU1:MP, SMU2:MC, GNDU:GND
TestParameter, Channel.IName, Id, Ig, Is
TestParameter, Channel.VName, Vd, Vg, Vs
TestParameter, Channel.Mode, V, V, COMMON
TestParameter, Channel.Func, CONST, VAR1, CONST
TestParameter, Channel.Index, 
TestParameter, Channel.Time, 
TestParameter, Measurement.Port.Unit, SMU1:MP, SMU2:MC, GNDU:GND
TestParameter, Measurement.Port.SeriesResistor, NONE, NONE, NONE
TestParameter, Measurement.Port.Filter, ON, ON, ON
TestParameter, Measurement.Port.OutputVoltageComparison, 0, 0, 0
TestParameter, Measurement.Primary.Locus, Single
TestParameter, Measurement.Primary.Scale, LINEAR
TestParameter, Measurement.Primary.Start, -5
TestParameter, Measurement.Primary.Stop, 5
TestParameter, Measurement.Primary.Step, 0.05
TestParameter, Measurement.Primary.Compliance, 0.001
TestParameter, Measurement.Primary.PowerCompliance, 0
TestParameter, Measurement.Aborting.Condition, CONTINUE AT ANY
TestParameter, Measurement.PostOutput.Value, START
TestParameter, Measurement.PostOutput.Retention, OFF
TestParameter, Measurement.Bias.Source, 5, -5, 0
TestParameter, Measurement.Bias.Compliance, 0.1, 0.001, 2
TestParameter, Measurement.Monitor.Unit, SMU1:MP, SMU2:MC, GNDU:GND
TestParameter, Measurement.Monitor.Adc, HR ADC, HS ADC, HR ADC
TestParameter, Measurement.Monitor.Measurement, Compliance Side, Force and Compliance Sides, Compliance Side
TestParameter, Measurement.Monitor.RangingMode, LIMITED, LIMITED, LIMITED
TestParameter, Measurement.Monitor.RangeBoundary, 1nA, 10uA, 1nA
TestParameter, Measurement.Monitor.RangeRating, BY FULL RANGE, BY FULL RANGE, BY FULL RANGE
TestParameter, Measurement.Monitor.RangeRatingCoeff, 50, 50, 50
TestParameter, Measurement.Timing.Hold, 0
TestParameter, Measurement.Timing.Delay, 0
TestParameter, Measurement.Adc.HighSpeed.Mode, PLC
TestParameter, Measurement.Adc.HighSpeed.Coeff, 2
TestParameter, Measurement.Adc.HighResolution.AutoZero, OFF
TestParameter, Measurement.Adc.HighResolution.Mode, PLC
TestParameter, Measurement.Adc.HighResolution.Coeff, 2
TestParameter, Measurement.WaitTime.Source.Coeff, 1
TestParameter, Measurement.WaitTime.Source.Offset, 0
TestParameter, Measurement.WaitTime.Monitor.Coeff, 1
TestParameter, Measurement.WaitTime.Monitor.Offset, 0
TestParameter, Function.User.Name, Id_dens, Ig_dens, gm
TestParameter, Function.User.Unit, A/mm, A/mm, S/mm
TestParameter, Function.User.Definition, Id/0.06, abs(Ig)/0.06, diff(Id_dens,Vg)
TestParameter, Output.Graph.Enabled, true
TestParameter, Output.Graph.AutoScaling, false
TestParameter, Output.Graph.XAxis.Data, Vg
TestParameter, Output.Graph.XAxis.Scale, Linear
TestParameter, Output.Graph.XAxis.Left, -2
TestParameter, Output.Graph.XAxis.Right, 10
TestParameter, Output.Graph.XAxis.RunTimeAutoScale, false
TestParameter, Output.Graph.YAxis.Data, Id_dens, Id_dens, gm, Ig_dens
TestParameter, Output.Graph.YAxis.Scale, Log, Linear, Linear, Log
TestParameter, Output.Graph.YAxis.Bottom, 0, 0, 0, 0
TestParameter, Output.Graph.YAxis.Top, 1, 1, 1, 1
TestParameter, Output.Graph.YAxis.Group, , , , 
TestParameter, Output.Graph.YAxis.RunTimeAutoScale, false, false, false, false
TestParameter, Output.List.Data, Vg, Id_dens, Ig_dens, Vd, gm
TestParameter, AutoAnalysis.Interpolation, false
TestParameter, AutoAnalysis.Line1.Enabled, false
TestParameter, AutoAnalysis.Line1.Type, 1
TestParameter, AutoAnalysis.Line1.Fix, True
TestParameter, AutoAnalysis.Line1.YAxis, 0
TestParameter, AutoAnalysis.Line1.Point1.Type, 0
TestParameter, AutoAnalysis.Line1.Point1.XY.X, 
TestParameter, AutoAnalysis.Line1.Point1.XY.Y, 
TestParameter, AutoAnalysis.Line1.Point1.Data.Var, 
TestParameter, AutoAnalysis.Line1.Point1.Data.Condition, 
TestParameter, AutoAnalysis.Line1.Point1.Data.Start, false
TestParameter, AutoAnalysis.Line1.Point1.Data.StartVar, 
TestParameter, AutoAnalysis.Line1.Point1.Data.StartCondition, 
TestParameter, AutoAnalysis.Line1.Point2.Type, 0
TestParameter, AutoAnalysis.Line1.Point2.XY.X, 
TestParameter, AutoAnalysis.Line1.Point2.XY.Y, 
TestParameter, AutoAnalysis.Line1.Point2.Data.Var, 
TestParameter, AutoAnalysis.Line1.Point2.Data.Condition, 
TestParameter, AutoAnalysis.Line1.Point2.Data.Start, false
TestParameter, AutoAnalysis.Line1.Point2.Data.StartVar, 
TestParameter, AutoAnalysis.Line1.Point2.Data.StartCondition, 
TestParameter, AutoAnalysis.Line1.GradientExpr, 0
TestParameter, AutoAnalysis.Line2.Enabled, false
TestParameter, AutoAnalysis.Line2.Type, 1
TestParameter, AutoAnalysis.Line2.Fix, True
TestParameter, AutoAnalysis.Line2.YAxis, 0
TestParameter, AutoAnalysis.Line2.Point1.Type, 0
TestParameter, AutoAnalysis.Line2.Point1.XY.X, 
TestParameter, AutoAnalysis.Line2.Point1.XY.Y, 
TestParameter, AutoAnalysis.Line2.Point1.Data.Var, 
TestParameter, AutoAnalysis.Line2.Point1.Data.Condition, 
TestParameter, AutoAnalysis.Line2.Point1.Data.Start, false
TestParameter, AutoAnalysis.Line2.Point1.Data.StartVar, 
TestParameter, AutoAnalysis.Line2.Point1.Data.StartCondition, 
TestParameter, AutoAnalysis.Line2.Point2.Type, 0
TestParameter, AutoAnalysis.Line2.Point2.XY.X, 
TestParameter, AutoAnalysis.Line2.Point2.XY.Y, 
TestParameter, AutoAnalysis.Line2.Point2.Data.Var, 
TestParameter, AutoAnalysis.Line2.Point2.Data.Condition, 
TestParameter, AutoAnalysis.Line2.Point2.Data.Start, false
TestParameter, AutoAnalysis.Line2.Point2.Data.StartVar, 
TestParameter, AutoAnalysis.Line2.Point2.Data.StartCondition, 
TestParameter, AutoAnalysis.Line2.GradientExpr, 0
TestParameter, AutoAnalysis.Marker.Enabled, false
TestParameter, AutoAnalysis.Marker.Data.Var, 
TestParameter, AutoAnalysis.Marker.Data.Condition, 
TestParameter, AutoAnalysis.Marker.Data.Start, false
TestParameter, AutoAnalysis.Marker.Data.StartVar, 
TestParameter, AutoAnalysis.Marker.Data.StartCondition, 
MetaData, TestRecord.EntryPoint, true
MetaData, TestRecord.RecordTime, 08/14/2019 13:40:16
MetaData, TestRecord.TestTarget, 
MetaData, TestRecord.IterationIndex, 3
MetaData, TestRecord.Preservation, true
MetaData, TestRecord.Flag, #
MetaData, TestRecord.Remarks, #188_F_implant_5nm_cap_die2_r3c3_W20_S70
MetaData, TestRecord.LinkKey, 7bb1e77c-7da6-493f-ae2c-825e2af85d66
Dimension1, 201, 201, 201, 201, 201, 201, 201
Dimension2, 1, 1, 1, 1, 1, 1, 1
DataName, Vd, Id, Ig, Vg, Id_dens, Ig_dens, gm
DataValue, 5, 1.9900000000000002E-12, -1.5000000000000003E-10, -5, 3.3166666666666668E-11, 2.5000000000000005E-09, -1.84333333333334E-10
DataValue, 5, 1.437E-12, -1.0000000000000002E-10, -4.95, 2.3950000000000002E-11, 1.6666666666666669E-09, -9.7333333333333682E-11
DataValue, 5, 1.406E-12, -9.0000000000000012E-11, -4.9, 2.3433333333333335E-11, 1.5000000000000002E-09, -1.100000000000002E-11
DataValue, 5, 1.3710000000000001E-12, -9.0000000000000012E-11, -4.8500000000000005, 2.2850000000000004E-11, 1.5000000000000002E-09, -3.5500000000000129E-11
DataValue, 5, 1.193E-12, -9.0000000000000012E-11, -4.8000000000000007, 1.9883333333333335E-11, 1.5000000000000002E-09, -6.6166666666666322E-11
DataValue, 5, 9.74E-13, -9.0000000000000012E-11, -4.75, 1.6233333333333337E-11, 1.5000000000000002E-09, -2.2166666666666529E-11
DataValue, 5, 1.0600000000000001E-12, -8.0000000000000008E-11, -4.7, 1.766666666666667E-11, 1.3333333333333335E-09, 8.3333333333333336E-12
DataValue, 5, 1.024E-12, -1.0000000000000002E-10, -4.65, 1.7066666666666667E-11, 1.6666666666666669E-09, -4.8333333333333465E-12
DataValue, 5, 1.0310000000000002E-12, -9.0000000000000012E-11, -4.6000000000000005, 1.7183333333333337E-11, 1.5000000000000002E-09, -3.5333333333333438E-11
DataValue, 5, 8.1200000000000007E-13, -9.0000000000000012E-11, -4.5500000000000007, 1.3533333333333336E-11, 1.5000000000000002E-09, -2.733333333333322E-11
DataValue, 5, 8.67E-13, -9.0000000000000012E-11, -4.5, 1.4450000000000001E-11, 1.5000000000000002E-09, 3.5666666666666466E-11
DataValue, 5, 1.026E-12, -8.0000000000000008E-11, -4.45, 1.71E-11, 1.3333333333333335E-09, -1.3333333333333269E-12
DataValue, 5, 8.5900000000000008E-13, -9.0000000000000012E-11, -4.4, 1.4316666666666669E-11, 1.5000000000000002E-09, -3.6000000000000121E-11
DataValue, 5, 8.1000000000000008E-13, -9.0000000000000012E-11, -4.3500000000000005, 1.3500000000000002E-11, 1.5000000000000002E-09, -3.6166666666666787E-11
DataValue, 5, 6.4200000000000009E-13, -9.0000000000000012E-11, -4.3000000000000007, 1.0700000000000003E-11, 1.5000000000000002E-09, -1.766666666666658E-11
DataValue, 5, 7.04E-13, -9.0000000000000012E-11, -4.25, 1.1733333333333335E-11, 1.5000000000000002E-09, 1.9999999999999889E-11
DataValue, 5, 7.6200000000000009E-13, -9.0000000000000012E-11, -4.2, 1.2700000000000002E-11, 1.5000000000000002E-09, 1.3500000000000054E-11
DataValue, 5, 7.8500000000000009E-13, -9.0000000000000012E-11, -4.15, 1.3083333333333335E-11, 1.5000000000000002E-09, -3.8666666666666805E-11
DataValue, 5, 5.3000000000000006E-13, -8.0000000000000008E-11, -4.1000000000000005, 8.8333333333333351E-12, 1.3333333333333335E-09, 9.33333333333337E-12
DataValue, 5, 8.4100000000000005E-13, -9.0000000000000012E-11, -4.0500000000000007, 1.4016666666666669E-11, 1.5000000000000002E-09, 5.2333333333333049E-11
DataValue, 5, 8.44E-13, -9.0000000000000012E-11, -4, 1.4066666666666668E-11, 1.5000000000000002E-09, -1.5333333333333255E-11
DataValue, 5, 7.49E-13, -9.0000000000000012E-11, -3.95, 1.2483333333333335E-11, 1.5000000000000002E-09, -5.5500000000000196E-11
DataValue, 5, 5.11E-13, -9.0000000000000012E-11, -3.9000000000000004, 8.5166666666666683E-12, 1.5000000000000002E-09, -4.2500000000000163E-11
DataValue, 5, 4.94E-13, -9.0000000000000012E-11, -3.8500000000000005, 8.2333333333333337E-12, 1.5000000000000002E-09, 2.2833333333333306E-11
DataValue, 5, 6.4800000000000007E-13, -9.0000000000000012E-11, -3.8000000000000003, 1.0800000000000001E-11, 1.5000000000000002E-09, 2.3999999999999972E-11
DataValue, 5, 6.38E-13, -9.0000000000000012E-11, -3.7500000000000004, 1.0633333333333333E-11, 1.5000000000000002E-09, 5.3333333333333327E-12
DataValue, 5, 6.8E-13, -9.0000000000000012E-11, -3.7, 1.1333333333333335E-11, 1.5000000000000002E-09, -9.9999999999999735E-12
DataValue, 5, 5.7800000000000006E-13, -9.0000000000000012E-11, -3.6500000000000004, 9.633333333333335E-12, 1.5000000000000002E-09, -2.0333333333333315E-11
DataValue, 5, 5.58E-13, -9.0000000000000012E-11, -3.6, 9.3000000000000012E-12, 1.5000000000000002E-09, 5.0333333333333282E-11
DataValue, 5, 8.8000000000000009E-13, -8.0000000000000008E-11, -3.5500000000000003, 1.4666666666666668E-11, 1.3333333333333335E-09, -1.1666666666666733E-12
DataValue, 5, 5.5100000000000008E-13, -9.0000000000000012E-11, -3.5000000000000004, 9.1833333333333343E-12, 1.5000000000000002E-09, -5.0333333333333282E-11
DataValue, 5, 5.7800000000000006E-13, -8.0000000000000008E-11, -3.45, 9.633333333333335E-12, 1.3333333333333335E-09, -9.99999999999999E-13
DataValue, 5, 5.45E-13, -8.0000000000000008E-11, -3.4000000000000004, 9.0833333333333343E-12, 1.3333333333333335E-09, -2.4666666666666649E-11
DataValue, 5, 4.3000000000000004E-13, -8.0000000000000008E-11, -3.35, 7.1666666666666678E-12, 1.3333333333333335E-09, 1.0166666666666657E-11
DataValue, 5, 6.06E-13, -8.0000000000000008E-11, -3.3000000000000003, 1.0100000000000001E-11, 1.3333333333333335E-09, -5.1666666666666949E-12
DataValue, 5, 3.99E-13, -8.0000000000000008E-11, -3.2500000000000004, 6.65E-12, 1.3333333333333335E-09, -1.5166666666666653E-11
DataValue, 5, 5.15E-13, -9.0000000000000012E-11, -3.2, 8.5833333333333344E-12, 1.5000000000000002E-09, 4.4833333333333308E-11
DataValue, 5, 6.6800000000000008E-13, -8.0000000000000008E-11, -3.1500000000000004, 1.1133333333333335E-11, 1.3333333333333335E-09, -2.1666666666666507E-12
DataValue, 5, 5.0200000000000008E-13, -9.0000000000000012E-11, -3.1, 8.3666666666666691E-12, 1.5000000000000002E-09, -1.4166666666666653E-11
DataValue, 5, 5.83E-13, -9.0000000000000012E-11, -3.0500000000000003, 9.716666666666668E-12, 1.5000000000000002E-09, -1.8500000000000078E-11
DataValue, 5, 3.9100000000000005E-13, -9.0000000000000012E-11, -3.0000000000000004, 6.5166666666666679E-12, 1.5000000000000002E-09, -3.1499999999999975E-11
DataValue, 5, 3.9400000000000004E-13, -9.0000000000000012E-11, -2.95, 6.5666666666666679E-12, 1.5000000000000002E-09, 2.0666666666666647E-11
DataValue, 5, 5.15E-13, -9.0000000000000012E-11, -2.9000000000000004, 8.5833333333333344E-12, 1.5000000000000002E-09, -1.0000000000000071E-12
DataValue, 5, 3.88E-13, -9.0000000000000012E-11, -2.85, 6.4666666666666671E-12, 1.5000000000000002E-09, -1.1333333333333327E-11
DataValue, 5, 4.47E-13, -9.0000000000000012E-11, -2.8000000000000003, 7.45E-12, 1.5000000000000002E-09, 3.2000000000000116E-11
DataValue, 5, 5.8000000000000005E-13, -9.0000000000000012E-11, -2.7500000000000004, 9.6666666666666672E-12, 1.5000000000000002E-09, 2.6666666666666744E-12
DataValue, 5, 4.63E-13, -9.0000000000000012E-11, -2.7, 7.7166666666666685E-12, 1.5000000000000002E-09, -3.333333333333319E-12
DataValue, 5, 5.6E-13, -8.0000000000000008E-11, -2.6500000000000004, 9.333333333333335E-12, 1.3333333333333335E-09, -1.6833333333333327E-11
DataValue, 5, 3.62E-13, -9.0000000000000012E-11, -2.6, 6.0333333333333341E-12, 1.5000000000000002E-09, -4.799999999999997E-11
DataValue, 5, 2.72E-13, -9.0000000000000012E-11, -2.5500000000000003, 4.5333333333333337E-12, 1.5000000000000002E-09, 2.0833333333333323E-11
DataValue, 5, 4.87E-13, -9.0000000000000012E-11, -2.5, 8.1166666666666684E-12, 1.5000000000000002E-09, 3.38333333333333E-11
DataValue, 5, 4.75E-13, -9.0000000000000012E-11, -2.45, 7.9166666666666668E-12, 1.5000000000000002E-09, -1.5666666666666729E-11
DataValue, 5, 3.9300000000000004E-13, -8.0000000000000008E-11, -2.4000000000000004, 6.550000000000001E-12, 1.3333333333333335E-09, -9.9999999999999816E-12
DataValue, 5, 4.1500000000000005E-13, -8.0000000000000008E-11, -2.35, 6.9166666666666678E-12, 1.3333333333333335E-09, 3.9999999999999959E-12
DataValue, 5, 4.1700000000000004E-13, -7E-11, -2.3000000000000003, 6.9500000000000009E-12, 1.1666666666666668E-09, 1.8166666666666659E-11
DataValue, 5, 5.2400000000000009E-13, -8.0000000000000008E-11, -2.25, 8.7333333333333352E-12, 1.3333333333333335E-09, -1.4499999999999992E-11
DataValue, 5, 3.3E-13, -8.0000000000000008E-11, -2.2, 5.5E-12, 1.3333333333333335E-09, -4.5500000000000166E-11
DataValue, 5, 2.5100000000000004E-13, -8.0000000000000008E-11, -2.1500000000000004, 4.1833333333333346E-12, 1.3333333333333335E-09, 1.2833333333333325E-11
DataValue, 5, 4.0700000000000003E-13, -8.0000000000000008E-11, -2.1, 6.783333333333334E-12, 1.3333333333333335E-09, 2.7166666666666641E-11
DataValue, 5, 4.1400000000000005E-13, -8.0000000000000008E-11, -2.0500000000000003, 6.9000000000000009E-12, 1.3333333333333335E-09, -1.3999999999999984E-11
DataValue, 5, 3.2300000000000004E-13, -8.0000000000000008E-11, -2, 5.3833333333333343E-12, 1.3333333333333335E-09, -3.6166666666666639E-11
DataValue, 5, 1.9700000000000002E-13, -8.0000000000000008E-11, -1.9500000000000002, 3.283333333333334E-12, 1.3333333333333335E-09, 1.7833333333333359E-11
DataValue, 5, 4.3000000000000004E-13, -8.0000000000000008E-11, -1.9000000000000001, 7.1666666666666678E-12, 1.3333333333333335E-09, 2.4333333333333311E-11
DataValue, 5, 3.43E-13, -8.0000000000000008E-11, -1.85, 5.7166666666666673E-12, 1.3333333333333335E-09, -1.516666666666666E-11
DataValue, 5, 3.39E-13, -8.0000000000000008E-11, -1.8, 5.65E-12, 1.3333333333333335E-09, -9.3333333333333415E-12
DataValue, 5, 2.8700000000000004E-13, -8.0000000000000008E-11, -1.7500000000000002, 4.7833333333333344E-12, 1.3333333333333335E-09, -3.6666666666666734E-12
DataValue, 5, 3.17E-13, -9.0000000000000012E-11, -1.7000000000000002, 5.2833333333333335E-12, 1.5000000000000002E-09, 3.5666666666666647E-11
DataValue, 5, 5.0100000000000009E-13, -8.0000000000000008E-11, -1.6500000000000001, 8.3500000000000022E-12, 1.3333333333333335E-09, 5.3333333333333327E-12
DataValue, 5, 3.4900000000000003E-13, -9.0000000000000012E-11, -1.6, 5.8166666666666673E-12, 1.5000000000000002E-09, -5.18333333333333E-11
DataValue, 5, 1.9000000000000002E-13, -9.0000000000000012E-11, -1.55, 3.166666666666667E-12, 1.5000000000000002E-09, -1.5333333333333355E-11
DataValue, 5, 2.57E-13, -1.0000000000000002E-10, -1.5000000000000002, 4.2833333333333337E-12, 1.6666666666666669E-09, 3.0000000000000039E-11
DataValue, 5, 3.7000000000000004E-13, -9.0000000000000012E-11, -1.4500000000000002, 6.1666666666666672E-12, 1.5000000000000002E-09, 3.4666666666666637E-11
DataValue, 5, 4.65E-13, -9.0000000000000012E-11, -1.4000000000000001, 7.75E-12, 1.5000000000000002E-09, 7.1666666666666613E-12
DataValue, 5, 4.13E-13, -9.0000000000000012E-11, -1.35, 6.883333333333334E-12, 1.5000000000000002E-09, -3.0499999999999972E-11
DataValue, 5, 2.82E-13, -8.0000000000000008E-11, -1.3, 4.7000000000000006E-12, 1.3333333333333335E-09, -1.3333333333333291E-12
DataValue, 5, 4.0500000000000004E-13, -8.0000000000000008E-11, -1.25, 6.7500000000000009E-12, 1.3333333333333335E-09, 3.0500000000000043E-11
DataValue, 5, 4.65E-13, -9.0000000000000012E-11, -1.2000000000000002, 7.75E-12, 1.5000000000000002E-09, -3.5000000000000054E-11
DataValue, 5, 1.9500000000000003E-13, -8.0000000000000008E-11, -1.1500000000000001, 3.2500000000000005E-12, 1.3333333333333335E-09, -4.3666666666666626E-11
DataValue, 5, 2.0300000000000002E-13, -9.0000000000000012E-11, -1.1, 3.3833333333333339E-12, 1.5000000000000002E-09, 1.9999999999999983E-11
DataValue, 5, 3.15E-13, -9.0000000000000012E-11, -1.05, 5.2500000000000004E-12, 1.5000000000000002E-09, 3.3333333333333309E-11
DataValue, 5, 4.0300000000000005E-13, -9.0000000000000012E-11, -1, 6.7166666666666679E-12, 1.5000000000000002E-09, 1.366666666666667E-11
DataValue, 5, 3.97E-13, -9.0000000000000012E-11, -0.95000000000000007, 6.6166666666666671E-12, 1.5000000000000002E-09, -6.6666666666666776E-12
DataValue, 5, 3.63E-13, -9.0000000000000012E-11, -0.9, 6.05E-12, 1.5000000000000002E-09, -2.4999999999999918E-12
DataValue, 5, 3.8200000000000004E-13, -9.0000000000000012E-11, -0.85000000000000009, 6.3666666666666679E-12, 1.5000000000000002E-09, 2.8333333333333345E-11
DataValue, 5, 5.3300000000000005E-13, -9.0000000000000012E-11, -0.8, 8.8833333333333343E-12, 1.5000000000000002E-09, -1.1666666666666774E-12
DataValue, 5, 3.75E-13, -9.0000000000000012E-11, -0.75000000000000011, 6.25E-12, 1.5000000000000002E-09, -3.8166666666666677E-11
DataValue, 5, 3.04E-13, -9.0000000000000012E-11, -0.70000000000000007, 5.0666666666666674E-12, 1.5000000000000002E-09, -6.9999999999999839E-12
DataValue, 5, 3.3300000000000005E-13, -9.0000000000000012E-11, -0.65, 5.5500000000000012E-12, 1.5000000000000002E-09, 3.1333333333333348E-11
DataValue, 5, 4.92E-13, -9.0000000000000012E-11, -0.60000000000000009, 8.2000000000000014E-12, 1.5000000000000002E-09, 4.9166666666666684E-11
DataValue, 5, 6.28E-13, -9.0000000000000012E-11, -0.55, 1.0466666666666669E-11, 1.5000000000000002E-09, 6.5999999999999927E-11
DataValue, 5, 8.8800000000000005E-13, -9.0000000000000012E-11, -0.5, 1.48E-11, 1.5000000000000002E-09, 2.1333333333333311E-11
DataValue, 5, 7.56E-13, -1.0000000000000002E-10, -0.45, 1.26E-11, 1.6666666666666669E-09, 1.5333333333333355E-11
DataValue, 5, 9.8E-13, -9.0000000000000012E-11, -0.4, 1.6333333333333335E-11, 1.5000000000000002E-09, 6.2000000000000031E-11
DataValue, 5, 1.128E-12, -9.0000000000000012E-11, -0.35000000000000003, 1.8800000000000002E-11, 1.5000000000000002E-09, 6.4500000000000023E-11
DataValue, 5, 1.3670000000000001E-12, -9.0000000000000012E-11, -0.30000000000000004, 2.2783333333333336E-11, 1.5000000000000002E-09, 4.85E-11
DataValue, 5, 1.4190000000000001E-12, -9.0000000000000012E-11, -0.25, 2.3650000000000004E-11, 1.5000000000000002E-09, 5.9666666666666654E-11
DataValue, 5, 1.7250000000000002E-12, -8.0000000000000008E-11, -0.2, 2.8750000000000004E-11, 1.3333333333333335E-09, 1.2733333333333339E-10
