
SetupTitle, HEMT_transfer
PrimitiveTest, I/V Sweep
TestParameter, Context.MainFrame, B1500A
TestParameter, Channel.UnitType, SMU, SMU, SMU
TestParameter, Channel.Unit, SMU1:MP, SMU2:MC, GNDU:GND
TestParameter, Channel.IName, Id, Ig, Is
TestParameter, Channel.VName, Vd, Vg, Vs
TestParameter, Channel.Mode, V, V, COMMON
TestParameter, Channel.Func, CONST, VAR1, CONST
TestParameter, Channel.Index, 
TestParameter, Channel.Time, 
TestParameter, Measurement.Port.Unit, SMU1:MP, SMU2:MC, GNDU:GND
TestParameter, Measurement.Port.SeriesResistor, NONE, NONE, NONE
TestParameter, Measurement.Port.Filter, ON, ON, ON
TestParameter, Measurement.Port.OutputVoltageComparison, 0, 0, 0
TestParameter, Measurement.Primary.Locus, Single
TestParameter, Measurement.Primary.Scale, LINEAR
TestParameter, Measurement.Primary.Start, -5
TestParameter, Measurement.Primary.Stop, 5
TestParameter, Measurement.Primary.Step, 0.05
TestParameter, Measurement.Primary.Compliance, 0.001
TestParameter, Measurement.Primary.PowerCompliance, 0
TestParameter, Measurement.Aborting.Condition, CONTINUE AT ANY
TestParameter, Measurement.PostOutput.Value, START
TestParameter, Measurement.PostOutput.Retention, OFF
TestParameter, Measurement.Bias.Source, 5, -5, 0
TestParameter, Measurement.Bias.Compliance, 0.1, 0.001, 2
TestParameter, Measurement.Monitor.Unit, SMU1:MP, SMU2:MC, GNDU:GND
TestParameter, Measurement.Monitor.Adc, HR ADC, HS ADC, HR ADC
TestParameter, Measurement.Monitor.Measurement, Compliance Side, Force and Compliance Sides, Compliance Side
TestParameter, Measurement.Monitor.RangingMode, LIMITED, LIMITED, LIMITED
TestParameter, Measurement.Monitor.RangeBoundary, 1nA, 10uA, 1nA
TestParameter, Measurement.Monitor.RangeRating, BY FULL RANGE, BY FULL RANGE, BY FULL RANGE
TestParameter, Measurement.Monitor.RangeRatingCoeff, 50, 50, 50
TestParameter, Measurement.Timing.Hold, 0
TestParameter, Measurement.Timing.Delay, 0
TestParameter, Measurement.Adc.HighSpeed.Mode, PLC
TestParameter, Measurement.Adc.HighSpeed.Coeff, 2
TestParameter, Measurement.Adc.HighResolution.AutoZero, OFF
TestParameter, Measurement.Adc.HighResolution.Mode, PLC
TestParameter, Measurement.Adc.HighResolution.Coeff, 2
TestParameter, Measurement.WaitTime.Source.Coeff, 1
TestParameter, Measurement.WaitTime.Source.Offset, 0
TestParameter, Measurement.WaitTime.Monitor.Coeff, 1
TestParameter, Measurement.WaitTime.Monitor.Offset, 0
TestParameter, Function.User.Name, Id_dens, Ig_dens, gm
TestParameter, Function.User.Unit, A/mm, A/mm, S/mm
TestParameter, Function.User.Definition, Id/0.06, abs(Ig)/0.06, diff(Id_dens,Vg)
TestParameter, Output.Graph.Enabled, true
TestParameter, Output.Graph.AutoScaling, false
TestParameter, Output.Graph.XAxis.Data, Vg
TestParameter, Output.Graph.XAxis.Scale, Linear
TestParameter, Output.Graph.XAxis.Left, -2
TestParameter, Output.Graph.XAxis.Right, 10
TestParameter, Output.Graph.XAxis.RunTimeAutoScale, false
TestParameter, Output.Graph.YAxis.Data, Id_dens, Id_dens, gm, Ig_dens
TestParameter, Output.Graph.YAxis.Scale, Log, Linear, Linear, Log
TestParameter, Output.Graph.YAxis.Bottom, 0, 0, 0, 0
TestParameter, Output.Graph.YAxis.Top, 1, 1, 1, 1
TestParameter, Output.Graph.YAxis.Group, , , , 
TestParameter, Output.Graph.YAxis.RunTimeAutoScale, false, false, false, false
TestParameter, Output.List.Data, Vg, Id_dens, Ig_dens, Vd, gm
TestParameter, AutoAnalysis.Interpolation, false
TestParameter, AutoAnalysis.Line1.Enabled, false
TestParameter, AutoAnalysis.Line1.Type, 1
TestParameter, AutoAnalysis.Line1.Fix, True
TestParameter, AutoAnalysis.Line1.YAxis, 0
TestParameter, AutoAnalysis.Line1.Point1.Type, 0
TestParameter, AutoAnalysis.Line1.Point1.XY.X, 
TestParameter, AutoAnalysis.Line1.Point1.XY.Y, 
TestParameter, AutoAnalysis.Line1.Point1.Data.Var, 
TestParameter, AutoAnalysis.Line1.Point1.Data.Condition, 
TestParameter, AutoAnalysis.Line1.Point1.Data.Start, false
TestParameter, AutoAnalysis.Line1.Point1.Data.StartVar, 
TestParameter, AutoAnalysis.Line1.Point1.Data.StartCondition, 
TestParameter, AutoAnalysis.Line1.Point2.Type, 0
TestParameter, AutoAnalysis.Line1.Point2.XY.X, 
TestParameter, AutoAnalysis.Line1.Point2.XY.Y, 
TestParameter, AutoAnalysis.Line1.Point2.Data.Var, 
TestParameter, AutoAnalysis.Line1.Point2.Data.Condition, 
TestParameter, AutoAnalysis.Line1.Point2.Data.Start, false
TestParameter, AutoAnalysis.Line1.Point2.Data.StartVar, 
TestParameter, AutoAnalysis.Line1.Point2.Data.StartCondition, 
TestParameter, AutoAnalysis.Line1.GradientExpr, 0
TestParameter, AutoAnalysis.Line2.Enabled, false
TestParameter, AutoAnalysis.Line2.Type, 1
TestParameter, AutoAnalysis.Line2.Fix, True
TestParameter, AutoAnalysis.Line2.YAxis, 0
TestParameter, AutoAnalysis.Line2.Point1.Type, 0
TestParameter, AutoAnalysis.Line2.Point1.XY.X, 
TestParameter, AutoAnalysis.Line2.Point1.XY.Y, 
TestParameter, AutoAnalysis.Line2.Point1.Data.Var, 
TestParameter, AutoAnalysis.Line2.Point1.Data.Condition, 
TestParameter, AutoAnalysis.Line2.Point1.Data.Start, false
TestParameter, AutoAnalysis.Line2.Point1.Data.StartVar, 
TestParameter, AutoAnalysis.Line2.Point1.Data.StartCondition, 
TestParameter, AutoAnalysis.Line2.Point2.Type, 0
TestParameter, AutoAnalysis.Line2.Point2.XY.X, 
TestParameter, AutoAnalysis.Line2.Point2.XY.Y, 
TestParameter, AutoAnalysis.Line2.Point2.Data.Var, 
TestParameter, AutoAnalysis.Line2.Point2.Data.Condition, 
TestParameter, AutoAnalysis.Line2.Point2.Data.Start, false
TestParameter, AutoAnalysis.Line2.Point2.Data.StartVar, 
TestParameter, AutoAnalysis.Line2.Point2.Data.StartCondition, 
TestParameter, AutoAnalysis.Line2.GradientExpr, 0
TestParameter, AutoAnalysis.Marker.Enabled, false
TestParameter, AutoAnalysis.Marker.Data.Var, 
TestParameter, AutoAnalysis.Marker.Data.Condition, 
TestParameter, AutoAnalysis.Marker.Data.Start, false
TestParameter, AutoAnalysis.Marker.Data.StartVar, 
TestParameter, AutoAnalysis.Marker.Data.StartCondition, 
MetaData, TestRecord.EntryPoint, true
MetaData, TestRecord.RecordTime, 08/14/2019 12:05:29
MetaData, TestRecord.TestTarget, 
MetaData, TestRecord.IterationIndex, 2
MetaData, TestRecord.Preservation, true
MetaData, TestRecord.Flag, #
MetaData, TestRecord.Remarks, #188_F_implant_5nm_cap_die2_r4c2_F10
MetaData, TestRecord.LinkKey, a4dbe110-7a24-405b-abc6-ff2b3cfdc734
Dimension1, 201, 201, 201, 201, 201, 201, 201
Dimension2, 1, 1, 1, 1, 1, 1, 1
DataName, Vd, Id, Ig, Vg, Id_dens, Ig_dens, gm
DataValue, 5, 2.8140000000000003E-12, -1.7E-10, -5, 4.6900000000000007E-11, 2.8333333333333335E-09, -1.5133333333333403E-10
DataValue, 5, 2.36E-12, -1.3000000000000002E-10, -4.95, 3.9333333333333333E-11, 2.166666666666667E-09, -1.4033333333333391E-10
DataValue, 5, 1.972E-12, -1.2E-10, -4.9, 3.2866666666666667E-11, 2E-09, -9.0666666666666948E-11
DataValue, 5, 1.8160000000000001E-12, -1.2E-10, -4.8500000000000005, 3.0266666666666671E-11, 2E-09, -6.8166666666666884E-11
DataValue, 5, 1.5630000000000001E-12, -1.2E-10, -4.8000000000000007, 2.6050000000000003E-11, 2E-09, -6.166666666666635E-11
DataValue, 5, 1.446E-12, -1.2E-10, -4.75, 2.4100000000000003E-11, 2E-09, -5.2166666666666396E-11
DataValue, 5, 1.2500000000000001E-12, -1.2E-10, -4.7, 2.0833333333333336E-11, 2E-09, -2.6833333333333422E-11
DataValue, 5, 1.285E-12, -1.1000000000000001E-10, -4.65, 2.141666666666667E-11, 1.8333333333333336E-09, -1.0166666666666719E-11
DataValue, 5, 1.189E-12, -1.2E-10, -4.6000000000000005, 1.9816666666666667E-11, 2E-09, 6.5000000000000139E-12
DataValue, 5, 1.324E-12, -1.1000000000000001E-10, -4.5500000000000007, 2.2066666666666669E-11, 1.8333333333333336E-09, -1.2166666666666586E-11
DataValue, 5, 1.116E-12, -1.2E-10, -4.5, 1.8600000000000002E-11, 2E-09, -5.8166666666666395E-11
DataValue, 5, 9.75E-13, -1.1000000000000001E-10, -4.45, 1.625E-11, 1.8333333333333336E-09, -2.3500000000000119E-11
DataValue, 5, 9.75E-13, -1.1000000000000001E-10, -4.4, 1.625E-11, 1.8333333333333336E-09, 2.333333333333379E-12
DataValue, 5, 9.8900000000000013E-13, -1.1000000000000001E-10, -4.3500000000000005, 1.6483333333333336E-11, 1.8333333333333336E-09, 1.5166666666666753E-11
DataValue, 5, 1.0660000000000001E-12, -1.1000000000000001E-10, -4.3000000000000007, 1.7766666666666669E-11, 1.8333333333333336E-09, -3.6666666666666734E-12
DataValue, 5, 9.67E-13, -1.0000000000000002E-10, -4.25, 1.6116666666666667E-11, 1.6666666666666669E-09, -9.6666666666666074E-12
DataValue, 5, 1.0080000000000002E-12, -1.1000000000000001E-10, -4.2, 1.6800000000000003E-11, 1.8333333333333336E-09, 5.6666666666667125E-12
DataValue, 5, 1.001E-12, -1.0000000000000002E-10, -4.15, 1.6683333333333336E-11, 1.6666666666666669E-09, -3.2833333333333459E-11
DataValue, 5, 8.1100000000000008E-13, -1.1000000000000001E-10, -4.1000000000000005, 1.3516666666666669E-11, 1.8333333333333336E-09, -2.6166666666666773E-11
DataValue, 5, 8.44E-13, -1.1000000000000001E-10, -4.0500000000000007, 1.4066666666666668E-11, 1.8333333333333336E-09, -2.4999999999999942E-12
DataValue, 5, 7.96E-13, -1.1000000000000001E-10, -4, 1.3266666666666668E-11, 1.8333333333333336E-09, 1.5499999999999921E-11
DataValue, 5, 9.3700000000000015E-13, -1.0000000000000002E-10, -3.95, 1.5616666666666668E-11, 1.6666666666666669E-09, 1.9333333333333418E-11
DataValue, 5, 9.1200000000000015E-13, -1.1000000000000001E-10, -3.9000000000000004, 1.5200000000000003E-11, 1.8333333333333336E-09, -1.1000000000000053E-11
DataValue, 5, 8.71E-13, -1.0000000000000002E-10, -3.8500000000000005, 1.4516666666666667E-11, 1.6666666666666669E-09, -1.3333333333333341E-11
DataValue, 5, 8.3200000000000009E-13, -1.0000000000000002E-10, -3.8000000000000003, 1.3866666666666668E-11, 1.6666666666666669E-09, -1.6166666666666653E-11
DataValue, 5, 7.74E-13, -1.0000000000000002E-10, -3.7500000000000004, 1.29E-11, 1.6666666666666669E-09, -1.1166666666666657E-11
DataValue, 5, 7.6500000000000007E-13, -1.0000000000000002E-10, -3.7, 1.2750000000000001E-11, 1.6666666666666669E-09, 5.0000000000000756E-13
DataValue, 5, 7.77E-13, -1.0000000000000002E-10, -3.6500000000000004, 1.2950000000000001E-11, 1.6666666666666669E-09, -4.9999999999999141E-13
DataValue, 5, 7.6200000000000009E-13, -1.0000000000000002E-10, -3.6, 1.2700000000000002E-11, 1.6666666666666669E-09, -4.3333333333333337E-12
DataValue, 5, 7.51E-13, -1.0000000000000002E-10, -3.5500000000000003, 1.2516666666666667E-11, 1.6666666666666669E-09, -1.550000000000006E-11
DataValue, 5, 6.6900000000000008E-13, -1.1000000000000001E-10, -3.5000000000000004, 1.1150000000000002E-11, 1.8333333333333336E-09, -6.6666666666666541E-12
DataValue, 5, 7.110000000000001E-13, -1.1000000000000001E-10, -3.45, 1.1850000000000001E-11, 1.8333333333333336E-09, 1.3333333333333211E-12
DataValue, 5, 6.77E-13, -1.0000000000000002E-10, -3.4000000000000004, 1.1283333333333334E-11, 1.6666666666666669E-09, -1.799999999999998E-11
DataValue, 5, 6.0300000000000006E-13, -1.0000000000000002E-10, -3.35, 1.0050000000000002E-11, 1.6666666666666669E-09, -3.6666666666666572E-12
DataValue, 5, 6.55E-13, -1.0000000000000002E-10, -3.3000000000000003, 1.0916666666666668E-11, 1.6666666666666669E-09, 9.6666666666666931E-12
DataValue, 5, 6.61E-13, -1.1000000000000001E-10, -3.2500000000000004, 1.1016666666666668E-11, 1.8333333333333336E-09, 1.2999999999999986E-11
DataValue, 5, 7.33E-13, -1.0000000000000002E-10, -3.2, 1.2216666666666668E-11, 1.6666666666666669E-09, -8.4999999999999981E-12
DataValue, 5, 6.1E-13, -1.0000000000000002E-10, -3.1500000000000004, 1.0166666666666667E-11, 1.6666666666666669E-09, -1.8666666666666641E-11
DataValue, 5, 6.2100000000000008E-13, -1.0000000000000002E-10, -3.1, 1.0350000000000002E-11, 1.6666666666666669E-09, 5.500000000000002E-12
DataValue, 5, 6.4300000000000009E-13, -1.0000000000000002E-10, -3.0500000000000003, 1.0716666666666668E-11, 1.6666666666666669E-09, -1.3833333333333392E-11
DataValue, 5, 5.38E-13, -1.1000000000000001E-10, -3.0000000000000004, 8.9666666666666674E-12, 1.8333333333333336E-09, -1.5999999999999984E-11
DataValue, 5, 5.4700000000000009E-13, -1.0000000000000002E-10, -2.95, 9.1166666666666681E-12, 1.6666666666666669E-09, 1.0833333333333335E-11
DataValue, 5, 6.0300000000000006E-13, -1.1000000000000001E-10, -2.9000000000000004, 1.0050000000000002E-11, 1.8333333333333336E-09, 1.3333333333333324E-11
DataValue, 5, 6.2700000000000005E-13, -1.0000000000000002E-10, -2.85, 1.0450000000000002E-11, 1.6666666666666669E-09, 3.8333333333333266E-12
DataValue, 5, 6.2600000000000006E-13, -1.1000000000000001E-10, -2.8000000000000003, 1.0433333333333335E-11, 1.8333333333333336E-09, -1.4333333333333403E-11
DataValue, 5, 5.41E-13, -1.0000000000000002E-10, -2.7500000000000004, 9.0166666666666665E-12, 1.6666666666666669E-09, -2.999999999999998E-11
DataValue, 5, 4.46E-13, -1.0000000000000002E-10, -2.7, 7.4333333333333338E-12, 1.6666666666666669E-09, -2.9999999999999965E-12
DataValue, 5, 5.23E-13, -1.0000000000000002E-10, -2.6500000000000004, 8.7166666666666666E-12, 1.6666666666666669E-09, 3.5166666666666649E-11
DataValue, 5, 6.57E-13, -1.0000000000000002E-10, -2.6, 1.0950000000000002E-11, 1.6666666666666669E-09, 1.5166666666666653E-11
DataValue, 5, 6.14E-13, -1.1000000000000001E-10, -2.5500000000000003, 1.0233333333333333E-11, 1.8333333333333336E-09, -6.8333333333333388E-12
DataValue, 5, 6.16E-13, -1.0000000000000002E-10, -2.5, 1.0266666666666667E-11, 1.6666666666666669E-09, -2.8333333333333114E-12
DataValue, 5, 5.9700000000000008E-13, -1.0000000000000002E-10, -2.45, 9.9500000000000018E-12, 1.6666666666666669E-09, -1.4999999999999968E-12
DataValue, 5, 6.07E-13, -1.0000000000000002E-10, -2.4000000000000004, 1.0116666666666668E-11, 1.6666666666666669E-09, -6.999999999999992E-12
DataValue, 5, 5.5500000000000006E-13, -1.0000000000000002E-10, -2.35, 9.250000000000002E-12, 1.6666666666666669E-09, -1.5499999999999992E-11
DataValue, 5, 5.14E-13, -1.1000000000000001E-10, -2.3000000000000003, 8.5666666666666675E-12, 1.8333333333333336E-09, 3.9999999999999959E-12
DataValue, 5, 5.7900000000000006E-13, -1.0000000000000002E-10, -2.25, 9.6500000000000019E-12, 1.6666666666666669E-09, 2.8333333333333437E-12
DataValue, 5, 5.3100000000000006E-13, -1.1000000000000001E-10, -2.2, 8.8500000000000021E-12, 1.8333333333333336E-09, 1.4999999999999968E-12
DataValue, 5, 5.88E-13, -1.0000000000000002E-10, -2.1500000000000004, 9.8000000000000011E-12, 1.6666666666666669E-09, -1.3333333333333534E-12
DataValue, 5, 5.23E-13, -1.1000000000000001E-10, -2.1, 8.7166666666666666E-12, 1.8333333333333336E-09, -2.2499999999999984E-11
DataValue, 5, 4.5300000000000004E-13, -1.0000000000000002E-10, -2.0500000000000003, 7.55E-12, 1.6666666666666669E-09, -3.9999999999999959E-12
DataValue, 5, 4.99E-13, -1.0000000000000002E-10, -2, 8.3166666666666667E-12, 1.6666666666666669E-09, -6.1666666666666623E-12
DataValue, 5, 4.1600000000000004E-13, -1.0000000000000002E-10, -1.9500000000000002, 6.9333333333333339E-12, 1.6666666666666669E-09, 2.0000000000000038E-11
DataValue, 5, 6.1900000000000009E-13, -1.0000000000000002E-10, -1.9000000000000001, 1.0316666666666668E-11, 1.6666666666666669E-09, 1.9499999999999988E-11
DataValue, 5, 5.3300000000000005E-13, -1.1000000000000001E-10, -1.85, 8.8833333333333343E-12, 1.8333333333333336E-09, -2.5666666666666649E-11
DataValue, 5, 4.65E-13, -1.1000000000000001E-10, -1.8, 7.75E-12, 1.8333333333333336E-09, -1.050000000000002E-11
DataValue, 5, 4.7E-13, -1.0000000000000002E-10, -1.7500000000000002, 7.8333333333333337E-12, 1.6666666666666669E-09, -1.1333333333333351E-11
DataValue, 5, 3.97E-13, -1.1000000000000001E-10, -1.7000000000000002, 6.6166666666666671E-12, 1.8333333333333336E-09, -1.9499999999999988E-11
DataValue, 5, 3.53E-13, -1.0000000000000002E-10, -1.6500000000000001, 5.8833333333333334E-12, 1.6666666666666669E-09, 1.8666666666666657E-11
DataValue, 5, 5.0900000000000005E-13, -1.0000000000000002E-10, -1.6, 8.4833333333333344E-12, 1.6666666666666669E-09, 0
DataValue, 5, 3.53E-13, -1.0000000000000002E-10, -1.55, 5.8833333333333334E-12, 1.6666666666666669E-09, 1.950000000000003E-11
DataValue, 5, 6.2600000000000006E-13, -1.0000000000000002E-10, -1.5000000000000002, 1.0433333333333335E-11, 1.6666666666666669E-09, 1.5500000000000024E-11
DataValue, 5, 4.46E-13, -1.0000000000000002E-10, -1.4500000000000002, 7.4333333333333338E-12, 1.6666666666666669E-09, -2.3999999999999972E-11
DataValue, 5, 4.8200000000000007E-13, -1.0000000000000002E-10, -1.4000000000000001, 8.0333333333333353E-12, 1.6666666666666669E-09, -8.83333333333332E-12
DataValue, 5, 3.9300000000000004E-13, -9.0000000000000012E-11, -1.35, 6.550000000000001E-12, 1.5000000000000002E-09, -2.5000000000000055E-12
DataValue, 5, 4.67E-13, -9.0000000000000012E-11, -1.3, 7.7833333333333346E-12, 1.5000000000000002E-09, 2.4999999999999974E-12
DataValue, 5, 4.0800000000000003E-13, -1.0000000000000002E-10, -1.25, 6.8000000000000009E-12, 1.6666666666666669E-09, 1.1500000000000004E-11
DataValue, 5, 5.36E-13, -1.0000000000000002E-10, -1.2000000000000002, 8.9333333333333335E-12, 1.6666666666666669E-09, 2.3833333333333364E-11
DataValue, 5, 5.5100000000000008E-13, -1.0000000000000002E-10, -1.1500000000000001, 9.1833333333333343E-12, 1.6666666666666669E-09, -2.9999999999999965E-12
DataValue, 5, 5.18E-13, -1.0000000000000002E-10, -1.1, 8.6333333333333336E-12, 1.6666666666666669E-09, -1.0166666666666657E-11
DataValue, 5, 4.9E-13, -1.0000000000000002E-10, -1.05, 8.1666666666666675E-12, 1.6666666666666669E-09, 2.3333333333333362E-12
DataValue, 5, 5.3200000000000006E-13, -1.0000000000000002E-10, -1, 8.8666666666666674E-12, 1.6666666666666669E-09, 2.3333333333333386E-12
DataValue, 5, 5.0400000000000007E-13, -1.0000000000000002E-10, -0.95000000000000007, 8.4000000000000014E-12, 1.6666666666666669E-09, 2.1500000000000007E-11
DataValue, 5, 6.61E-13, -1.0000000000000002E-10, -0.9, 1.1016666666666668E-11, 1.6666666666666669E-09, 8.1500000000000042E-11
DataValue, 5, 9.9300000000000011E-13, -1.0000000000000002E-10, -0.85000000000000009, 1.6550000000000004E-11, 1.6666666666666669E-09, 1.9200000000000006E-10
DataValue, 5, 1.813E-12, -1.0000000000000002E-10, -0.8, 3.0216666666666668E-11, 1.6666666666666669E-09, 6.8266666666666679E-10
DataValue, 5, 5.0890000000000006E-12, -1.0000000000000002E-10, -0.75000000000000011, 8.4816666666666679E-11, 1.6666666666666669E-09, 2.7476666666666674E-09
DataValue, 5, 1.8299000000000002E-11, -1.0000000000000002E-10, -0.70000000000000007, 3.0498333333333336E-10, 1.6666666666666669E-09, 1.1709666666666658E-08
DataValue, 5, 7.5347E-11, -1.0000000000000002E-10, -0.65, 1.2557833333333335E-09, 1.6666666666666669E-09, 4.3130833333333346E-08
DataValue, 5, 2.77084E-10, -1.0000000000000002E-10, -0.60000000000000009, 4.6180666666666671E-09, 1.6666666666666669E-09, 1.5880383333333335E-07
DataValue, 5, 1.02817E-09, -9.0000000000000012E-11, -0.55, 1.7136166666666667E-08, 1.5000000000000002E-09, 5.3903933333333288E-07
DataValue, 5, 3.51132E-09, -1.0000000000000002E-10, -0.5, 5.8522E-08, 1.6666666666666669E-09, 1.9030716666666659E-06
DataValue, 5, 1.2446599999999999E-08, -1.0000000000000002E-10, -0.45, 2.0744333333333333E-07, 1.6666666666666669E-09, 5.8711300000000017E-06
DataValue, 5, 3.87381E-08, -1.0000000000000002E-10, -0.4, 6.45635E-07, 1.6666666666666669E-09, 1.4492233333333337E-05
DataValue, 5, 9.94E-08, -9.0000000000000012E-11, -0.35000000000000003, 1.6566666666666668E-06, 1.5000000000000002E-09, 3.3569150000000007E-05
DataValue, 5, 2.40153E-07, -1.0000000000000002E-10, -0.30000000000000004, 4.00255E-06, 1.6666666666666669E-09, 7.80723333333333E-05
DataValue, 5, 5.67834E-07, -9.0000000000000012E-11, -0.25, 9.4639E-06, 1.5000000000000002E-09, 0.00015967783333333332
DataValue, 5, 1.1982200000000002E-06, -1.0000000000000002E-10, -0.2, 1.9970333333333338E-05, 1.6666666666666669E-09, 0.00030814266666666682
DataValue, 5, 2.4166900000000002E-06, -1.0000000000000002E-10, -0.15000000000000002, 4.027816666666667E-05, 1.6666666666666669E-09, 0.00055806
DataValue, 5, 4.54658E-06, -1.1000000000000001E-10, -0.1, 7.5776333333333335E-05, 1.8333333333333336E-09, 0.00097977833333333332
