
SetupTitle, HEMT_transfer
PrimitiveTest, I/V Sweep
TestParameter, Context.MainFrame, B1500A
TestParameter, Channel.UnitType, SMU, SMU, SMU
TestParameter, Channel.Unit, SMU1:MP, SMU2:MC, GNDU:GND
TestParameter, Channel.IName, Id, Ig, Is
TestParameter, Channel.VName, Vd, Vg, Vs
TestParameter, Channel.Mode, V, V, COMMON
TestParameter, Channel.Func, CONST, VAR1, CONST
TestParameter, Channel.Index, 
TestParameter, Channel.Time, 
TestParameter, Measurement.Port.Unit, SMU1:MP, SMU2:MC, GNDU:GND
TestParameter, Measurement.Port.SeriesResistor, NONE, NONE, NONE
TestParameter, Measurement.Port.Filter, ON, ON, ON
TestParameter, Measurement.Port.OutputVoltageComparison, 0, 0, 0
TestParameter, Measurement.Primary.Locus, Single
TestParameter, Measurement.Primary.Scale, LINEAR
TestParameter, Measurement.Primary.Start, -5
TestParameter, Measurement.Primary.Stop, 5
TestParameter, Measurement.Primary.Step, 0.05
TestParameter, Measurement.Primary.Compliance, 0.001
TestParameter, Measurement.Primary.PowerCompliance, 0
TestParameter, Measurement.Aborting.Condition, CONTINUE AT ANY
TestParameter, Measurement.PostOutput.Value, START
TestParameter, Measurement.PostOutput.Retention, OFF
TestParameter, Measurement.Bias.Source, 5, -5, 0
TestParameter, Measurement.Bias.Compliance, 0.1, 0.001, 2
TestParameter, Measurement.Monitor.Unit, SMU1:MP, SMU2:MC, GNDU:GND
TestParameter, Measurement.Monitor.Adc, HR ADC, HS ADC, HR ADC
TestParameter, Measurement.Monitor.Measurement, Compliance Side, Force and Compliance Sides, Compliance Side
TestParameter, Measurement.Monitor.RangingMode, LIMITED, LIMITED, LIMITED
TestParameter, Measurement.Monitor.RangeBoundary, 1nA, 10uA, 1nA
TestParameter, Measurement.Monitor.RangeRating, BY FULL RANGE, BY FULL RANGE, BY FULL RANGE
TestParameter, Measurement.Monitor.RangeRatingCoeff, 50, 50, 50
TestParameter, Measurement.Timing.Hold, 0
TestParameter, Measurement.Timing.Delay, 0
TestParameter, Measurement.Adc.HighSpeed.Mode, PLC
TestParameter, Measurement.Adc.HighSpeed.Coeff, 2
TestParameter, Measurement.Adc.HighResolution.AutoZero, OFF
TestParameter, Measurement.Adc.HighResolution.Mode, PLC
TestParameter, Measurement.Adc.HighResolution.Coeff, 2
TestParameter, Measurement.WaitTime.Source.Coeff, 1
TestParameter, Measurement.WaitTime.Source.Offset, 0
TestParameter, Measurement.WaitTime.Monitor.Coeff, 1
TestParameter, Measurement.WaitTime.Monitor.Offset, 0
TestParameter, Function.User.Name, Id_dens, Ig_dens, gm
TestParameter, Function.User.Unit, A/mm, A/mm, S/mm
TestParameter, Function.User.Definition, Id/0.06, abs(Ig)/0.06, diff(Id_dens,Vg)
TestParameter, Output.Graph.Enabled, true
TestParameter, Output.Graph.AutoScaling, false
TestParameter, Output.Graph.XAxis.Data, Vg
TestParameter, Output.Graph.XAxis.Scale, Linear
TestParameter, Output.Graph.XAxis.Left, -2
TestParameter, Output.Graph.XAxis.Right, 10
TestParameter, Output.Graph.XAxis.RunTimeAutoScale, false
TestParameter, Output.Graph.YAxis.Data, Id_dens, Id_dens, gm, Ig_dens
TestParameter, Output.Graph.YAxis.Scale, Log, Linear, Linear, Log
TestParameter, Output.Graph.YAxis.Bottom, 0, 0, 0, 0
TestParameter, Output.Graph.YAxis.Top, 1, 1, 1, 1
TestParameter, Output.Graph.YAxis.Group, , , , 
TestParameter, Output.Graph.YAxis.RunTimeAutoScale, false, false, false, false
TestParameter, Output.List.Data, Vg, Id_dens, Ig_dens, Vd, gm
TestParameter, AutoAnalysis.Interpolation, false
TestParameter, AutoAnalysis.Line1.Enabled, false
TestParameter, AutoAnalysis.Line1.Type, 1
TestParameter, AutoAnalysis.Line1.Fix, True
TestParameter, AutoAnalysis.Line1.YAxis, 0
TestParameter, AutoAnalysis.Line1.Point1.Type, 0
TestParameter, AutoAnalysis.Line1.Point1.XY.X, 
TestParameter, AutoAnalysis.Line1.Point1.XY.Y, 
TestParameter, AutoAnalysis.Line1.Point1.Data.Var, 
TestParameter, AutoAnalysis.Line1.Point1.Data.Condition, 
TestParameter, AutoAnalysis.Line1.Point1.Data.Start, false
TestParameter, AutoAnalysis.Line1.Point1.Data.StartVar, 
TestParameter, AutoAnalysis.Line1.Point1.Data.StartCondition, 
TestParameter, AutoAnalysis.Line1.Point2.Type, 0
TestParameter, AutoAnalysis.Line1.Point2.XY.X, 
TestParameter, AutoAnalysis.Line1.Point2.XY.Y, 
TestParameter, AutoAnalysis.Line1.Point2.Data.Var, 
TestParameter, AutoAnalysis.Line1.Point2.Data.Condition, 
TestParameter, AutoAnalysis.Line1.Point2.Data.Start, false
TestParameter, AutoAnalysis.Line1.Point2.Data.StartVar, 
TestParameter, AutoAnalysis.Line1.Point2.Data.StartCondition, 
TestParameter, AutoAnalysis.Line1.GradientExpr, 0
TestParameter, AutoAnalysis.Line2.Enabled, false
TestParameter, AutoAnalysis.Line2.Type, 1
TestParameter, AutoAnalysis.Line2.Fix, True
TestParameter, AutoAnalysis.Line2.YAxis, 0
TestParameter, AutoAnalysis.Line2.Point1.Type, 0
TestParameter, AutoAnalysis.Line2.Point1.XY.X, 
TestParameter, AutoAnalysis.Line2.Point1.XY.Y, 
TestParameter, AutoAnalysis.Line2.Point1.Data.Var, 
TestParameter, AutoAnalysis.Line2.Point1.Data.Condition, 
TestParameter, AutoAnalysis.Line2.Point1.Data.Start, false
TestParameter, AutoAnalysis.Line2.Point1.Data.StartVar, 
TestParameter, AutoAnalysis.Line2.Point1.Data.StartCondition, 
TestParameter, AutoAnalysis.Line2.Point2.Type, 0
TestParameter, AutoAnalysis.Line2.Point2.XY.X, 
TestParameter, AutoAnalysis.Line2.Point2.XY.Y, 
TestParameter, AutoAnalysis.Line2.Point2.Data.Var, 
TestParameter, AutoAnalysis.Line2.Point2.Data.Condition, 
TestParameter, AutoAnalysis.Line2.Point2.Data.Start, false
TestParameter, AutoAnalysis.Line2.Point2.Data.StartVar, 
TestParameter, AutoAnalysis.Line2.Point2.Data.StartCondition, 
TestParameter, AutoAnalysis.Line2.GradientExpr, 0
TestParameter, AutoAnalysis.Marker.Enabled, false
TestParameter, AutoAnalysis.Marker.Data.Var, 
TestParameter, AutoAnalysis.Marker.Data.Condition, 
TestParameter, AutoAnalysis.Marker.Data.Start, false
TestParameter, AutoAnalysis.Marker.Data.StartVar, 
TestParameter, AutoAnalysis.Marker.Data.StartCondition, 
MetaData, TestRecord.EntryPoint, true
MetaData, TestRecord.RecordTime, 08/16/2019 16:08:10
MetaData, TestRecord.TestTarget, 
MetaData, TestRecord.IterationIndex, 1
MetaData, TestRecord.Preservation, true
MetaData, TestRecord.Flag, #
MetaData, TestRecord.Remarks, #089_LPCVD_trigate_die3_r2c2_W50
MetaData, TestRecord.LinkKey, 8b06752c-e8df-4e67-8f70-3e37986eb506
Dimension1, 201, 201, 201, 201, 201, 201, 201
Dimension2, 1, 1, 1, 1, 1, 1, 1
DataName, Vd, Id, Ig, Vg, Id_dens, Ig_dens, gm
DataValue, 5, 5.0600000000000007E-12, -1.8000000000000003E-10, -5, 8.4333333333333352E-11, 3.0000000000000004E-09, -3.4333333333333468E-10
DataValue, 5, 4.03E-12, -1.4E-10, -4.95, 6.716666666666668E-11, 2.3333333333333335E-09, -2.5550000000000108E-10
DataValue, 5, 3.5270000000000002E-12, -1.3000000000000002E-10, -4.9, 5.8783333333333335E-11, 2.166666666666667E-09, -1.0550000000000049E-10
DataValue, 5, 3.397E-12, -1.3000000000000002E-10, -4.8500000000000005, 5.6616666666666669E-11, 2.166666666666667E-09, -7.85000000000002E-11
DataValue, 5, 3.0560000000000003E-12, -1.3000000000000002E-10, -4.8000000000000007, 5.0933333333333344E-11, 2.166666666666667E-09, -8.7999999999999451E-11
DataValue, 5, 2.8690000000000004E-12, -1.2E-10, -4.75, 4.7816666666666677E-11, 2E-09, -1.0049999999999954E-10
DataValue, 5, 2.453E-12, -1.2E-10, -4.7, 4.0883333333333337E-11, 2E-09, -3.650000000000021E-11
DataValue, 5, 2.6500000000000002E-12, -1.3000000000000002E-10, -4.65, 4.4166666666666669E-11, 2.166666666666667E-09, 1.0333333333333374E-11
DataValue, 5, 2.515E-12, -1.3000000000000002E-10, -4.6000000000000005, 4.1916666666666671E-11, 2.166666666666667E-09, -5.3166666666666877E-11
DataValue, 5, 2.331E-12, -1.2E-10, -4.5500000000000007, 3.885E-11, 2E-09, -2.8333333333333148E-11
DataValue, 5, 2.3450000000000002E-12, -1.2E-10, -4.5, 3.9083333333333341E-11, 2E-09, -2.6333333333333194E-11
DataValue, 5, 2.173E-12, -1.2E-10, -4.45, 3.6216666666666667E-11, 2E-09, -7.9000000000000348E-11
DataValue, 5, 1.871E-12, -1.2E-10, -4.4, 3.1183333333333334E-11, 2E-09, -2.8833333333333428E-11
DataValue, 5, 2E-12, -1.1000000000000001E-10, -4.3500000000000005, 3.3333333333333335E-11, 1.8333333333333336E-09, 2.6666666666667184E-12
DataValue, 5, 1.8870000000000003E-12, -1.2E-10, -4.3000000000000007, 3.1450000000000005E-11, 2E-09, 2.3333333333333259E-11
DataValue, 5, 2.14E-12, -1.2E-10, -4.25, 3.5666666666666673E-11, 2E-09, -2.2166666666666561E-11
DataValue, 5, 1.7540000000000002E-12, -1.1000000000000001E-10, -4.2, 2.9233333333333337E-11, 1.8333333333333336E-09, -4.2000000000000172E-11
DataValue, 5, 1.888E-12, -1.1000000000000001E-10, -4.15, 3.146666666666667E-11, 1.8333333333333336E-09, -2.6666666666666861E-12
DataValue, 5, 1.738E-12, -1.1000000000000001E-10, -4.1000000000000005, 2.8966666666666669E-11, 1.8333333333333336E-09, -3.5166666666666784E-11
DataValue, 5, 1.6770000000000002E-12, -1.2E-10, -4.0500000000000007, 2.7950000000000004E-11, 2E-09, -1.133333333333326E-11
DataValue, 5, 1.6700000000000002E-12, -1.2E-10, -4, 2.7833333333333337E-11, 2E-09, -2.0666666666666563E-11
DataValue, 5, 1.5530000000000002E-12, -1.1000000000000001E-10, -3.95, 2.5883333333333337E-11, 1.8333333333333336E-09, 2.5000000000000098E-11
DataValue, 5, 1.8200000000000003E-12, -1.1000000000000001E-10, -3.9000000000000004, 3.0333333333333338E-11, 1.8333333333333336E-09, 9.6666666666666931E-12
DataValue, 5, 1.6110000000000001E-12, -1.2E-10, -3.8500000000000005, 2.6850000000000003E-11, 2E-09, -4.6666666666666661E-11
DataValue, 5, 1.5400000000000001E-12, -1.1000000000000001E-10, -3.8000000000000003, 2.5666666666666669E-11, 1.8333333333333336E-09, -4.4999999999999869E-12
DataValue, 5, 1.5840000000000001E-12, -1.1000000000000001E-10, -3.7500000000000004, 2.6400000000000004E-11, 1.8333333333333336E-09, -4.716666666666662E-11
DataValue, 5, 1.2570000000000002E-12, -1.1000000000000001E-10, -3.7, 2.0950000000000003E-11, 1.8333333333333336E-09, -1.7833333333333327E-11
DataValue, 5, 1.477E-12, -1.1000000000000001E-10, -3.6500000000000004, 2.461666666666667E-11, 1.8333333333333336E-09, 5.7166666666666605E-11
DataValue, 5, 1.6E-12, -1.1000000000000001E-10, -3.6, 2.6666666666666668E-11, 1.8333333333333336E-09, 5.49999999999997E-12
DataValue, 5, 1.51E-12, -1.1000000000000001E-10, -3.5500000000000003, 2.5166666666666667E-11, 1.8333333333333336E-09, -1.1166666666666707E-11
DataValue, 5, 1.533E-12, -1.1000000000000001E-10, -3.5000000000000004, 2.555E-11, 1.8333333333333336E-09, -4.9166666666666581E-11
DataValue, 5, 1.2150000000000002E-12, -1.1000000000000001E-10, -3.45, 2.0250000000000004E-11, 1.8333333333333336E-09, -9.8333333333333042E-12
DataValue, 5, 1.4740000000000002E-12, -9.0000000000000012E-11, -3.4000000000000004, 2.456666666666667E-11, 1.5000000000000002E-09, 1.0166666666666609E-11
DataValue, 5, 1.276E-12, -1.1000000000000001E-10, -3.35, 2.1266666666666666E-11, 1.8333333333333336E-09, -4.3666666666666645E-11
DataValue, 5, 1.212E-12, -1.0000000000000002E-10, -3.3000000000000003, 2.0200000000000002E-11, 1.6666666666666669E-09, 4.0833333333333496E-11
DataValue, 5, 1.521E-12, -1.0000000000000002E-10, -3.2500000000000004, 2.5350000000000002E-11, 1.6666666666666669E-09, 4.0499999999999976E-11
DataValue, 5, 1.4550000000000002E-12, -1.0000000000000002E-10, -3.2, 2.4250000000000004E-11, 1.6666666666666669E-09, -5.6666666666666552E-12
DataValue, 5, 1.487E-12, -1.0000000000000002E-10, -3.1500000000000004, 2.4783333333333336E-11, 1.6666666666666669E-09, -3.316666666666663E-11
DataValue, 5, 1.256E-12, -1.0000000000000002E-10, -3.1, 2.0933333333333337E-11, 1.6666666666666669E-09, -4.5499999999999959E-11
DataValue, 5, 1.214E-12, -1.0000000000000002E-10, -3.0500000000000003, 2.0233333333333336E-11, 1.6666666666666669E-09, 1.5000000000000032E-11
DataValue, 5, 1.3460000000000001E-12, -1.0000000000000002E-10, -3.0000000000000004, 2.2433333333333335E-11, 1.6666666666666669E-09, 1.5000000000000063E-12
DataValue, 5, 1.2230000000000001E-12, -9.0000000000000012E-11, -2.95, 2.0383333333333337E-11, 1.5000000000000002E-09, 7.9999999999999918E-12
DataValue, 5, 1.3940000000000001E-12, -1.0000000000000002E-10, -2.9000000000000004, 2.3233333333333335E-11, 1.6666666666666669E-09, 4.1333333333333275E-11
DataValue, 5, 1.471E-12, -1.0000000000000002E-10, -2.85, 2.4516666666666668E-11, 1.6666666666666669E-09, -3.4666666666666637E-11
DataValue, 5, 1.186E-12, -9.0000000000000012E-11, -2.8000000000000003, 1.9766666666666668E-11, 1.5000000000000002E-09, -3.2666666666666754E-11
DataValue, 5, 1.2750000000000001E-12, -9.0000000000000012E-11, -2.7500000000000004, 2.1250000000000004E-11, 1.5000000000000002E-09, -5.500000000000002E-12
DataValue, 5, 1.153E-12, -1.0000000000000002E-10, -2.7, 1.9216666666666668E-11, 1.6666666666666669E-09, 9.6666666666666511E-12
DataValue, 5, 1.333E-12, -9.0000000000000012E-11, -2.6500000000000004, 2.221666666666667E-11, 1.5000000000000002E-09, 1.5333333333333339E-11
DataValue, 5, 1.245E-12, -1.0000000000000002E-10, -2.6, 2.0750000000000003E-11, 1.6666666666666669E-09, -1.3333333333333341E-11
DataValue, 5, 1.253E-12, -9.0000000000000012E-11, -2.5500000000000003, 2.0883333333333335E-11, 1.5000000000000002E-09, 9.6666666666666511E-12
DataValue, 5, 1.303E-12, -9.0000000000000012E-11, -2.5, 2.1716666666666669E-11, 1.5000000000000002E-09, -7.3333333333333468E-12
DataValue, 5, 1.209E-12, -9.0000000000000012E-11, -2.45, 2.015E-11, 1.5000000000000002E-09, -5.2000000000000176E-11
DataValue, 5, 9.9100000000000012E-13, -9.0000000000000012E-11, -2.4000000000000004, 1.651666666666667E-11, 1.5000000000000002E-09, -1.9166666666666617E-11
DataValue, 5, 1.0940000000000002E-12, -9.0000000000000012E-11, -2.35, 1.8233333333333336E-11, 1.5000000000000002E-09, 6.0833333333333265E-11
DataValue, 5, 1.356E-12, -9.0000000000000012E-11, -2.3000000000000003, 2.26E-11, 1.5000000000000002E-09, 2.8499999999999992E-11
DataValue, 5, 1.2650000000000002E-12, -9.0000000000000012E-11, -2.25, 2.1083333333333338E-11, 1.5000000000000002E-09, -6.5666666666666582E-11
DataValue, 5, 9.6200000000000014E-13, -9.0000000000000012E-11, -2.2, 1.6033333333333337E-11, 1.5000000000000002E-09, -2.0500000000000094E-11
DataValue, 5, 1.1420000000000002E-12, -9.0000000000000012E-11, -2.1500000000000004, 1.9033333333333336E-11, 1.5000000000000002E-09, 2.7999999999999968E-11
DataValue, 5, 1.13E-12, -9.0000000000000012E-11, -2.1, 1.8833333333333336E-11, 1.5000000000000002E-09, -1.8000000000000012E-11
DataValue, 5, 1.034E-12, -9.0000000000000012E-11, -2.0500000000000003, 1.7233333333333333E-11, 1.5000000000000002E-09, 7.6666666666666531E-12
DataValue, 5, 1.176E-12, -9.0000000000000012E-11, -2, 1.9600000000000002E-11, 1.5000000000000002E-09, 2.5833333333333318E-11
DataValue, 5, 1.189E-12, -8.0000000000000008E-11, -1.9500000000000002, 1.9816666666666667E-11, 1.3333333333333335E-09, 9.6666666666667044E-12
DataValue, 5, 1.2340000000000002E-12, -8.0000000000000008E-11, -1.9000000000000001, 2.0566666666666671E-11, 1.3333333333333335E-09, -4.18333333333333E-11
DataValue, 5, 9.38E-13, -9.0000000000000012E-11, -1.85, 1.5633333333333334E-11, 1.5000000000000002E-09, -5.5000000000000343E-12
DataValue, 5, 1.201E-12, -8.0000000000000008E-11, -1.8, 2.0016666666666667E-11, 1.3333333333333335E-09, 4.5666666666666742E-11
DataValue, 5, 1.212E-12, -8.0000000000000008E-11, -1.7500000000000002, 2.0200000000000002E-11, 1.3333333333333335E-09, -3.36666666666667E-11
DataValue, 5, 9.99E-13, -8.0000000000000008E-11, -1.7000000000000002, 1.6650000000000002E-11, 1.3333333333333335E-09, -5.8333333333333083E-12
DataValue, 5, 1.1770000000000001E-12, -8.0000000000000008E-11, -1.6500000000000001, 1.9616666666666671E-11, 1.3333333333333335E-09, 2.8E-11
DataValue, 5, 1.1670000000000002E-12, -8.0000000000000008E-11, -1.6, 1.9450000000000005E-11, 1.3333333333333335E-09, -1.0666666666666698E-11
DataValue, 5, 1.113E-12, -8.0000000000000008E-11, -1.55, 1.855E-11, 1.3333333333333335E-09, -2.483333333333339E-11
DataValue, 5, 1.0180000000000001E-12, -9.0000000000000012E-11, -1.5000000000000002, 1.6966666666666669E-11, 1.5000000000000002E-09, -7.33333333333333E-12
DataValue, 5, 1.069E-12, -8.0000000000000008E-11, -1.4500000000000002, 1.7816666666666668E-11, 1.3333333333333335E-09, 3.9499999999999967E-11
DataValue, 5, 1.255E-12, -9.0000000000000012E-11, -1.4000000000000001, 2.0916666666666669E-11, 1.5000000000000002E-09, 1.2333333333333325E-11
DataValue, 5, 1.143E-12, -8.0000000000000008E-11, -1.35, 1.905E-11, 1.3333333333333335E-09, -4.38333333333333E-11
DataValue, 5, 9.92E-13, -8.0000000000000008E-11, -1.3, 1.6533333333333335E-11, 1.3333333333333335E-09, 3.3333333333333834E-13
DataValue, 5, 1.145E-12, -7E-11, -1.25, 1.9083333333333335E-11, 1.1666666666666668E-09, -2.0166666666666707E-11
DataValue, 5, 8.71E-13, -8.0000000000000008E-11, -1.2000000000000002, 1.4516666666666667E-11, 1.3333333333333335E-09, -2.5833333333333377E-11
DataValue, 5, 9.9E-13, -8.0000000000000008E-11, -1.1500000000000001, 1.65E-11, 1.3333333333333335E-09, 1.6833333333333343E-11
DataValue, 5, 9.72E-13, -8.0000000000000008E-11, -1.1, 1.6200000000000003E-11, 1.3333333333333335E-09, 2.3499999999999983E-11
DataValue, 5, 1.1310000000000001E-12, -8.0000000000000008E-11, -1.05, 1.885E-11, 1.3333333333333335E-09, -9.99999999999999E-12
DataValue, 5, 9.1200000000000015E-13, -8.0000000000000008E-11, -1, 1.5200000000000003E-11, 1.3333333333333335E-09, -2.7666666666666662E-11
DataValue, 5, 9.65E-13, -8.0000000000000008E-11, -0.95000000000000007, 1.6083333333333336E-11, 1.3333333333333335E-09, 2.1500000000000007E-11
DataValue, 5, 1.0410000000000001E-12, -8.0000000000000008E-11, -0.9, 1.7350000000000003E-11, 1.3333333333333335E-09, -9.66666666666666E-12
DataValue, 5, 9.0700000000000007E-13, -7E-11, -0.85000000000000009, 1.511666666666667E-11, 1.1666666666666668E-09, -2.3833333333333348E-11
DataValue, 5, 8.9800000000000011E-13, -7E-11, -0.8, 1.4966666666666669E-11, 1.1666666666666668E-09, 1.083333333333333E-11
DataValue, 5, 9.72E-13, -8.0000000000000008E-11, -0.75000000000000011, 1.6200000000000003E-11, 1.3333333333333335E-09, 3.3166666666666668E-11
DataValue, 5, 1.097E-12, -8.0000000000000008E-11, -0.70000000000000007, 1.8283333333333335E-11, 1.3333333333333335E-09, -6.3333333333333317E-12
DataValue, 5, 9.34E-13, -7E-11, -0.65, 1.5566666666666669E-11, 1.1666666666666668E-09, 1.0999999999999985E-11
DataValue, 5, 1.163E-12, -7E-11, -0.60000000000000009, 1.9383333333333334E-11, 1.1666666666666668E-09, 2.643333333333334E-10
DataValue, 5, 2.52E-12, -7E-11, -0.55, 4.2000000000000004E-11, 1.1666666666666668E-09, 1.5689999999999988E-09
DataValue, 5, 1.0577E-11, -7E-11, -0.5, 1.7628333333333336E-10, 1.1666666666666668E-09, 1.1048833333333329E-08
DataValue, 5, 6.8813E-11, -7E-11, -0.45, 1.1468833333333334E-09, 1.1666666666666668E-09, 7.38946666666667E-08
DataValue, 5, 4.5394500000000003E-10, -8.0000000000000008E-11, -0.4, 7.5657500000000011E-09, 1.3333333333333335E-09, 5.048961666666668E-07
DataValue, 5, 3.09819E-09, -7E-11, -0.35000000000000003, 5.16365E-08, 1.1666666666666668E-09, 3.2296925000000005E-06
DataValue, 5, 1.9832099999999997E-08, -7E-11, -0.30000000000000004, 3.3053499999999996E-07, 1.1666666666666668E-09, 1.8325134999999994E-05
DataValue, 5, 1.13049E-07, -7E-11, -0.25, 1.88415E-06, 1.1666666666666668E-09, 8.7840649999999977E-05
DataValue, 5, 5.46876E-07, -7E-11, -0.2, 9.1146E-06, 1.1666666666666668E-09, 0.00034647183333333338
DataValue, 5, 2.19188E-06, -7E-11, -0.15000000000000002, 3.6531333333333334E-05, 1.1666666666666668E-09, 0.0010508306666666667
DataValue, 5, 6.851860000000001E-06, -7E-11, -0.1, 0.00011419766666666669, 1.1666666666666668E-09, 0.0026328533333333333
DataValue, 5, 1.7989E-05, -6E-11, -0.05, 0.0002998166666666667, 1E-09, 0.0052011900000000005
DataValue, 5, 3.8059E-05, -6E-11, 0, 0.00063431666666666675, 1E-09, 0.0087693333333333338
DataValue, 5, 7.0605E-05, -6E-11, 0.05, 0.00117675, 1E-09, 0.013439833333333333
DataValue, 5, 0.00011869800000000001, -6E-11, 0.1, 0.0019783, 1E-09, 0.018075499999999998
DataValue, 5, 0.000179058, -6E-11, 0.15000000000000002, 0.0029843, 1E-09, 0.022531333333333344
DataValue, 5, 0.00025388600000000004, -6E-11, 0.2, 0.0042314333333333346, 1E-09, 0.027301833333333348
