
SetupTitle, HEMT_transfer
PrimitiveTest, I/V Sweep
TestParameter, Context.MainFrame, B1500A
TestParameter, Channel.UnitType, SMU, SMU, SMU
TestParameter, Channel.Unit, SMU1:MP, SMU2:MC, GNDU:GND
TestParameter, Channel.IName, Id, Ig, Is
TestParameter, Channel.VName, Vd, Vg, Vs
TestParameter, Channel.Mode, V, V, COMMON
TestParameter, Channel.Func, CONST, VAR1, CONST
TestParameter, Channel.Index, 
TestParameter, Channel.Time, 
TestParameter, Measurement.Port.Unit, SMU1:MP, SMU2:MC, GNDU:GND
TestParameter, Measurement.Port.SeriesResistor, NONE, NONE, NONE
TestParameter, Measurement.Port.Filter, ON, ON, ON
TestParameter, Measurement.Port.OutputVoltageComparison, 0, 0, 0
TestParameter, Measurement.Primary.Locus, Single
TestParameter, Measurement.Primary.Scale, LINEAR
TestParameter, Measurement.Primary.Start, -5
TestParameter, Measurement.Primary.Stop, 5
TestParameter, Measurement.Primary.Step, 0.05
TestParameter, Measurement.Primary.Compliance, 0.001
TestParameter, Measurement.Primary.PowerCompliance, 0
TestParameter, Measurement.Aborting.Condition, CONTINUE AT ANY
TestParameter, Measurement.PostOutput.Value, START
TestParameter, Measurement.PostOutput.Retention, OFF
TestParameter, Measurement.Bias.Source, 5, -5, 0
TestParameter, Measurement.Bias.Compliance, 0.1, 0.001, 2
TestParameter, Measurement.Monitor.Unit, SMU1:MP, SMU2:MC, GNDU:GND
TestParameter, Measurement.Monitor.Adc, HR ADC, HS ADC, HR ADC
TestParameter, Measurement.Monitor.Measurement, Compliance Side, Force and Compliance Sides, Compliance Side
TestParameter, Measurement.Monitor.RangingMode, LIMITED, LIMITED, LIMITED
TestParameter, Measurement.Monitor.RangeBoundary, 1nA, 10uA, 1nA
TestParameter, Measurement.Monitor.RangeRating, BY FULL RANGE, BY FULL RANGE, BY FULL RANGE
TestParameter, Measurement.Monitor.RangeRatingCoeff, 50, 50, 50
TestParameter, Measurement.Timing.Hold, 0
TestParameter, Measurement.Timing.Delay, 0
TestParameter, Measurement.Adc.HighSpeed.Mode, PLC
TestParameter, Measurement.Adc.HighSpeed.Coeff, 2
TestParameter, Measurement.Adc.HighResolution.AutoZero, OFF
TestParameter, Measurement.Adc.HighResolution.Mode, PLC
TestParameter, Measurement.Adc.HighResolution.Coeff, 2
TestParameter, Measurement.WaitTime.Source.Coeff, 1
TestParameter, Measurement.WaitTime.Source.Offset, 0
TestParameter, Measurement.WaitTime.Monitor.Coeff, 1
TestParameter, Measurement.WaitTime.Monitor.Offset, 0
TestParameter, Function.User.Name, Id_dens, Ig_dens, gm
TestParameter, Function.User.Unit, A/mm, A/mm, S/mm
TestParameter, Function.User.Definition, Id/0.06, abs(Ig)/0.06, diff(Id_dens,Vg)
TestParameter, Output.Graph.Enabled, true
TestParameter, Output.Graph.AutoScaling, false
TestParameter, Output.Graph.XAxis.Data, Vg
TestParameter, Output.Graph.XAxis.Scale, Linear
TestParameter, Output.Graph.XAxis.Left, -2
TestParameter, Output.Graph.XAxis.Right, 10
TestParameter, Output.Graph.XAxis.RunTimeAutoScale, false
TestParameter, Output.Graph.YAxis.Data, Id_dens, Id_dens, gm, Ig_dens
TestParameter, Output.Graph.YAxis.Scale, Log, Linear, Linear, Log
TestParameter, Output.Graph.YAxis.Bottom, 0, 0, 0, 0
TestParameter, Output.Graph.YAxis.Top, 1, 1, 1, 1
TestParameter, Output.Graph.YAxis.Group, , , , 
TestParameter, Output.Graph.YAxis.RunTimeAutoScale, false, false, false, false
TestParameter, Output.List.Data, Vg, Id_dens, Ig_dens, Vd, gm
TestParameter, AutoAnalysis.Interpolation, false
TestParameter, AutoAnalysis.Line1.Enabled, false
TestParameter, AutoAnalysis.Line1.Type, 1
TestParameter, AutoAnalysis.Line1.Fix, True
TestParameter, AutoAnalysis.Line1.YAxis, 0
TestParameter, AutoAnalysis.Line1.Point1.Type, 0
TestParameter, AutoAnalysis.Line1.Point1.XY.X, 
TestParameter, AutoAnalysis.Line1.Point1.XY.Y, 
TestParameter, AutoAnalysis.Line1.Point1.Data.Var, 
TestParameter, AutoAnalysis.Line1.Point1.Data.Condition, 
TestParameter, AutoAnalysis.Line1.Point1.Data.Start, false
TestParameter, AutoAnalysis.Line1.Point1.Data.StartVar, 
TestParameter, AutoAnalysis.Line1.Point1.Data.StartCondition, 
TestParameter, AutoAnalysis.Line1.Point2.Type, 0
TestParameter, AutoAnalysis.Line1.Point2.XY.X, 
TestParameter, AutoAnalysis.Line1.Point2.XY.Y, 
TestParameter, AutoAnalysis.Line1.Point2.Data.Var, 
TestParameter, AutoAnalysis.Line1.Point2.Data.Condition, 
TestParameter, AutoAnalysis.Line1.Point2.Data.Start, false
TestParameter, AutoAnalysis.Line1.Point2.Data.StartVar, 
TestParameter, AutoAnalysis.Line1.Point2.Data.StartCondition, 
TestParameter, AutoAnalysis.Line1.GradientExpr, 0
TestParameter, AutoAnalysis.Line2.Enabled, false
TestParameter, AutoAnalysis.Line2.Type, 1
TestParameter, AutoAnalysis.Line2.Fix, True
TestParameter, AutoAnalysis.Line2.YAxis, 0
TestParameter, AutoAnalysis.Line2.Point1.Type, 0
TestParameter, AutoAnalysis.Line2.Point1.XY.X, 
TestParameter, AutoAnalysis.Line2.Point1.XY.Y, 
TestParameter, AutoAnalysis.Line2.Point1.Data.Var, 
TestParameter, AutoAnalysis.Line2.Point1.Data.Condition, 
TestParameter, AutoAnalysis.Line2.Point1.Data.Start, false
TestParameter, AutoAnalysis.Line2.Point1.Data.StartVar, 
TestParameter, AutoAnalysis.Line2.Point1.Data.StartCondition, 
TestParameter, AutoAnalysis.Line2.Point2.Type, 0
TestParameter, AutoAnalysis.Line2.Point2.XY.X, 
TestParameter, AutoAnalysis.Line2.Point2.XY.Y, 
TestParameter, AutoAnalysis.Line2.Point2.Data.Var, 
TestParameter, AutoAnalysis.Line2.Point2.Data.Condition, 
TestParameter, AutoAnalysis.Line2.Point2.Data.Start, false
TestParameter, AutoAnalysis.Line2.Point2.Data.StartVar, 
TestParameter, AutoAnalysis.Line2.Point2.Data.StartCondition, 
TestParameter, AutoAnalysis.Line2.GradientExpr, 0
TestParameter, AutoAnalysis.Marker.Enabled, false
TestParameter, AutoAnalysis.Marker.Data.Var, 
TestParameter, AutoAnalysis.Marker.Data.Condition, 
TestParameter, AutoAnalysis.Marker.Data.Start, false
TestParameter, AutoAnalysis.Marker.Data.StartVar, 
TestParameter, AutoAnalysis.Marker.Data.StartCondition, 
MetaData, TestRecord.EntryPoint, true
MetaData, TestRecord.RecordTime, 08/14/2019 13:27:04
MetaData, TestRecord.TestTarget, 
MetaData, TestRecord.IterationIndex, 2
MetaData, TestRecord.Preservation, true
MetaData, TestRecord.Flag, #
MetaData, TestRecord.Remarks, #188_F_implant_5nm_cap_die2_r3c3_W150_S70
MetaData, TestRecord.LinkKey, 49e4d3ce-7ab2-4d96-9986-edbe0e1a3c98
Dimension1, 201, 201, 201, 201, 201, 201, 201
Dimension2, 1, 1, 1, 1, 1, 1, 1
DataName, Vd, Id, Ig, Vg, Id_dens, Ig_dens, gm
DataValue, 5, 4.189E-12, -1.3000000000000002E-10, -5, 6.9816666666666666E-11, 2.166666666666667E-09, -7.7866666666666935E-10
DataValue, 5, 1.8530000000000003E-12, -9.0000000000000012E-11, -4.95, 3.0883333333333339E-11, 1.5000000000000002E-09, -4.7050000000000163E-10
DataValue, 5, 1.366E-12, -9.0000000000000012E-11, -4.9, 2.2766666666666668E-11, 1.5000000000000002E-09, -1.1000000000000043E-10
DataValue, 5, 1.193E-12, -9.0000000000000012E-11, -4.8500000000000005, 1.9883333333333335E-11, 1.5000000000000002E-09, -3.1333333333333425E-11
DataValue, 5, 1.178E-12, -1.0000000000000002E-10, -4.8000000000000007, 1.9633333333333336E-11, 1.6666666666666669E-09, -2.0833333333333216E-11
DataValue, 5, 1.068E-12, -9.0000000000000012E-11, -4.75, 1.7800000000000003E-11, 1.5000000000000002E-09, -5.0166666666666409E-11
DataValue, 5, 8.770000000000001E-13, -9.0000000000000012E-11, -4.7, 1.4616666666666669E-11, 1.5000000000000002E-09, -4.8000000000000177E-11
DataValue, 5, 7.8000000000000011E-13, -9.0000000000000012E-11, -4.65, 1.3000000000000002E-11, 1.5000000000000002E-09, -1.4333333333333387E-11
DataValue, 5, 7.9100000000000006E-13, -8.0000000000000008E-11, -4.6000000000000005, 1.3183333333333335E-11, 1.3333333333333335E-09, 6.00000000000002E-12
DataValue, 5, 8.1600000000000006E-13, -9.0000000000000012E-11, -4.5500000000000007, 1.3600000000000002E-11, 1.5000000000000002E-09, 2.8333333333333151E-12
DataValue, 5, 8.0800000000000009E-13, -9.0000000000000012E-11, -4.5, 1.3466666666666668E-11, 1.5000000000000002E-09, -2.5499999999999883E-11
DataValue, 5, 6.63E-13, -8.0000000000000008E-11, -4.45, 1.105E-11, 1.3333333333333335E-09, 4.8333333333333465E-12
DataValue, 5, 8.3700000000000007E-13, -8.0000000000000008E-11, -4.4, 1.3950000000000001E-11, 1.3333333333333335E-09, 8.8333333333333755E-12
DataValue, 5, 7.1600000000000008E-13, -8.0000000000000008E-11, -4.3500000000000005, 1.1933333333333335E-11, 1.3333333333333335E-09, -1.1333333333333377E-11
DataValue, 5, 7.6900000000000006E-13, -8.0000000000000008E-11, -4.3000000000000007, 1.2816666666666667E-11, 1.3333333333333335E-09, -2.3499999999999877E-11
DataValue, 5, 5.7500000000000007E-13, -7E-11, -4.25, 9.5833333333333342E-12, 1.1666666666666668E-09, -6.3833333333333E-11
DataValue, 5, 3.86E-13, -8.0000000000000008E-11, -4.2, 6.4333333333333341E-12, 1.3333333333333335E-09, -4.3333333333333369E-12
DataValue, 5, 5.4900000000000008E-13, -7E-11, -4.15, 9.150000000000002E-12, 1.1666666666666668E-09, 3.6833333333333471E-11
DataValue, 5, 6.07E-13, -8.0000000000000008E-11, -4.1000000000000005, 1.0116666666666668E-11, 1.3333333333333335E-09, -3.00000000000001E-12
DataValue, 5, 5.3100000000000006E-13, -8.0000000000000008E-11, -4.0500000000000007, 8.8500000000000021E-12, 1.3333333333333335E-09, -2.2166666666666561E-11
DataValue, 5, 4.74E-13, -8.0000000000000008E-11, -4, 7.9E-12, 1.3333333333333335E-09, -1.4999999999999932E-11
DataValue, 5, 4.4100000000000004E-13, -8.0000000000000008E-11, -3.95, 7.35E-12, 1.3333333333333335E-09, 1.8500000000000069E-11
DataValue, 5, 5.85E-13, -9.0000000000000012E-11, -3.9000000000000004, 9.75E-12, 1.5000000000000002E-09, 3.0500000000000108E-11
DataValue, 5, 6.2400000000000007E-13, -8.0000000000000008E-11, -3.8500000000000005, 1.0400000000000001E-11, 1.3333333333333335E-09, -1.4499999999999992E-11
DataValue, 5, 4.98E-13, -8.0000000000000008E-11, -3.8000000000000003, 8.3E-12, 1.3333333333333335E-09, -3.0166666666666634E-11
DataValue, 5, 4.4300000000000003E-13, -8.0000000000000008E-11, -3.7500000000000004, 7.3833333333333347E-12, 1.3333333333333335E-09, -5.4999999999999859E-12
DataValue, 5, 4.65E-13, -8.0000000000000008E-11, -3.7, 7.75E-12, 1.3333333333333335E-09, 1.7166666666666633E-11
DataValue, 5, 5.46E-13, -8.0000000000000008E-11, -3.6500000000000004, 9.1E-12, 1.3333333333333335E-09, -2.5833333333333309E-11
DataValue, 5, 3.1000000000000004E-13, -8.0000000000000008E-11, -3.6, 5.1666666666666674E-12, 1.3333333333333335E-09, -2.3999999999999966E-11
DataValue, 5, 4.0200000000000005E-13, -8.0000000000000008E-11, -3.5500000000000003, 6.7000000000000009E-12, 1.3333333333333335E-09, 1.83333333333334E-11
DataValue, 5, 4.2000000000000003E-13, -8.0000000000000008E-11, -3.5000000000000004, 7.0000000000000009E-12, 1.3333333333333335E-09, 4.5999999999999957E-11
DataValue, 5, 6.78E-13, -9.0000000000000012E-11, -3.45, 1.13E-11, 1.5000000000000002E-09, 3.7666666666666646E-11
DataValue, 5, 6.4600000000000007E-13, -7E-11, -3.4000000000000004, 1.0766666666666669E-11, 1.1666666666666668E-09, -3.599999999999996E-11
DataValue, 5, 4.6200000000000005E-13, -8.0000000000000008E-11, -3.35, 7.7000000000000015E-12, 1.3333333333333335E-09, -4.83333333333333E-11
DataValue, 5, 3.5600000000000005E-13, -8.0000000000000008E-11, -3.3000000000000003, 5.9333333333333342E-12, 1.3333333333333335E-09, -1.1666666666666717E-11
DataValue, 5, 3.9200000000000005E-13, -8.0000000000000008E-11, -3.2500000000000004, 6.533333333333334E-12, 1.3333333333333335E-09, 1.6166666666666653E-11
DataValue, 5, 4.5300000000000004E-13, -8.0000000000000008E-11, -3.2, 7.55E-12, 1.3333333333333335E-09, 1.4833333333333331E-11
DataValue, 5, 4.8100000000000007E-13, -8.0000000000000008E-11, -3.1500000000000004, 8.0166666666666684E-12, 1.3333333333333335E-09, -2.4666666666666649E-11
DataValue, 5, 3.05E-13, -8.0000000000000008E-11, -3.1, 5.0833333333333336E-12, 1.3333333333333335E-09, 3.8333333333333266E-12
DataValue, 5, 5.0400000000000007E-13, -8.0000000000000008E-11, -3.0500000000000003, 8.4000000000000014E-12, 1.3333333333333335E-09, 3.0000000000000116E-11
DataValue, 5, 4.8500000000000005E-13, -8.0000000000000008E-11, -3.0000000000000004, 8.0833333333333345E-12, 1.3333333333333335E-09, -1.0833333333333319E-11
DataValue, 5, 4.3900000000000005E-13, -8.0000000000000008E-11, -2.95, 7.3166666666666685E-12, 1.3333333333333335E-09, -4.9999999999999949E-12
DataValue, 5, 4.5500000000000008E-13, -8.0000000000000008E-11, -2.9000000000000004, 7.5833333333333346E-12, 1.3333333333333335E-09, -8.8333333333333368E-12
DataValue, 5, 3.86E-13, -8.0000000000000008E-11, -2.85, 6.4333333333333341E-12, 1.3333333333333335E-09, 1.6666666666666658E-11
DataValue, 5, 5.5500000000000006E-13, -8.0000000000000008E-11, -2.8000000000000003, 9.250000000000002E-12, 1.3333333333333335E-09, 1.6166666666666724E-11
DataValue, 5, 4.8300000000000006E-13, -8.0000000000000008E-11, -2.7500000000000004, 8.05E-12, 1.3333333333333335E-09, -3.116666666666665E-11
DataValue, 5, 3.6800000000000005E-13, -8.0000000000000008E-11, -2.7, 6.1333333333333341E-12, 1.3333333333333335E-09, -4.8833333333333294E-11
DataValue, 5, 1.9000000000000002E-13, -8.0000000000000008E-11, -2.6500000000000004, 3.166666666666667E-12, 1.3333333333333335E-09, -2.6166666666666647E-11
DataValue, 5, 2.11E-13, -8.0000000000000008E-11, -2.6, 3.516666666666667E-12, 1.3333333333333335E-09, 1.683333333333332E-11
DataValue, 5, 2.91E-13, -8.0000000000000008E-11, -2.5500000000000003, 4.8500000000000005E-12, 1.3333333333333335E-09, 4.5833333333333304E-11
DataValue, 5, 4.86E-13, -8.0000000000000008E-11, -2.5, 8.1000000000000014E-12, 1.3333333333333335E-09, 7.6666666666666612E-12
DataValue, 5, 3.3700000000000003E-13, -9.0000000000000012E-11, -2.45, 5.6166666666666673E-12, 1.5000000000000002E-09, -1.0333333333333382E-11
DataValue, 5, 4.24E-13, -8.0000000000000008E-11, -2.4000000000000004, 7.066666666666667E-12, 1.3333333333333335E-09, 6.8333333333333227E-12
DataValue, 5, 3.78E-13, -8.0000000000000008E-11, -2.35, 6.3E-12, 1.3333333333333335E-09, 4.3333333333333418E-12
DataValue, 5, 4.5000000000000005E-13, -8.0000000000000008E-11, -2.3000000000000003, 7.5000000000000016E-12, 1.3333333333333335E-09, -2.1166666666666639E-11
DataValue, 5, 2.5100000000000004E-13, -9.0000000000000012E-11, -2.25, 4.1833333333333346E-12, 1.5000000000000002E-09, -2.999999999999998E-11
DataValue, 5, 2.7E-13, -8.0000000000000008E-11, -2.2, 4.5000000000000006E-12, 1.3333333333333335E-09, 9.1666666666666916E-12
DataValue, 5, 3.06E-13, -8.0000000000000008E-11, -2.1500000000000004, 5.1000000000000005E-12, 1.3333333333333335E-09, 3.1333333333333322E-11
DataValue, 5, 4.5800000000000007E-13, -8.0000000000000008E-11, -2.1, 7.6333333333333354E-12, 1.3333333333333335E-09, 1.9499999999999988E-11
DataValue, 5, 4.23E-13, -8.0000000000000008E-11, -2.0500000000000003, 7.0500000000000009E-12, 1.3333333333333335E-09, -2.8333333333333323E-11
DataValue, 5, 2.8800000000000004E-13, -8.0000000000000008E-11, -2, 4.8000000000000005E-12, 1.3333333333333335E-09, -7.1666666666666613E-12
DataValue, 5, 3.8000000000000005E-13, -8.0000000000000008E-11, -1.9500000000000002, 6.3333333333333341E-12, 1.3333333333333335E-09, 1.7166666666666698E-11
DataValue, 5, 3.9100000000000005E-13, -8.0000000000000008E-11, -1.9000000000000001, 6.5166666666666679E-12, 1.3333333333333335E-09, 3.1833333333333314E-11
DataValue, 5, 5.7100000000000009E-13, -8.0000000000000008E-11, -1.85, 9.5166666666666681E-12, 1.3333333333333335E-09, 1.3833333333333307E-11
DataValue, 5, 4.74E-13, -8.0000000000000008E-11, -1.8, 7.9E-12, 1.3333333333333335E-09, 2.4500000000000035E-11
DataValue, 5, 7.1800000000000007E-13, -8.0000000000000008E-11, -1.7500000000000002, 1.1966666666666668E-11, 1.3333333333333335E-09, 1.4800000000000024E-10
DataValue, 5, 1.362E-12, -8.0000000000000008E-11, -1.7000000000000002, 2.2700000000000003E-11, 1.3333333333333335E-09, 4.39833333333333E-10
DataValue, 5, 3.3570000000000003E-12, -8.0000000000000008E-11, -1.6500000000000001, 5.5950000000000005E-11, 1.3333333333333335E-09, 1.2348333333333322E-09
DataValue, 5, 8.7710000000000013E-12, -8.0000000000000008E-11, -1.6, 1.4618333333333335E-10, 1.3333333333333335E-09, 3.4669999999999976E-09
DataValue, 5, 2.4159E-11, -8.0000000000000008E-11, -1.55, 4.0265000000000005E-10, 1.3333333333333335E-09, 8.6088333333333465E-09
DataValue, 5, 6.0424E-11, -8.0000000000000008E-11, -1.5000000000000002, 1.0070666666666668E-09, 1.3333333333333335E-09, 2.0047833333333367E-08
DataValue, 5, 1.4444600000000002E-10, -8.0000000000000008E-11, -1.4500000000000002, 2.4074333333333339E-09, 1.3333333333333335E-09, 4.7542166666666621E-08
DataValue, 5, 3.45677E-10, -8.0000000000000008E-11, -1.4000000000000001, 5.7612833333333335E-09, 1.3333333333333335E-09, 1.0175399999999991E-07
DataValue, 5, 7.5497E-10, -7E-11, -1.35, 1.2582833333333335E-08, 1.1666666666666668E-09, 2.290704999999998E-07
DataValue, 5, 1.7201E-09, -8.0000000000000008E-11, -1.3, 2.8668333333333335E-08, 1.3333333333333335E-09, 5.0265666666666618E-07
DataValue, 5, 3.77091E-09, -7E-11, -1.25, 6.28485E-08, 1.1666666666666668E-09, 1.1690983333333349E-06
DataValue, 5, 8.73469E-09, -7E-11, -1.2000000000000002, 1.4557816666666668E-07, 1.1666666666666668E-09, 2.44598166666667E-06
DataValue, 5, 1.84468E-08, -7E-11, -1.1500000000000001, 3.0744666666666664E-07, 1.1666666666666668E-09, 5.063284999999995E-06
DataValue, 5, 3.91144E-08, -8.0000000000000008E-11, -1.1, 6.5190666666666659E-07, 1.3333333333333335E-09, 1.0390199999999989E-05
DataValue, 5, 8.0788E-08, -8.0000000000000008E-11, -1.05, 1.3464666666666665E-06, 1.3333333333333335E-09, 1.7533266666666657E-05
DataValue, 5, 1.44314E-07, -8.0000000000000008E-11, -1, 2.4052333333333337E-06, 1.3333333333333335E-09, 3.0765833333333343E-05
DataValue, 5, 2.65383E-07, -8.0000000000000008E-11, -0.95000000000000007, 4.42305E-06, 1.3333333333333335E-09, 5.2175000000000008E-05
DataValue, 5, 4.5736399999999997E-07, -8.0000000000000008E-11, -0.9, 7.6227333333333333E-06, 1.3333333333333335E-09, 8.36091666666667E-05
DataValue, 5, 7.67038E-07, -8.0000000000000008E-11, -0.85000000000000009, 1.2783966666666668E-05, 1.3333333333333335E-09, 0.00012430766666666668
DataValue, 5, 1.20321E-06, -8.0000000000000008E-11, -0.8, 2.00535E-05, 1.3333333333333335E-09, 0.00019806533333333341
DataValue, 5, 1.9554300000000004E-06, -8.0000000000000008E-11, -0.75000000000000011, 3.2590500000000006E-05, 1.3333333333333335E-09, 0.0003058300000000001
DataValue, 5, 3.03819E-06, -9.0000000000000012E-11, -0.70000000000000007, 5.06365E-05, 1.5000000000000002E-09, 0.00044407333333333306
DataValue, 5, 4.6198700000000009E-06, -8.0000000000000008E-11, -0.65, 7.699783333333335E-05, 1.3333333333333335E-09, 0.00063767833333333373
DataValue, 5, 6.8642600000000011E-06, -8.0000000000000008E-11, -0.60000000000000009, 0.00011440433333333336, 1.3333333333333335E-09, 0.00091202833333333365
DataValue, 5, 1.009204E-05, -8.0000000000000008E-11, -0.55, 0.00016820066666666669, 1.3333333333333335E-09, 0.0012587566666666654
DataValue, 5, 1.44168E-05, -8.0000000000000008E-11, -0.5, 0.00024028000000000002, 1.3333333333333335E-09, 0.0017050766666666659
DataValue, 5, 2.03225E-05, -8.0000000000000008E-11, -0.45, 0.00033870833333333333, 1.3333333333333335E-09, 0.0022649500000000004
DataValue, 5, 2.80065E-05, -8.0000000000000008E-11, -0.4, 0.000466775, 1.3333333333333335E-09, 0.0029209666666666673
DataValue, 5, 3.78483E-05, -8.0000000000000008E-11, -0.35000000000000003, 0.000630805, 1.3333333333333335E-09, 0.0037804833333333352
DataValue, 5, 5.06894E-05, -9.0000000000000012E-11, -0.30000000000000004, 0.00084482333333333345, 1.5000000000000002E-09, 0.0047446166666666673
DataValue, 5, 6.6316000000000007E-05, -8.0000000000000008E-11, -0.25, 0.0011052666666666669, 1.3333333333333335E-09, 0.0058168166666666661
DataValue, 5, 8.55903E-05, -8.0000000000000008E-11, -0.2, 0.0014265050000000002, 1.3333333333333335E-09, 0.0070976166666666665
DataValue, 5, 0.0001089017, -8.0000000000000008E-11, -0.15000000000000002, 0.0018150283333333334, 1.3333333333333335E-09, 0.0086231166666666647
DataValue, 5, 0.000137329, -8.0000000000000008E-11, -0.1, 0.0022888166666666667, 1.3333333333333335E-09, 0.010171216666666667
