
SetupTitle, HEMT_transfer
PrimitiveTest, I/V Sweep
TestParameter, Context.MainFrame, B1500A
TestParameter, Channel.UnitType, SMU, SMU, SMU
TestParameter, Channel.Unit, SMU1:MP, SMU2:MC, GNDU:GND
TestParameter, Channel.IName, Id, Ig, Is
TestParameter, Channel.VName, Vd, Vg, Vs
TestParameter, Channel.Mode, V, V, COMMON
TestParameter, Channel.Func, CONST, VAR1, CONST
TestParameter, Channel.Index, 
TestParameter, Channel.Time, 
TestParameter, Measurement.Port.Unit, SMU1:MP, SMU2:MC, GNDU:GND
TestParameter, Measurement.Port.SeriesResistor, NONE, NONE, NONE
TestParameter, Measurement.Port.Filter, ON, ON, ON
TestParameter, Measurement.Port.OutputVoltageComparison, 0, 0, 0
TestParameter, Measurement.Primary.Locus, Single
TestParameter, Measurement.Primary.Scale, LINEAR
TestParameter, Measurement.Primary.Start, -5
TestParameter, Measurement.Primary.Stop, 5
TestParameter, Measurement.Primary.Step, 0.05
TestParameter, Measurement.Primary.Compliance, 0.001
TestParameter, Measurement.Primary.PowerCompliance, 0
TestParameter, Measurement.Aborting.Condition, CONTINUE AT ANY
TestParameter, Measurement.PostOutput.Value, START
TestParameter, Measurement.PostOutput.Retention, OFF
TestParameter, Measurement.Bias.Source, 5, -5, 0
TestParameter, Measurement.Bias.Compliance, 0.1, 0.001, 2
TestParameter, Measurement.Monitor.Unit, SMU1:MP, SMU2:MC, GNDU:GND
TestParameter, Measurement.Monitor.Adc, HR ADC, HS ADC, HR ADC
TestParameter, Measurement.Monitor.Measurement, Compliance Side, Force and Compliance Sides, Compliance Side
TestParameter, Measurement.Monitor.RangingMode, LIMITED, LIMITED, LIMITED
TestParameter, Measurement.Monitor.RangeBoundary, 1nA, 10uA, 1nA
TestParameter, Measurement.Monitor.RangeRating, BY FULL RANGE, BY FULL RANGE, BY FULL RANGE
TestParameter, Measurement.Monitor.RangeRatingCoeff, 50, 50, 50
TestParameter, Measurement.Timing.Hold, 0
TestParameter, Measurement.Timing.Delay, 0
TestParameter, Measurement.Adc.HighSpeed.Mode, PLC
TestParameter, Measurement.Adc.HighSpeed.Coeff, 2
TestParameter, Measurement.Adc.HighResolution.AutoZero, OFF
TestParameter, Measurement.Adc.HighResolution.Mode, PLC
TestParameter, Measurement.Adc.HighResolution.Coeff, 2
TestParameter, Measurement.WaitTime.Source.Coeff, 1
TestParameter, Measurement.WaitTime.Source.Offset, 0
TestParameter, Measurement.WaitTime.Monitor.Coeff, 1
TestParameter, Measurement.WaitTime.Monitor.Offset, 0
TestParameter, Function.User.Name, Id_dens, Ig_dens, gm
TestParameter, Function.User.Unit, A/mm, A/mm, S/mm
TestParameter, Function.User.Definition, Id/0.06, abs(Ig)/0.06, diff(Id_dens,Vg)
TestParameter, Output.Graph.Enabled, true
TestParameter, Output.Graph.AutoScaling, false
TestParameter, Output.Graph.XAxis.Data, Vg
TestParameter, Output.Graph.XAxis.Scale, Linear
TestParameter, Output.Graph.XAxis.Left, -2
TestParameter, Output.Graph.XAxis.Right, 10
TestParameter, Output.Graph.XAxis.RunTimeAutoScale, false
TestParameter, Output.Graph.YAxis.Data, Id_dens, Id_dens, gm, Ig_dens
TestParameter, Output.Graph.YAxis.Scale, Log, Linear, Linear, Log
TestParameter, Output.Graph.YAxis.Bottom, 0, 0, 0, 0
TestParameter, Output.Graph.YAxis.Top, 1, 1, 1, 1
TestParameter, Output.Graph.YAxis.Group, , , , 
TestParameter, Output.Graph.YAxis.RunTimeAutoScale, false, false, false, false
TestParameter, Output.List.Data, Vg, Id_dens, Ig_dens, Vd, gm
TestParameter, AutoAnalysis.Interpolation, false
TestParameter, AutoAnalysis.Line1.Enabled, false
TestParameter, AutoAnalysis.Line1.Type, 1
TestParameter, AutoAnalysis.Line1.Fix, True
TestParameter, AutoAnalysis.Line1.YAxis, 0
TestParameter, AutoAnalysis.Line1.Point1.Type, 0
TestParameter, AutoAnalysis.Line1.Point1.XY.X, 
TestParameter, AutoAnalysis.Line1.Point1.XY.Y, 
TestParameter, AutoAnalysis.Line1.Point1.Data.Var, 
TestParameter, AutoAnalysis.Line1.Point1.Data.Condition, 
TestParameter, AutoAnalysis.Line1.Point1.Data.Start, false
TestParameter, AutoAnalysis.Line1.Point1.Data.StartVar, 
TestParameter, AutoAnalysis.Line1.Point1.Data.StartCondition, 
TestParameter, AutoAnalysis.Line1.Point2.Type, 0
TestParameter, AutoAnalysis.Line1.Point2.XY.X, 
TestParameter, AutoAnalysis.Line1.Point2.XY.Y, 
TestParameter, AutoAnalysis.Line1.Point2.Data.Var, 
TestParameter, AutoAnalysis.Line1.Point2.Data.Condition, 
TestParameter, AutoAnalysis.Line1.Point2.Data.Start, false
TestParameter, AutoAnalysis.Line1.Point2.Data.StartVar, 
TestParameter, AutoAnalysis.Line1.Point2.Data.StartCondition, 
TestParameter, AutoAnalysis.Line1.GradientExpr, 0
TestParameter, AutoAnalysis.Line2.Enabled, false
TestParameter, AutoAnalysis.Line2.Type, 1
TestParameter, AutoAnalysis.Line2.Fix, True
TestParameter, AutoAnalysis.Line2.YAxis, 0
TestParameter, AutoAnalysis.Line2.Point1.Type, 0
TestParameter, AutoAnalysis.Line2.Point1.XY.X, 
TestParameter, AutoAnalysis.Line2.Point1.XY.Y, 
TestParameter, AutoAnalysis.Line2.Point1.Data.Var, 
TestParameter, AutoAnalysis.Line2.Point1.Data.Condition, 
TestParameter, AutoAnalysis.Line2.Point1.Data.Start, false
TestParameter, AutoAnalysis.Line2.Point1.Data.StartVar, 
TestParameter, AutoAnalysis.Line2.Point1.Data.StartCondition, 
TestParameter, AutoAnalysis.Line2.Point2.Type, 0
TestParameter, AutoAnalysis.Line2.Point2.XY.X, 
TestParameter, AutoAnalysis.Line2.Point2.XY.Y, 
TestParameter, AutoAnalysis.Line2.Point2.Data.Var, 
TestParameter, AutoAnalysis.Line2.Point2.Data.Condition, 
TestParameter, AutoAnalysis.Line2.Point2.Data.Start, false
TestParameter, AutoAnalysis.Line2.Point2.Data.StartVar, 
TestParameter, AutoAnalysis.Line2.Point2.Data.StartCondition, 
TestParameter, AutoAnalysis.Line2.GradientExpr, 0
TestParameter, AutoAnalysis.Marker.Enabled, false
TestParameter, AutoAnalysis.Marker.Data.Var, 
TestParameter, AutoAnalysis.Marker.Data.Condition, 
TestParameter, AutoAnalysis.Marker.Data.Start, false
TestParameter, AutoAnalysis.Marker.Data.StartVar, 
TestParameter, AutoAnalysis.Marker.Data.StartCondition, 
MetaData, TestRecord.EntryPoint, true
MetaData, TestRecord.RecordTime, 08/16/2019 16:09:14
MetaData, TestRecord.TestTarget, 
MetaData, TestRecord.IterationIndex, 1
MetaData, TestRecord.Preservation, true
MetaData, TestRecord.Flag, #
MetaData, TestRecord.Remarks, #089_LPCVD_trigate_die3_r2c2_W150
MetaData, TestRecord.LinkKey, 6d157ae1-f09a-4ff8-a58a-2cb2a7dfbf35
Dimension1, 201, 201, 201, 201, 201, 201, 201
Dimension2, 1, 1, 1, 1, 1, 1, 1
DataName, Vd, Id, Ig, Vg, Id_dens, Ig_dens, gm
DataValue, 5, 4.838E-12, -1.8000000000000003E-10, -5, 8.0633333333333342E-11, 3.0000000000000004E-09, -2.5066666666666766E-10
DataValue, 5, 4.086E-12, -1.5000000000000003E-10, -4.95, 6.81E-11, 2.5000000000000005E-09, -2.3733333333333422E-10
DataValue, 5, 3.414E-12, -1.4E-10, -4.9, 5.6900000000000005E-11, 2.3333333333333335E-09, -1.6250000000000053E-10
DataValue, 5, 3.1110000000000004E-12, -1.4E-10, -4.8500000000000005, 5.1850000000000007E-11, 2.3333333333333335E-09, -4.9666666666666889E-11
DataValue, 5, 3.116E-12, -1.4E-10, -4.8000000000000007, 5.1933333333333334E-11, 2.3333333333333335E-09, -4.5999999999999777E-11
DataValue, 5, 2.8350000000000003E-12, -1.5000000000000003E-10, -4.75, 4.7250000000000005E-11, 2.5000000000000005E-09, -8.1499999999999551E-11
DataValue, 5, 2.627E-12, -1.3000000000000002E-10, -4.7, 4.3783333333333335E-11, 2.166666666666667E-09, -2.533333333333344E-11
DataValue, 5, 2.683E-12, -1.4E-10, -4.65, 4.471666666666667E-11, 2.3333333333333335E-09, -2.1500000000000081E-11
DataValue, 5, 2.498E-12, -1.3000000000000002E-10, -4.6000000000000005, 4.1633333333333334E-11, 2.166666666666667E-09, -5.6333333333333494E-11
DataValue, 5, 2.3450000000000002E-12, -1.3000000000000002E-10, -4.5500000000000007, 3.9083333333333341E-11, 2.166666666666667E-09, -3.8833333333333083E-11
DataValue, 5, 2.265E-12, -1.3000000000000002E-10, -4.5, 3.7750000000000005E-11, 2.166666666666667E-09, -8.1833333333332986E-11
DataValue, 5, 1.854E-12, -1.4E-10, -4.45, 3.09E-11, 2.3333333333333335E-09, -3.3666666666666841E-11
DataValue, 5, 2.063E-12, -1.3000000000000002E-10, -4.4, 3.4383333333333334E-11, 2.166666666666667E-09, 2.16666666666668E-11
DataValue, 5, 1.984E-12, -1.2E-10, -4.3500000000000005, 3.306666666666667E-11, 2E-09, -2.7000000000000042E-11
DataValue, 5, 1.901E-12, -1.3000000000000002E-10, -4.3000000000000007, 3.1683333333333339E-11, 2.166666666666667E-09, 7.9999999999999562E-12
DataValue, 5, 2.0320000000000002E-12, -1.2E-10, -4.25, 3.386666666666667E-11, 2E-09, -3.3333333333333041E-12
DataValue, 5, 1.881E-12, -1.2E-10, -4.2, 3.1350000000000007E-11, 2E-09, -3.983333333333348E-11
DataValue, 5, 1.7930000000000001E-12, -1.2E-10, -4.15, 2.9883333333333336E-11, 2E-09, -7.66666666666672E-12
DataValue, 5, 1.835E-12, -1.2E-10, -4.1000000000000005, 3.0583333333333338E-11, 2E-09, -5.0000000000000163E-11
DataValue, 5, 1.4930000000000002E-12, -1.2E-10, -4.0500000000000007, 2.4883333333333337E-11, 2E-09, -3.3999999999999812E-11
DataValue, 5, 1.6310000000000002E-12, -1.2E-10, -4, 2.7183333333333338E-11, 2E-09, 4.9999999999999724E-11
DataValue, 5, 1.7930000000000001E-12, -1.2E-10, -3.95, 2.9883333333333336E-11, 2E-09, -7.00000000000004E-12
DataValue, 5, 1.5890000000000002E-12, -1.2E-10, -3.9000000000000004, 2.6483333333333337E-11, 2E-09, -2.0000000000000067E-11
DataValue, 5, 1.673E-12, -1.2E-10, -3.8500000000000005, 2.7883333333333337E-11, 2E-09, 1.2166666666666672E-11
DataValue, 5, 1.6620000000000002E-12, -1.1000000000000001E-10, -3.8000000000000003, 2.7700000000000005E-11, 1.8333333333333336E-09, -2.9166666666666637E-11
DataValue, 5, 1.498E-12, -1.1000000000000001E-10, -3.7500000000000004, 2.496666666666667E-11, 1.8333333333333336E-09, -2.1333333333333331E-11
DataValue, 5, 1.5340000000000001E-12, -1.2E-10, -3.7, 2.556666666666667E-11, 2E-09, -6.61666666666666E-11
DataValue, 5, 1.101E-12, -1.2E-10, -3.6500000000000004, 1.8350000000000003E-11, 2E-09, -1.5166666666666653E-11
DataValue, 5, 1.4430000000000002E-12, -1.1000000000000001E-10, -3.6, 2.4050000000000004E-11, 1.8333333333333336E-09, 9.3833333333333242E-11
DataValue, 5, 1.6640000000000002E-12, -1.2E-10, -3.5500000000000003, 2.7733333333333336E-11, 2E-09, -9.1666666666667E-12
DataValue, 5, 1.3880000000000001E-12, -1.1000000000000001E-10, -3.5000000000000004, 2.3133333333333337E-11, 1.8333333333333336E-09, -2.5833333333333318E-11
DataValue, 5, 1.5090000000000001E-12, -1.1000000000000001E-10, -3.45, 2.5150000000000002E-11, 1.8333333333333336E-09, 2.9999999999999967E-11
DataValue, 5, 1.5680000000000002E-12, -1.0000000000000002E-10, -3.4000000000000004, 2.6133333333333336E-11, 1.6666666666666669E-09, -2.9999999999999967E-11
DataValue, 5, 1.329E-12, -1.1000000000000001E-10, -3.35, 2.2150000000000002E-11, 1.8333333333333336E-09, -1.5166666666666653E-11
DataValue, 5, 1.477E-12, -1.1000000000000001E-10, -3.3000000000000003, 2.461666666666667E-11, 1.8333333333333336E-09, -2.0000000000000068E-12
DataValue, 5, 1.3170000000000001E-12, -1.1000000000000001E-10, -3.2500000000000004, 2.1950000000000002E-11, 1.8333333333333336E-09, -4.8499999999999968E-11
DataValue, 5, 1.186E-12, -1.1000000000000001E-10, -3.2, 1.9766666666666668E-11, 1.8333333333333336E-09, 2.7166666666666641E-11
DataValue, 5, 1.4800000000000002E-12, -1.1000000000000001E-10, -3.1500000000000004, 2.4666666666666669E-11, 1.8333333333333336E-09, 5.1666666666666957E-12
DataValue, 5, 1.2170000000000002E-12, -1.1000000000000001E-10, -3.1, 2.0283333333333338E-11, 1.8333333333333336E-09, -3.9166666666666628E-11
DataValue, 5, 1.245E-12, -1.1000000000000001E-10, -3.0500000000000003, 2.0750000000000003E-11, 1.8333333333333336E-09, 5.0166666666666855E-11
DataValue, 5, 1.5180000000000002E-12, -1.1000000000000001E-10, -3.0000000000000004, 2.5300000000000006E-11, 1.8333333333333336E-09, 6.5000000000000171E-12
DataValue, 5, 1.2840000000000002E-12, -1.1000000000000001E-10, -2.95, 2.1400000000000005E-11, 1.8333333333333336E-09, -3.1500000000000008E-11
DataValue, 5, 1.329E-12, -1.0000000000000002E-10, -2.9000000000000004, 2.2150000000000002E-11, 1.6666666666666669E-09, -7.1666666666666936E-12
DataValue, 5, 1.241E-12, -1.0000000000000002E-10, -2.85, 2.0683333333333335E-11, 1.6666666666666669E-09, -4.4499999999999943E-11
DataValue, 5, 1.0620000000000001E-12, -1.0000000000000002E-10, -2.8000000000000003, 1.7700000000000004E-11, 1.6666666666666669E-09, 8.6666666666667062E-12
DataValue, 5, 1.293E-12, -1.0000000000000002E-10, -2.7500000000000004, 2.1550000000000002E-11, 1.6666666666666669E-09, 4.3999999999999919E-11
DataValue, 5, 1.326E-12, -1.1000000000000001E-10, -2.7, 2.21E-11, 1.8333333333333336E-09, -1.3499999999999994E-11
DataValue, 5, 1.212E-12, -1.0000000000000002E-10, -2.6500000000000004, 2.0200000000000002E-11, 1.6666666666666669E-09, -8.49999999999995E-12
DataValue, 5, 1.2750000000000001E-12, -1.0000000000000002E-10, -2.6, 2.1250000000000004E-11, 1.6666666666666669E-09, -5.500000000000002E-12
DataValue, 5, 1.1790000000000001E-12, -1.1000000000000001E-10, -2.5500000000000003, 1.965E-11, 1.8333333333333336E-09, -1.3499999999999994E-11
DataValue, 5, 1.1940000000000002E-12, -1.0000000000000002E-10, -2.5, 1.9900000000000004E-11, 1.6666666666666669E-09, -1.6666666666666272E-12
DataValue, 5, 1.1690000000000002E-12, -1.0000000000000002E-10, -2.45, 1.9483333333333338E-11, 1.6666666666666669E-09, -4.1166666666666841E-11
DataValue, 5, 9.470000000000001E-13, -1.0000000000000002E-10, -2.4000000000000004, 1.5783333333333334E-11, 1.6666666666666669E-09, -2.0000000000000012E-11
DataValue, 5, 1.049E-12, -1.0000000000000002E-10, -2.35, 1.7483333333333336E-11, 1.6666666666666669E-09, 4.6333333333333322E-11
DataValue, 5, 1.2250000000000001E-12, -1.0000000000000002E-10, -2.3000000000000003, 2.041666666666667E-11, 1.6666666666666669E-09, 2.1166666666666645E-11
DataValue, 5, 1.176E-12, -1.0000000000000002E-10, -2.25, 1.9600000000000002E-11, 1.6666666666666669E-09, -9.4999999999999979E-12
DataValue, 5, 1.168E-12, -1.0000000000000002E-10, -2.2, 1.946666666666667E-11, 1.6666666666666669E-09, 2.2666666666666753E-11
DataValue, 5, 1.312E-12, -1.0000000000000002E-10, -2.1500000000000004, 2.1866666666666669E-11, 1.6666666666666669E-09, 5.7333333333333258E-11
DataValue, 5, 1.512E-12, -9.0000000000000012E-11, -2.1, 2.52E-11, 1.5000000000000002E-09, 5.9599999999999949E-10
DataValue, 5, 4.888E-12, -1.0000000000000002E-10, -2.0500000000000003, 8.1466666666666672E-11, 1.6666666666666669E-09, 4.1101666666666631E-09
DataValue, 5, 2.6173000000000002E-11, -9.0000000000000012E-11, -2, 4.3621666666666673E-10, 1.5000000000000002E-09, 2.8164499999999977E-08
DataValue, 5, 1.73875E-10, -9.0000000000000012E-11, -1.9500000000000002, 2.897916666666667E-09, 1.5000000000000002E-09, 1.8554450000000024E-07
DataValue, 5, 1.13944E-09, -9.0000000000000012E-11, -1.9000000000000001, 1.8990666666666665E-08, 1.5000000000000002E-09, 1.2260324999999987E-06
DataValue, 5, 7.53007E-09, -9.0000000000000012E-11, -1.85, 1.2550116666666665E-07, 1.5000000000000002E-09, 7.4062433333333251E-06
DataValue, 5, 4.5576899999999993E-08, -1.0000000000000002E-10, -1.8, 7.5961499999999988E-07, 1.6666666666666669E-09, 3.7937821666666712E-05
DataValue, 5, 2.35157E-07, -9.0000000000000012E-11, -1.7500000000000002, 3.9192833333333332E-06, 1.5000000000000002E-09, 0.00015989618333333354
DataValue, 5, 1.004954E-06, -1.0000000000000002E-10, -1.7000000000000002, 1.6749233333333332E-05, 1.6666666666666669E-09, 0.00052985883333333292
DataValue, 5, 3.4143100000000003E-06, -9.0000000000000012E-11, -1.6500000000000001, 5.6905166666666672E-05, 1.5000000000000002E-09, 0.0014080443333333325
DataValue, 5, 9.4532200000000009E-06, -1.0000000000000002E-10, -1.6, 0.0001575536666666667, 1.6666666666666669E-09, 0.0031556483333333306
DataValue, 5, 2.23482E-05, -9.0000000000000012E-11, -1.55, 0.00037247, 1.5000000000000002E-09, 0.0057345633333333425
DataValue, 5, 4.3860600000000005E-05, -1.0000000000000002E-10, -1.5000000000000002, 0.00073101000000000014, 1.6666666666666669E-09, 0.0091217833333333467
DataValue, 5, 7.70789E-05, -9.0000000000000012E-11, -1.4500000000000002, 0.0012846483333333334, 1.5000000000000002E-09, 0.013315233333333322
DataValue, 5, 0.000123752, -9.0000000000000012E-11, -1.4000000000000001, 0.0020625333333333337, 1.5000000000000002E-09, 0.017522516666666654
DataValue, 5, 0.00018221400000000001, -9.0000000000000012E-11, -1.35, 0.0030369000000000004, 1.5000000000000002E-09, 0.021400499999999979
DataValue, 5, 0.000252155, -9.0000000000000012E-11, -1.3, 0.0042025833333333333, 1.5000000000000002E-09, 0.025146499999999981
DataValue, 5, 0.000333093, -8.0000000000000008E-11, -1.25, 0.0055515500000000006, 1.3333333333333335E-09, 0.028941500000000047
DataValue, 5, 0.000425804, -9.0000000000000012E-11, -1.2000000000000002, 0.0070967333333333341, 1.5000000000000002E-09, 0.0321786666666667
DataValue, 5, 0.000526165, -8.0000000000000008E-11, -1.1500000000000001, 0.0087694166666666667, 1.3333333333333335E-09, 0.035126833333333309
DataValue, 5, 0.00063656500000000007, -8.0000000000000008E-11, -1.1, 0.010609416666666668, 1.3333333333333335E-09, 0.037859499999999983
DataValue, 5, 0.00075332200000000006, -9.0000000000000012E-11, -1.05, 0.012555366666666668, 1.5000000000000002E-09, 0.040308166666666638
DataValue, 5, 0.0008784140000000001, -8.0000000000000008E-11, -1, 0.014640233333333336, 1.3333333333333335E-09, 0.042872000000000021
DataValue, 5, 0.001010554, -8.0000000000000008E-11, -0.95000000000000007, 0.01684256666666667, 1.3333333333333335E-09, 0.045452666666666662
DataValue, 5, 0.00115113, -8.0000000000000008E-11, -0.9, 0.0191855, 1.3333333333333335E-09, 0.047032666666666653
DataValue, 5, 0.00129275, -8.0000000000000008E-11, -0.85000000000000009, 0.021545833333333334, 1.3333333333333335E-09, 0.048390000000000009
DataValue, 5, 0.00144147, -8.0000000000000008E-11, -0.8, 0.0240245, 1.3333333333333335E-09, 0.050398333333333385
DataValue, 5, 0.00159514, -9.0000000000000012E-11, -0.75000000000000011, 0.026585666666666671, 1.5000000000000002E-09, 0.052013333333333335
DataValue, 5, 0.00175355, -8.0000000000000008E-11, -0.70000000000000007, 0.029225833333333333, 1.3333333333333335E-09, 0.053496666666666609
DataValue, 5, 0.00191612, -8.0000000000000008E-11, -0.65, 0.031935333333333336, 1.3333333333333335E-09, 0.054851666666666743
DataValue, 5, 0.00208266, -8.0000000000000008E-11, -0.60000000000000009, 0.034711000000000006, 1.3333333333333335E-09, 0.056366666666666662
DataValue, 5, 0.00225432, -8.0000000000000008E-11, -0.55, 0.037572, 1.3333333333333335E-09, 0.057441666666666634
DataValue, 5, 0.0024273100000000002, -7E-11, -0.5, 0.040455166666666674, 1.1666666666666668E-09, 0.058566666666666677
DataValue, 5, 0.00260572, -8.0000000000000008E-11, -0.45, 0.043428666666666671, 1.3333333333333335E-09, 0.059848333333333295
DataValue, 5, 0.0027864, -7E-11, -0.4, 0.04644, 1.1666666666666668E-09, 0.0606183333333333
DataValue, 5, 0.00296943, -7E-11, -0.35000000000000003, 0.0494905, 1.1666666666666668E-09, 0.061708333333333351
DataValue, 5, 0.00315665, -7E-11, -0.30000000000000004, 0.052610833333333336, 1.1666666666666668E-09, 0.062836666666666638
DataValue, 5, 0.00334645, -8.0000000000000008E-11, -0.25, 0.055774166666666666, 1.3333333333333335E-09, 0.063478333333333345
DataValue, 5, 0.00353752, -8.0000000000000008E-11, -0.2, 0.058958666666666673, 1.3333333333333335E-09, 0.064228333333333443
DataValue, 5, 0.0037318200000000003, -8.0000000000000008E-11, -0.15000000000000002, 0.062197000000000009, 1.3333333333333335E-09, 0.065063333333333223
DataValue, 5, 0.0039279, -8.0000000000000008E-11, -0.1, 0.065465, 1.3333333333333335E-09, 0.066003333333333247
DataValue, 5, 0.00412784, -8.0000000000000008E-11, -0.05, 0.068797333333333335, 1.3333333333333335E-09, 0.0669266666666668
DataValue, 5, 0.00432946, -7E-11, 0, 0.072157666666666676, 1.1666666666666668E-09, 0.067385000000000084
DataValue, 5, 0.00453215, -7E-11, 0.05, 0.075535833333333344, 1.1666666666666668E-09, 0.068191666666666539
DataValue, 5, 0.00473861, -6E-11, 0.1, 0.078976833333333329, 1E-09, 0.069283333333333266
DataValue, 5, 0.00494785, -7E-11, 0.15000000000000002, 0.082464166666666672, 1.1666666666666668E-09, 0.070025000000000087
