
SetupTitle, Transfer
PrimitiveTest, I/V Sweep
TestParameter, Context.MainFrame, B1500A
TestParameter, Channel.UnitType, SMU, SMU, SMU
TestParameter, Channel.Unit, SMU1:HP, SMU3:MP, SMU2:MP
TestParameter, Channel.IName, Id, Ig, Is
TestParameter, Channel.VName, Vd, Vg, Vs
TestParameter, Channel.Mode, V, V, COMMON
TestParameter, Channel.Func, CONST, VAR1, CONST
TestParameter, Channel.Index, 
TestParameter, Channel.Time, 
TestParameter, Measurement.Port.Unit, SMU1:HP, SMU3:MP, SMU2:MP
TestParameter, Measurement.Port.SeriesResistor, NONE, NONE, NONE
TestParameter, Measurement.Port.Filter, ON, ON, ON
TestParameter, Measurement.Port.OutputVoltageComparison, 0, 0, 0
TestParameter, Measurement.Primary.Locus, Single
TestParameter, Measurement.Primary.Scale, LINEAR
TestParameter, Measurement.Primary.Start, -5
TestParameter, Measurement.Primary.Stop, 3
TestParameter, Measurement.Primary.Step, 0.04
TestParameter, Measurement.Primary.Compliance, 0.01
TestParameter, Measurement.Primary.PowerCompliance, 0
TestParameter, Measurement.Aborting.Condition, CONTINUE AT ANY
TestParameter, Measurement.PostOutput.Value, START
TestParameter, Measurement.PostOutput.Retention, OFF
TestParameter, Measurement.Bias.Source, 5, -5, 0
TestParameter, Measurement.Bias.Compliance, 0.1, 0.01, 0.1
TestParameter, Measurement.Monitor.Unit, SMU1:HP, SMU3:MP, SMU2:MP
TestParameter, Measurement.Monitor.Adc, HR ADC, HR ADC, HR ADC
TestParameter, Measurement.Monitor.Measurement, Compliance Side, Compliance Side, Compliance Side
TestParameter, Measurement.Monitor.RangingMode, LIMITED, LIMITED, LIMITED
TestParameter, Measurement.Monitor.RangeBoundary, 10nA, 1nA, 1nA
TestParameter, Measurement.Monitor.RangeRating, BY FULL RANGE, BY FULL RANGE, BY FULL RANGE
TestParameter, Measurement.Monitor.RangeRatingCoeff, 50, 50, 50
TestParameter, Measurement.Timing.Hold, 0
TestParameter, Measurement.Timing.Delay, 0
TestParameter, Measurement.Adc.HighSpeed.Mode, PLC
TestParameter, Measurement.Adc.HighSpeed.Coeff, 3
TestParameter, Measurement.Adc.HighResolution.AutoZero, OFF
TestParameter, Measurement.Adc.HighResolution.Mode, PLC
TestParameter, Measurement.Adc.HighResolution.Coeff, 6
TestParameter, Measurement.WaitTime.Source.Coeff, 1
TestParameter, Measurement.WaitTime.Source.Offset, 0
TestParameter, Measurement.WaitTime.Monitor.Coeff, 1
TestParameter, Measurement.WaitTime.Monitor.Offset, 0
TestParameter, Function.User.Name, Id_density, Ig_density, gm_density
TestParameter, Function.User.Unit, A/mm, A/mm, S/mm
TestParameter, Function.User.Definition, Id/0.06, abs(Ig)/0.06, diff(Id_density,Vg)
TestParameter, Output.Graph.Enabled, true
TestParameter, Output.Graph.XAxis.Data, Vg
TestParameter, Output.Graph.XAxis.Scale, Linear
TestParameter, Output.Graph.XAxis.Left, -6
TestParameter, Output.Graph.XAxis.Right, 6
TestParameter, Output.Graph.YAxis.Data, Id_density, Ig_density, Id_density, gm_density
TestParameter, Output.Graph.YAxis.Scale, Log, Log, Linear, Linear
TestParameter, Output.Graph.YAxis.Bottom, 0, 0, 0, 0
TestParameter, Output.Graph.YAxis.Top, 1, 1, 1, 1
TestParameter, Output.Graph.YAxis.Group, , , , 
TestParameter, Output.List.Data, Vg, Id_density, Ig_density, Id, Vd, gm_density
TestParameter, AutoAnalysis.Interpolation, false
TestParameter, AutoAnalysis.Line1.Enabled, false
TestParameter, AutoAnalysis.Line1.Type, 1
TestParameter, AutoAnalysis.Line1.Fix, True
TestParameter, AutoAnalysis.Line1.YAxis, 0
TestParameter, AutoAnalysis.Line1.Point1.Type, 0
TestParameter, AutoAnalysis.Line1.Point1.XY.X, 
TestParameter, AutoAnalysis.Line1.Point1.XY.Y, 
TestParameter, AutoAnalysis.Line1.Point1.Data.Var, 
TestParameter, AutoAnalysis.Line1.Point1.Data.Condition, 
TestParameter, AutoAnalysis.Line1.Point1.Data.Start, false
TestParameter, AutoAnalysis.Line1.Point1.Data.StartVar, 
TestParameter, AutoAnalysis.Line1.Point1.Data.StartCondition, 
TestParameter, AutoAnalysis.Line1.Point2.Type, 0
TestParameter, AutoAnalysis.Line1.Point2.XY.X, 
TestParameter, AutoAnalysis.Line1.Point2.XY.Y, 
TestParameter, AutoAnalysis.Line1.Point2.Data.Var, 
TestParameter, AutoAnalysis.Line1.Point2.Data.Condition, 
TestParameter, AutoAnalysis.Line1.Point2.Data.Start, false
TestParameter, AutoAnalysis.Line1.Point2.Data.StartVar, 
TestParameter, AutoAnalysis.Line1.Point2.Data.StartCondition, 
TestParameter, AutoAnalysis.Line1.GradientExpr, 0
TestParameter, AutoAnalysis.Line2.Enabled, false
TestParameter, AutoAnalysis.Line2.Type, 1
TestParameter, AutoAnalysis.Line2.Fix, True
TestParameter, AutoAnalysis.Line2.YAxis, 0
TestParameter, AutoAnalysis.Line2.Point1.Type, 0
TestParameter, AutoAnalysis.Line2.Point1.XY.X, 
TestParameter, AutoAnalysis.Line2.Point1.XY.Y, 
TestParameter, AutoAnalysis.Line2.Point1.Data.Var, 
TestParameter, AutoAnalysis.Line2.Point1.Data.Condition, 
TestParameter, AutoAnalysis.Line2.Point1.Data.Start, false
TestParameter, AutoAnalysis.Line2.Point1.Data.StartVar, 
TestParameter, AutoAnalysis.Line2.Point1.Data.StartCondition, 
TestParameter, AutoAnalysis.Line2.Point2.Type, 0
TestParameter, AutoAnalysis.Line2.Point2.XY.X, 
TestParameter, AutoAnalysis.Line2.Point2.XY.Y, 
TestParameter, AutoAnalysis.Line2.Point2.Data.Var, 
TestParameter, AutoAnalysis.Line2.Point2.Data.Condition, 
TestParameter, AutoAnalysis.Line2.Point2.Data.Start, false
TestParameter, AutoAnalysis.Line2.Point2.Data.StartVar, 
TestParameter, AutoAnalysis.Line2.Point2.Data.StartCondition, 
TestParameter, AutoAnalysis.Line2.GradientExpr, 0
TestParameter, AutoAnalysis.Marker.Enabled, false
TestParameter, AutoAnalysis.Marker.Data.Var, 
TestParameter, AutoAnalysis.Marker.Data.Condition, 
TestParameter, AutoAnalysis.Marker.Data.Start, false
TestParameter, AutoAnalysis.Marker.Data.StartVar, 
TestParameter, AutoAnalysis.Marker.Data.StartCondition, 
MetaData, TestRecord.EntryPoint, true
MetaData, TestRecord.RecordTime, 09/11/2018 16:30:51
MetaData, TestRecord.TestTarget, 
MetaData, TestRecord.IterationIndex, 2
MetaData, TestRecord.Preservation, true
MetaData, TestRecord.Flag, #
MetaData, TestRecord.Remarks, #144_Noff_trigate_W20_S50_L700_transfer
MetaData, TestRecord.LinkKey, bb883b46-8092-4463-a6ec-8613ca0890e3
Dimension1, 201, 201, 201, 201, 201, 201, 201
Dimension2, 1, 1, 1, 1, 1, 1, 1
DataName, Vg, Vd, Id, Ig, Id_density, Ig_density, gm_density
DataValue, -5, 5, 2.58E-12, -2.3580000000000003E-12, 4.3E-11, 3.93E-11, -3.9166666666666624E-10
DataValue, -4.96, 5, 1.64E-12, -1.8610000000000002E-12, 2.7333333333333336E-11, 3.1016666666666675E-11, -2.312499999999998E-10
DataValue, -4.92, 5, 1.47E-12, -1.6310000000000002E-12, 2.45E-11, 2.7183333333333338E-11, -6.6666666666666617E-11
DataValue, -4.88, 5, 1.32E-12, -1.5110000000000001E-12, 2.2E-11, 2.5183333333333336E-11, -3.9583333333333281E-11
DataValue, -4.84, 5, 1.28E-12, -1.429E-12, 2.1333333333333334E-11, 2.381666666666667E-11, -1.875E-11
DataValue, -4.8, 5, 1.23E-12, -1.3090000000000002E-12, 2.05E-11, 2.181666666666667E-11, -2.5000000000000014E-11
DataValue, -4.76, 5, 1.16E-12, -1.241E-12, 1.9333333333333331E-11, 2.0683333333333335E-11, -1.4583333333333351E-11
DataValue, -4.72, 5, 1.16E-12, -1.1920000000000002E-12, 1.9333333333333331E-11, 1.986666666666667E-11, -8.3333333333332561E-12
DataValue, -4.68, 5, 1.12E-12, -1.118E-12, 1.866666666666667E-11, 1.8633333333333336E-11, -4.1666666666666482E-12
DataValue, -4.64, 5, 1.14E-12, -1.0480000000000002E-12, 1.9E-11, 1.746666666666667E-11, -1.4583333333333512E-11
DataValue, -4.6000000000000005, 5, 1.05E-12, -1.032E-12, 1.75E-11, 1.7200000000000003E-11, -1.2500000000000085E-11
DataValue, -4.5600000000000005, 5, 1.08E-12, -9.9E-13, 1.8000000000000002E-11, 1.65E-11, 4.1666666666666886E-12
DataValue, -4.5200000000000005, 5, 1.07E-12, -1E-12, 1.7833333333333336E-11, 1.6666666666666667E-11, -1.0416666666666661E-11
DataValue, -4.48, 5, 1.03E-12, -9.4500000000000011E-13, 1.7166666666666669E-11, 1.5750000000000004E-11, -1.2500000000000026E-11
DataValue, -4.44, 5, 1.01E-12, -8.7900000000000009E-13, 1.6833333333333333E-11, 1.4650000000000002E-11, -6.2500000000000132E-12
DataValue, -4.4, 5, 1E-12, -8.7E-13, 1.6666666666666667E-11, 1.4500000000000002E-11, -1.2499999999999986E-11
DataValue, -4.36, 5, 9.5E-13, -8.070000000000001E-13, 1.5833333333333334E-11, 1.3450000000000003E-11, -1.0416666666666661E-11
DataValue, -4.32, 5, 9.5E-13, -7.820000000000001E-13, 1.5833333333333334E-11, 1.3033333333333336E-11, 0
DataValue, -4.28, 5, 9.5E-13, -7.830000000000001E-13, 1.5833333333333334E-11, 1.3050000000000003E-11, -1.2499999999999986E-11
DataValue, -4.24, 5, 8.9E-13, -7.74E-13, 1.4833333333333334E-11, 1.29E-11, -4.1666666666666482E-12
DataValue, -4.2, 5, 9.3E-13, -7.47E-13, 1.55E-11, 1.2450000000000001E-11, 1.875E-11
DataValue, -4.16, 5, 9.8E-13, -7.52E-13, 1.6333333333333335E-11, 1.2533333333333334E-11, 6.2499999999999728E-12
DataValue, -4.12, 5, 9.6E-13, -7.4300000000000007E-13, 1.6E-11, 1.2383333333333335E-11, -2.0833333333333323E-11
DataValue, -4.08, 5, 8.8E-13, -7.08E-13, 1.4666666666666668E-11, 1.18E-11, -1.0416666666666661E-11
DataValue, -4.04, 5, 9.1E-13, -6.85E-13, 1.5166666666666666E-11, 1.1416666666666668E-11, 4.1666666666666482E-12
DataValue, -4, 5, 9E-13, -6.7400000000000006E-13, 1.5E-11, 1.1233333333333335E-11, -6.2499999999999728E-12
DataValue, -3.96, 5, 8.8E-13, -6.5100000000000005E-13, 1.4666666666666668E-11, 1.0850000000000002E-11, -6.2499999999999728E-12
DataValue, -3.92, 5, 8.7E-13, -6.32E-13, 1.4500000000000002E-11, 1.0533333333333335E-11, -4.1666666666666684E-12
DataValue, -3.88, 5, 8.6E-13, -6.4900000000000006E-13, 1.4333333333333334E-11, 1.0816666666666668E-11, 4.1666666666666482E-12
DataValue, -3.84, 5, 8.9E-13, -6.09E-13, 1.4833333333333334E-11, 1.015E-11, 8.3333333333333643E-12
DataValue, -3.8000000000000003, 5, 9E-13, -5.9400000000000009E-13, 1.5E-11, 9.9000000000000026E-12, -4.1666666666666717E-12
DataValue, -3.7600000000000002, 5, 8.7E-13, -5.61E-13, 1.4500000000000002E-11, 9.35E-12, -8.3333333333333175E-12
DataValue, -3.72, 5, 8.6E-13, -5.7900000000000006E-13, 1.4333333333333334E-11, 9.6500000000000019E-12, 0
DataValue, -3.68, 5, 8.7E-13, -5.5300000000000007E-13, 1.4500000000000002E-11, 9.2166666666666681E-12, 0
DataValue, -3.64, 5, 8.6E-13, -5.44E-13, 1.4333333333333334E-11, 9.0666666666666673E-12, -1.0416666666666661E-11
DataValue, -3.6, 5, 8.2E-13, -5.12E-13, 1.3666666666666668E-11, 8.5333333333333336E-12, -2.0833333333333241E-12
DataValue, -3.56, 5, 8.5E-13, -5.34E-13, 1.4166666666666668E-11, 8.9000000000000013E-12, -6.2500000000000132E-12
DataValue, -3.52, 5, 7.9E-13, -4.97E-13, 1.3166666666666666E-11, 8.2833333333333345E-12, -6.249999999999993E-12
DataValue, -3.48, 5, 8.2E-13, -4.94E-13, 1.3666666666666668E-11, 8.2333333333333337E-12, 8.3333333333333369E-12
DataValue, -3.44, 5, 8.3E-13, -5.0300000000000008E-13, 1.3833333333333334E-11, 8.3833333333333344E-12, 0
DataValue, -3.4, 5, 8.2E-13, -5.0100000000000009E-13, 1.3666666666666668E-11, 8.3500000000000022E-12, -8.3333333333333369E-12
DataValue, -3.36, 5, 7.9E-13, -4.92E-13, 1.3166666666666666E-11, 8.2000000000000014E-12, -1.8750000000000103E-11
DataValue, -3.3200000000000003, 5, 7.3E-13, -4.5800000000000007E-13, 1.2166666666666667E-11, 7.6333333333333354E-12, -4.1666666666666919E-12
DataValue, -3.2800000000000002, 5, 7.7E-13, -4.8000000000000008E-13, 1.2833333333333333E-11, 8.0000000000000015E-12, 8.3333333333333175E-12
DataValue, -3.24, 5, 7.7E-13, -4.34E-13, 1.2833333333333333E-11, 7.2333333333333339E-12, -6.249999999999993E-12
DataValue, -3.2, 5, 7.4E-13, -4.46E-13, 1.2333333333333333E-11, 7.4333333333333338E-12, -1.4583333333333289E-11
DataValue, -3.16, 5, 7E-13, -4.1400000000000005E-13, 1.1666666666666668E-11, 6.9000000000000009E-12, -6.2499999999999728E-12
DataValue, -3.12, 5, 7.1E-13, -4.4100000000000004E-13, 1.1833333333333335E-11, 7.35E-12, 4.1666666666666482E-12
DataValue, -3.08, 5, 7.2E-13, -3.8300000000000003E-13, 1.2E-11, 6.3833333333333341E-12, -4.1666666666666684E-12
DataValue, -3.04, 5, 6.9E-13, -4.2500000000000006E-13, 1.15E-11, 7.0833333333333347E-12, 0
DataValue, -3, 5, 7.2E-13, -3.97E-13, 1.2E-11, 6.6166666666666671E-12, 1.4583333333333309E-11
DataValue, -2.96, 5, 7.6E-13, -4.1800000000000004E-13, 1.2666666666666667E-11, 6.9666666666666678E-12, -2.0833333333333241E-12
DataValue, -2.92, 5, 7.1E-13, -3.78E-13, 1.1833333333333335E-11, 6.3E-12, 2.0833333333333241E-12
DataValue, -2.88, 5, 7.7E-13, -3.3600000000000003E-13, 1.2833333333333333E-11, 5.6E-12, 0
DataValue, -2.84, 5, 7.1E-13, -3.54E-13, 1.1833333333333335E-11, 5.9E-12, -1.04166666666667E-11
DataValue, -2.8000000000000003, 5, 7.2E-13, -3.6800000000000005E-13, 1.2E-11, 6.1333333333333341E-12, 4.1666666666666717E-12
DataValue, -2.7600000000000002, 5, 7.3E-13, -3.3400000000000004E-13, 1.2166666666666667E-11, 5.5666666666666673E-12, -6.249999999999993E-12
DataValue, -2.72, 5, 6.9E-13, -3.7200000000000003E-13, 1.15E-11, 6.200000000000001E-12, -1.4583333333333309E-11
DataValue, -2.68, 5, 6.6E-13, -3.28E-13, 1.1E-11, 5.4666666666666673E-12, -1.4583333333333331E-11
DataValue, -2.64, 5, 6.2E-13, -3.18E-13, 1.0333333333333333E-11, 5.3000000000000004E-12, -2.0833333333333443E-12
DataValue, -2.6, 5, 6.5E-13, -3.1200000000000003E-13, 1.0833333333333333E-11, 5.2000000000000005E-12, 2.4999999999999972E-11
DataValue, -2.56, 5, 7.4E-13, -2.82E-13, 1.2333333333333333E-11, 4.7000000000000006E-12, 2.0833333333333443E-12
DataValue, -2.52, 5, 6.6E-13, -3.16E-13, 1.1E-11, 5.2666666666666674E-12, -2.0833333333333303E-11
DataValue, -2.48, 5, 6.4E-13, -2.6300000000000004E-13, 1.0666666666666667E-11, 4.3833333333333345E-12, -8.3333333333333369E-12
DataValue, -2.44, 5, 6.2E-13, -3.2300000000000004E-13, 1.0333333333333333E-11, 5.3833333333333343E-12, 0
DataValue, -2.4, 5, 6.4E-13, -2.56E-13, 1.0666666666666667E-11, 4.2666666666666668E-12, -2.0833333333333241E-12
DataValue, -2.36, 5, 6.1E-13, -2.6400000000000004E-13, 1.0166666666666667E-11, 4.4000000000000006E-12, 2.0833333333333241E-12
DataValue, -2.32, 5, 6.5E-13, -2.6600000000000003E-13, 1.0833333333333333E-11, 4.4333333333333337E-12, 4.1666666666666919E-12
DataValue, -2.2800000000000002, 5, 6.3E-13, -2.6200000000000004E-13, 1.0500000000000001E-11, 4.3666666666666676E-12, -1.8750000000000064E-11
DataValue, -2.24, 5, 5.6E-13, -2.3100000000000003E-13, 9.333333333333335E-12, 3.8500000000000008E-12, -6.2500000000000132E-12
DataValue, -2.2, 5, 6E-13, -2.33E-13, 1E-11, 3.8833333333333338E-12, -4.1666666666666684E-12
DataValue, -2.16, 5, 5.4E-13, -2.0900000000000002E-13, 9.0000000000000012E-12, 3.4833333333333339E-12, 1.0416666666666661E-11
DataValue, -2.12, 5, 6.5E-13, -2.1400000000000002E-13, 1.0833333333333333E-11, 3.5666666666666674E-12, 4.1666666666666684E-12
DataValue, -2.08, 5, 5.6E-13, -2.45E-13, 9.333333333333335E-12, 4.0833333333333338E-12, -1.4583333333333331E-11
DataValue, -2.04, 5, 5.8E-13, -2.36E-13, 9.6666666666666656E-12, 3.9333333333333338E-12, 1.0416666666666642E-11
DataValue, -2, 5, 6.1E-13, -2.0400000000000001E-13, 1.0166666666666667E-11, 3.4000000000000005E-12, 6.2500000000000132E-12
DataValue, -1.96, 5, 6.1E-13, -2.1300000000000003E-13, 1.0166666666666667E-11, 3.5500000000000004E-12, -6.2500000000000132E-12
DataValue, -1.92, 5, 5.8E-13, -2E-13, 9.6666666666666656E-12, 3.3333333333333335E-12, -8.3333333333333611E-12
DataValue, -1.8800000000000001, 5, 5.7E-13, -1.88E-13, 9.5E-12, 3.1333333333333336E-12, -1.25E-11
DataValue, -1.84, 5, 5.2E-13, -1.28E-13, 8.6666666666666674E-12, 2.1333333333333334E-12, -2.0833333333333039E-12
DataValue, -1.8, 5, 5.6E-13, -1.89E-13, 9.333333333333335E-12, 3.15E-12, 1.4583333333333309E-11
DataValue, -1.76, 5, 5.9E-13, -1.59E-13, 9.8333333333333333E-12, 2.6500000000000002E-12, -1.0416666666666661E-11
DataValue, -1.72, 5, 5.1E-13, -1.53E-13, 8.5000000000000013E-12, 2.5500000000000002E-12, 6.249999999999993E-12
DataValue, -1.68, 5, 6.2E-13, -1.48E-13, 1.0333333333333333E-11, 2.4666666666666668E-12, 6.2500000000000107E-12
DataValue, -1.6400000000000001, 5, 5.4E-13, -1.4500000000000001E-13, 9.0000000000000012E-12, 2.4166666666666668E-12, -4.1666666666666806E-12
DataValue, -1.6, 5, 6E-13, -1.28E-13, 1E-11, 2.1333333333333334E-12, 0
DataValue, -1.56, 5, 5.4E-13, -1.3E-13, 9.0000000000000012E-12, 2.1666666666666669E-12, -1.2499999999999967E-11
DataValue, -1.52, 5, 5.4E-13, -9.1E-14, 9.0000000000000012E-12, 1.5166666666666668E-12, 4.1666666666666684E-12
DataValue, -1.48, 5, 5.6E-13, -1.0700000000000001E-13, 9.333333333333335E-12, 1.7833333333333337E-12, 4.1666666666666684E-12
DataValue, -1.44, 5, 5.6E-13, -1.0100000000000001E-13, 9.333333333333335E-12, 1.6833333333333335E-12, -4.1666666666666806E-12
DataValue, -1.4000000000000001, 5, 5.4E-13, -1.0100000000000001E-13, 9.0000000000000012E-12, 1.6833333333333335E-12, -8.3333333333333611E-12
DataValue, -1.36, 5, 5.2E-13, -7.2000000000000009E-14, 8.6666666666666674E-12, 1.2000000000000001E-12, -6.249999999999993E-12
DataValue, -1.32, 5, 5.1E-13, -8.1000000000000008E-14, 8.5000000000000013E-12, 1.3500000000000001E-12, -1.0416666666666661E-11
DataValue, -1.28, 5, 4.7E-13, -6.1E-14, 7.8333333333333337E-12, 1.0166666666666667E-12, -8.3333333333333369E-12
DataValue, -1.24, 5, 4.7E-13, -6.2E-14, 7.8333333333333337E-12, 1.0333333333333334E-12, 1.2499999999999986E-11
DataValue, -1.2, 5, 5.3E-13, -7.1E-14, 8.8333333333333335E-12, 1.1833333333333334E-12, 4.1666666666666684E-12
DataValue, -1.16, 5, 4.9E-13, -8.4000000000000008E-14, 8.1666666666666675E-12, 1.4E-12, -6.2500000000000107E-12
DataValue, -1.12, 5, 5E-13, -6.0000000000000009E-14, 8.3333333333333336E-12, 1.0000000000000002E-12, 2.08333333333333E-12
DataValue, -1.08, 5, 5E-13, -5.4000000000000003E-14, 8.3333333333333336E-12, 9.000000000000001E-13, 6.249999999999993E-12
DataValue, -1.04, 5, 5.3E-13, -4.5000000000000004E-14, 8.8333333333333335E-12, 7.5000000000000014E-13, -2.0833333333333241E-12
DataValue, -1, 5, 4.9E-13, -3.6000000000000004E-14, 8.1666666666666675E-12, 6.0000000000000007E-13, -2.0833333333333241E-12
DataValue, -0.96, 5, 5.2E-13, -1.0000000000000002E-14, 8.6666666666666674E-12, 1.666666666666667E-13, -8.33333333333335E-12
DataValue, -0.92, 5, 4.5E-13, -2.1000000000000002E-14, 7.5E-12, 3.5E-13, 4.1666666666666749E-12
DataValue, -0.88, 5, 5.4E-13, -3.7E-14, 9.0000000000000012E-12, 6.166666666666667E-13, 0
DataValue, -0.84, 5, 4.5E-13, -9.0000000000000011E-15, 7.5E-12, 1.5000000000000002E-13, -2.0833333333333352E-11
DataValue, -0.8, 5, 4.4E-13, -2.9E-14, 7.3333333333333339E-12, 4.8333333333333336E-13, -2.0833333333333274E-12
DataValue, -0.76, 5, 4.4E-13, -2E-15, 7.3333333333333339E-12, 3.3333333333333334E-14, 1.0416666666666661E-11
DataValue, -0.72, 5, 4.9E-13, 1.6E-14, 8.1666666666666675E-12, 2.6666666666666667E-13, -2.0833333333333374E-12
DataValue, -0.68, 5, 4.3E-13, 1.0000000000000002E-14, 7.166666666666667E-12, 1.666666666666667E-13, -1.4583333333333351E-11
DataValue, -0.64, 5, 4.2E-13, 3.5E-14, 7E-12, 5.8333333333333344E-13, 4.9999999999999957E-11
DataValue, -0.6, 5, 6.7E-13, 5.3E-14, 1.1166666666666667E-11, 8.8333333333333337E-13, 1.1875000000000008E-10
DataValue, -0.56, 5, 9.9E-13, 4.9000000000000006E-14, 1.65E-11, 8.1666666666666675E-13, 5.1041666666666689E-10
DataValue, -0.52, 5, 3.12E-12, 4.9000000000000006E-14, 5.2E-11, 8.1666666666666675E-13, 2.1333333333333313E-09
DataValue, -0.48, 5, 1.123E-11, 3.6000000000000004E-14, 1.8716666666666667E-10, 6.0000000000000007E-13, 7.4916666666666659E-09
DataValue, -0.44, 5, 3.908E-11, 6.2E-14, 6.5133333333333336E-10, 1.0333333333333334E-12, 2.6833333333333352E-08
DataValue, -0.4, 5, 1.4003E-10, 8.4000000000000008E-14, 2.3338333333333337E-09, 1.4E-12, 8.1774999999999989E-08
DataValue, -0.36, 5, 4.316E-10, 7.7E-14, 7.1933333333333337E-09, 1.2833333333333334E-12, 2.2327291666666663E-07
DataValue, -0.32, 5, 1.21174E-09, 7.2000000000000009E-14, 2.0195666666666668E-08, 1.2000000000000001E-12, 6.1351666666666706E-07
DataValue, -0.28, 5, 3.37648E-09, 7.7E-14, 5.627466666666667E-08, 1.2833333333333334E-12, 1.5353062499999997E-06
DataValue, -0.24, 5, 8.58121E-09, 8.3000000000000012E-14, 1.4302016666666666E-07, 1.3833333333333336E-12, 3.6081708333333329E-06
