
SetupTitle, Transfer
PrimitiveTest, I/V Sweep
TestParameter, Context.MainFrame, B1500A
TestParameter, Channel.UnitType, SMU, SMU, SMU
TestParameter, Channel.Unit, SMU1:HP, SMU3:MP, SMU2:MP
TestParameter, Channel.IName, Id, Ig, Is
TestParameter, Channel.VName, Vd, Vg, Vs
TestParameter, Channel.Mode, V, V, COMMON
TestParameter, Channel.Func, CONST, VAR1, CONST
TestParameter, Channel.Index, 
TestParameter, Channel.Time, 
TestParameter, Measurement.Port.Unit, SMU1:HP, SMU3:MP, SMU2:MP
TestParameter, Measurement.Port.SeriesResistor, NONE, NONE, NONE
TestParameter, Measurement.Port.Filter, ON, ON, ON
TestParameter, Measurement.Port.OutputVoltageComparison, 0, 0, 0
TestParameter, Measurement.Primary.Locus, Single
TestParameter, Measurement.Primary.Scale, LINEAR
TestParameter, Measurement.Primary.Start, -5
TestParameter, Measurement.Primary.Stop, 3
TestParameter, Measurement.Primary.Step, 0.04
TestParameter, Measurement.Primary.Compliance, 0.01
TestParameter, Measurement.Primary.PowerCompliance, 0
TestParameter, Measurement.Aborting.Condition, CONTINUE AT ANY
TestParameter, Measurement.PostOutput.Value, START
TestParameter, Measurement.PostOutput.Retention, OFF
TestParameter, Measurement.Bias.Source, 5, -5, 0
TestParameter, Measurement.Bias.Compliance, 0.1, 0.01, 0.1
TestParameter, Measurement.Monitor.Unit, SMU1:HP, SMU3:MP, SMU2:MP
TestParameter, Measurement.Monitor.Adc, HR ADC, HR ADC, HR ADC
TestParameter, Measurement.Monitor.Measurement, Compliance Side, Compliance Side, Compliance Side
TestParameter, Measurement.Monitor.RangingMode, LIMITED, LIMITED, LIMITED
TestParameter, Measurement.Monitor.RangeBoundary, 10nA, 1nA, 1nA
TestParameter, Measurement.Monitor.RangeRating, BY FULL RANGE, BY FULL RANGE, BY FULL RANGE
TestParameter, Measurement.Monitor.RangeRatingCoeff, 50, 50, 50
TestParameter, Measurement.Timing.Hold, 0
TestParameter, Measurement.Timing.Delay, 0
TestParameter, Measurement.Adc.HighSpeed.Mode, PLC
TestParameter, Measurement.Adc.HighSpeed.Coeff, 3
TestParameter, Measurement.Adc.HighResolution.AutoZero, OFF
TestParameter, Measurement.Adc.HighResolution.Mode, PLC
TestParameter, Measurement.Adc.HighResolution.Coeff, 2
TestParameter, Measurement.WaitTime.Source.Coeff, 1
TestParameter, Measurement.WaitTime.Source.Offset, 0
TestParameter, Measurement.WaitTime.Monitor.Coeff, 1
TestParameter, Measurement.WaitTime.Monitor.Offset, 0
TestParameter, Function.User.Name, Id_density, Ig_density, gm_density
TestParameter, Function.User.Unit, A/mm, A/mm, S/mm
TestParameter, Function.User.Definition, Id/0.06, abs(Ig)/0.06, diff(Id_density,Vg)
TestParameter, Output.Graph.Enabled, true
TestParameter, Output.Graph.XAxis.Data, Vg
TestParameter, Output.Graph.XAxis.Scale, Linear
TestParameter, Output.Graph.XAxis.Left, -6
TestParameter, Output.Graph.XAxis.Right, 6
TestParameter, Output.Graph.YAxis.Data, Id_density, Ig_density, Id_density, gm_density, SS
TestParameter, Output.Graph.YAxis.Scale, Log, Log, Linear, Linear, Linear
TestParameter, Output.Graph.YAxis.Bottom, 0, 0, 0, 0, 0
TestParameter, Output.Graph.YAxis.Top, 1, 1, 1, 1, 1
TestParameter, Output.Graph.YAxis.Group, , , , , 
TestParameter, Output.List.Data, Vg, Id_density, Ig_density, Id, Vd, gm_density, SS
TestParameter, AutoAnalysis.Interpolation, false
TestParameter, AutoAnalysis.Line1.Enabled, false
TestParameter, AutoAnalysis.Line1.Type, 1
TestParameter, AutoAnalysis.Line1.Fix, True
TestParameter, AutoAnalysis.Line1.YAxis, 0
TestParameter, AutoAnalysis.Line1.Point1.Type, 0
TestParameter, AutoAnalysis.Line1.Point1.XY.X, 
TestParameter, AutoAnalysis.Line1.Point1.XY.Y, 
TestParameter, AutoAnalysis.Line1.Point1.Data.Var, 
TestParameter, AutoAnalysis.Line1.Point1.Data.Condition, 
TestParameter, AutoAnalysis.Line1.Point1.Data.Start, false
TestParameter, AutoAnalysis.Line1.Point1.Data.StartVar, 
TestParameter, AutoAnalysis.Line1.Point1.Data.StartCondition, 
TestParameter, AutoAnalysis.Line1.Point2.Type, 0
TestParameter, AutoAnalysis.Line1.Point2.XY.X, 
TestParameter, AutoAnalysis.Line1.Point2.XY.Y, 
TestParameter, AutoAnalysis.Line1.Point2.Data.Var, 
TestParameter, AutoAnalysis.Line1.Point2.Data.Condition, 
TestParameter, AutoAnalysis.Line1.Point2.Data.Start, false
TestParameter, AutoAnalysis.Line1.Point2.Data.StartVar, 
TestParameter, AutoAnalysis.Line1.Point2.Data.StartCondition, 
TestParameter, AutoAnalysis.Line1.GradientExpr, 0
TestParameter, AutoAnalysis.Line2.Enabled, false
TestParameter, AutoAnalysis.Line2.Type, 1
TestParameter, AutoAnalysis.Line2.Fix, True
TestParameter, AutoAnalysis.Line2.YAxis, 0
TestParameter, AutoAnalysis.Line2.Point1.Type, 0
TestParameter, AutoAnalysis.Line2.Point1.XY.X, 
TestParameter, AutoAnalysis.Line2.Point1.XY.Y, 
TestParameter, AutoAnalysis.Line2.Point1.Data.Var, 
TestParameter, AutoAnalysis.Line2.Point1.Data.Condition, 
TestParameter, AutoAnalysis.Line2.Point1.Data.Start, false
TestParameter, AutoAnalysis.Line2.Point1.Data.StartVar, 
TestParameter, AutoAnalysis.Line2.Point1.Data.StartCondition, 
TestParameter, AutoAnalysis.Line2.Point2.Type, 0
TestParameter, AutoAnalysis.Line2.Point2.XY.X, 
TestParameter, AutoAnalysis.Line2.Point2.XY.Y, 
TestParameter, AutoAnalysis.Line2.Point2.Data.Var, 
TestParameter, AutoAnalysis.Line2.Point2.Data.Condition, 
TestParameter, AutoAnalysis.Line2.Point2.Data.Start, false
TestParameter, AutoAnalysis.Line2.Point2.Data.StartVar, 
TestParameter, AutoAnalysis.Line2.Point2.Data.StartCondition, 
TestParameter, AutoAnalysis.Line2.GradientExpr, 0
TestParameter, AutoAnalysis.Marker.Enabled, false
TestParameter, AutoAnalysis.Marker.Data.Var, 
TestParameter, AutoAnalysis.Marker.Data.Condition, 
TestParameter, AutoAnalysis.Marker.Data.Start, false
TestParameter, AutoAnalysis.Marker.Data.StartVar, 
TestParameter, AutoAnalysis.Marker.Data.StartCondition, 
MetaData, TestRecord.EntryPoint, true
MetaData, TestRecord.RecordTime, 09/14/2018 13:57:19
MetaData, TestRecord.TestTarget, 
MetaData, TestRecord.IterationIndex, 1
MetaData, TestRecord.Preservation, true
MetaData, TestRecord.Flag, #
MetaData, TestRecord.Remarks, #144_Noff_trigate_W15_S70_L1500_1qb_5_transfer
MetaData, TestRecord.LinkKey, b0317d2e-89c6-4541-b0db-3f4cd5b442b9
Dimension1, 201, 201, 201, 201, 201, 201, 201, 201
Dimension2, 1, 1, 1, 1, 1, 1, 1, 1
DataName, Vg, Vd, Id, Ig, Id_density, Ig_density, gm_density, SS
DataValue, -5, 5, 1.001E-11, -7.946E-12, 1.6683333333333333E-10, 1.3243333333333335E-10, -1.4333333333333319E-09, 
DataValue, -4.96, 5, 6.57E-12, -6.608E-12, 1.095E-10, 1.1013333333333334E-10, -9.3333333333333238E-10, 
DataValue, -4.92, 5, 5.53E-12, -5.7940000000000006E-12, 9.2166666666666672E-11, 9.6566666666666677E-11, -3.3124999999999955E-10, 
DataValue, -4.88, 5, 4.98E-12, -5.151E-12, 8.3000000000000011E-11, 8.585E-11, -2.2083333333333319E-10, 
DataValue, -4.84, 5, 4.47E-12, -4.7290000000000005E-12, 7.45E-11, 7.8816666666666674E-11, -1.9999999999999993E-10, 
DataValue, -4.8, 5, 4.02E-12, -4.4260000000000007E-12, 6.7E-11, 7.3766666666666676E-11, -1.3958333333333321E-10, 
DataValue, -4.76, 5, 3.8E-12, -4.078E-12, 6.3333333333333334E-11, 6.7966666666666667E-11, -9.3749999999999922E-11, 
DataValue, -4.72, 5, 3.57E-12, -3.8450000000000007E-12, 5.95E-11, 6.4083333333333345E-11, -9.5833333333333235E-11, 
DataValue, -4.68, 5, 3.34E-12, -3.6240000000000003E-12, 5.5666666666666668E-11, 6.04E-11, -7.9166666666666561E-11, 
DataValue, -4.64, 5, 3.19E-12, -3.5110000000000003E-12, 5.316666666666667E-11, 5.8516666666666677E-11, -6.6666666666667354E-11, 
DataValue, -4.6000000000000005, 5, 3.02E-12, -3.3320000000000003E-12, 5.0333333333333334E-11, 5.5533333333333339E-11, -7.29166666666674E-11, 
DataValue, -4.5600000000000005, 5, 2.84E-12, -3.2220000000000002E-12, 4.7333333333333338E-11, 5.3700000000000006E-11, -4.9999999999999944E-11, 
DataValue, -4.5200000000000005, 5, 2.78E-12, -3.0560000000000003E-12, 4.6333333333333335E-11, 5.0933333333333344E-11, -3.1250000000000028E-11, 
DataValue, -4.48, 5, 2.69E-12, -2.9300000000000002E-12, 4.4833333333333334E-11, 4.8833333333333339E-11, -2.7083333333333379E-11, 
DataValue, -4.44, 5, 2.65E-12, -2.858E-12, 4.4166666666666663E-11, 4.7633333333333339E-11, -1.0416666666666621E-11, 
DataValue, -4.4, 5, 2.64E-12, -2.782E-12, 4.4E-11, 4.6366666666666672E-11, -3.3333333333333186E-11, 
DataValue, -4.36, 5, 2.49E-12, -2.627E-12, 4.1500000000000005E-11, 4.3783333333333335E-11, -3.75E-11, 
DataValue, -4.32, 5, 2.46E-12, -2.612E-12, 4.1E-11, 4.3533333333333336E-11, -6.2500000000000535E-12, 
DataValue, -4.28, 5, 2.46E-12, -2.49E-12, 4.1E-11, 4.1500000000000005E-11, -3.75E-11, 
DataValue, -4.24, 5, 2.28E-12, -2.512E-12, 3.8E-11, 4.1866666666666675E-11, -3.3333333333333347E-11, 
DataValue, -4.2, 5, 2.3E-12, -2.4710000000000003E-12, 3.833333333333333E-11, 4.1183333333333338E-11, -4.1666666666665675E-12, 
DataValue, -4.16, 5, 2.26E-12, -2.381E-12, 3.7666666666666672E-11, 3.9683333333333337E-11, -1.2499999999999865E-11, 
DataValue, -4.12, 5, 2.24E-12, -2.3160000000000002E-12, 3.733333333333334E-11, 3.8600000000000008E-11, -3.5416666666666674E-11, 
DataValue, -4.08, 5, 2.09E-12, -2.226E-12, 3.4833333333333336E-11, 3.71E-11, 4.1666666666666482E-12, 
DataValue, -4.04, 5, 2.26E-12, -2.223E-12, 3.7666666666666672E-11, 3.7050000000000004E-11, 2.0833333333333241E-12, 
DataValue, -4, 5, 2.1E-12, -2.1530000000000002E-12, 3.5E-11, 3.5883333333333341E-11, -2.4999999999999972E-11, 
DataValue, -3.96, 5, 2.14E-12, -2.1280000000000002E-12, 3.5666666666666673E-11, 3.546666666666667E-11, 2.91666666666667E-11, 
DataValue, -3.92, 5, 2.24E-12, -1.984E-12, 3.733333333333334E-11, 3.306666666666667E-11, -6.66666666666667E-11, 
DataValue, -3.88, 5, 1.82E-12, -2.006E-12, 3.0333333333333332E-11, 3.3433333333333339E-11, -3.75E-11, 
DataValue, -3.84, 5, 2.06E-12, -1.946E-12, 3.4333333333333338E-11, 3.2433333333333336E-11, 3.9583333333333546E-11, 
DataValue, -3.8000000000000003, 5, 2.01E-12, -1.872E-12, 3.35E-11, 3.1200000000000006E-11, -2.5000000000000192E-11, 
DataValue, -3.7600000000000002, 5, 1.94E-12, -1.73E-12, 3.2333333333333332E-11, 2.8833333333333337E-11, -2.9166666666666618E-11, 
DataValue, -3.72, 5, 1.87E-12, -1.856E-12, 3.1166666666666669E-11, 3.0933333333333335E-11, -3.7499999999999916E-11, 
DataValue, -3.68, 5, 1.76E-12, -1.8400000000000002E-12, 2.9333333333333335E-11, 3.0666666666666671E-11, -2.0833333333333323E-11, 
DataValue, -3.64, 5, 1.77E-12, -1.8650000000000002E-12, 2.95E-11, 3.1083333333333336E-11, 2.4999999999999972E-11, 
DataValue, -3.6, 5, 1.88E-12, -1.6760000000000001E-12, 3.1333333333333335E-11, 2.7933333333333336E-11, -1.2499999999999986E-11, 
DataValue, -3.56, 5, 1.71E-12, -1.8140000000000002E-12, 2.8500000000000002E-11, 3.023333333333334E-11, -2.2916666666666649E-11, 
DataValue, -3.52, 5, 1.77E-12, -1.782E-12, 2.95E-11, 2.9700000000000005E-11, 2.0833333333333241E-12, 
DataValue, -3.48, 5, 1.72E-12, -1.59E-12, 2.8666666666666668E-11, 2.6500000000000002E-11, -1.6666666666666635E-11, 
DataValue, -3.44, 5, 1.69E-12, -1.7020000000000002E-12, 2.816666666666667E-11, 2.8366666666666673E-11, -6.2499999999999728E-12, 
DataValue, -3.4, 5, 1.69E-12, -1.6240000000000002E-12, 2.816666666666667E-11, 2.7066666666666671E-11, -2.9166666666666663E-11, 
DataValue, -3.36, 5, 1.55E-12, -1.4920000000000001E-12, 2.5833333333333335E-11, 2.4866666666666669E-11, 2.7083333333333408E-11, 
DataValue, -3.3200000000000003, 5, 1.82E-12, -1.475E-12, 3.0333333333333332E-11, 2.4583333333333336E-11, 1.4583333333333393E-11, 
DataValue, -3.2800000000000002, 5, 1.62E-12, -1.5390000000000002E-12, 2.7E-11, 2.5650000000000003E-11, -1.0416666666666621E-11, 
DataValue, -3.24, 5, 1.77E-12, -1.479E-12, 2.95E-11, 2.4650000000000003E-11, 2.0833333333333241E-12, 
DataValue, -3.2, 5, 1.63E-12, -1.4720000000000002E-12, 2.7166666666666667E-11, 2.4533333333333337E-11, -4.9999999999999982E-11, 
DataValue, -3.16, 5, 1.53E-12, -1.3990000000000002E-12, 2.55E-11, 2.3316666666666671E-11, -6.2499999999999728E-12, 
DataValue, -3.12, 5, 1.6E-12, -1.3710000000000001E-12, 2.6666666666666668E-11, 2.2850000000000004E-11, 2.7083333333333337E-11, 
DataValue, -3.08, 5, 1.66E-12, -1.4430000000000002E-12, 2.7666666666666668E-11, 2.4050000000000004E-11, 1.2499999999999986E-11, 
DataValue, -3.04, 5, 1.66E-12, -1.331E-12, 2.7666666666666668E-11, 2.2183333333333336E-11, -5.8333333333333287E-11, 
DataValue, -3, 5, 1.38E-12, -1.3110000000000002E-12, 2.3E-11, 2.1850000000000004E-11, -3.1249999999999983E-11, 
DataValue, -2.96, 5, 1.51E-12, -1.3020000000000001E-12, 2.5166666666666667E-11, 2.1700000000000003E-11, 1.4583333333333351E-11, 
DataValue, -2.92, 5, 1.45E-12, -1.251E-12, 2.416666666666667E-11, 2.085E-11, -2.9166666666666618E-11, 
DataValue, -2.88, 5, 1.37E-12, -1.2610000000000002E-12, 2.2833333333333335E-11, 2.101666666666667E-11, -2.0833333333333645E-12, 
DataValue, -2.84, 5, 1.44E-12, -1.2340000000000002E-12, 2.4E-11, 2.0566666666666671E-11, 1.6666666666666767E-11, 
DataValue, -2.8000000000000003, 5, 1.45E-12, -1.2420000000000002E-12, 2.416666666666667E-11, 2.0700000000000003E-11, -4.1666666666666717E-12, 
DataValue, -2.7600000000000002, 5, 1.42E-12, -1.0640000000000001E-12, 2.3666666666666669E-11, 1.7733333333333335E-11, 3.333333333333327E-11, 
DataValue, -2.72, 5, 1.61E-12, -1.186E-12, 2.6833333333333334E-11, 1.9766666666666668E-11, -1.2499999999999986E-11, 
DataValue, -2.68, 5, 1.36E-12, -1.0620000000000001E-12, 2.2666666666666669E-11, 1.7700000000000004E-11, -4.58333333333333E-11, 
DataValue, -2.64, 5, 1.39E-12, -1.0790000000000002E-12, 2.3166666666666667E-11, 1.7983333333333337E-11, -2.2916666666666688E-11, 
DataValue, -2.6, 5, 1.25E-12, -1.0850000000000001E-12, 2.0833333333333332E-11, 1.8083333333333336E-11, -3.3333333333333309E-11, 
DataValue, -2.56, 5, 1.23E-12, -1.023E-12, 2.05E-11, 1.7050000000000002E-11, 3.3333333333333347E-11, 
DataValue, -2.52, 5, 1.41E-12, -1.047E-12, 2.3500000000000003E-11, 1.7450000000000002E-11, 1.2499999999999986E-11, 
DataValue, -2.48, 5, 1.29E-12, -1.0140000000000001E-12, 2.15E-11, 1.69E-11, -2.0833333333333323E-11, 
DataValue, -2.44, 5, 1.31E-12, -9.96E-13, 2.1833333333333335E-11, 1.66E-11, 1.6666666666666674E-11, 
DataValue, -2.4, 5, 1.37E-12, -1.001E-12, 2.2833333333333335E-11, 1.6683333333333336E-11, -2.0833333333333323E-11, 
DataValue, -2.36, 5, 1.21E-12, -8.5100000000000011E-13, 2.0166666666666668E-11, 1.4183333333333336E-11, -8.3333333333333369E-12, 
DataValue, -2.32, 5, 1.33E-12, -9.1800000000000013E-13, 2.2166666666666668E-11, 1.53E-11, 4.3750000000000217E-11, 
DataValue, -2.2800000000000002, 5, 1.42E-12, -8.8500000000000007E-13, 2.3666666666666669E-11, 1.475E-11, -2.0833333333333439E-11, 
DataValue, -2.24, 5, 1.23E-12, -9.17E-13, 2.05E-11, 1.5283333333333333E-11, -1.6666666666666674E-11, 
DataValue, -2.2, 5, 1.34E-12, -9.0900000000000006E-13, 2.2333333333333334E-11, 1.515E-11, 2.9166666666666663E-11, 
DataValue, -2.16, 5, 1.37E-12, -8.72E-13, 2.2833333333333335E-11, 1.4533333333333334E-11, -2.4999999999999972E-11, 
DataValue, -2.12, 5, 1.22E-12, -8.44E-13, 2.0333333333333334E-11, 1.4066666666666668E-11, -3.3333333333333309E-11, 
DataValue, -2.08, 5, 1.21E-12, -8.02E-13, 2.0166666666666668E-11, 1.3366666666666668E-11, -1.0416666666666661E-11, 
DataValue, -2.04, 5, 1.17E-12, -8.1200000000000007E-13, 1.95E-11, 1.3533333333333336E-11, -8.3333333333333369E-12, 
DataValue, -2, 5, 1.17E-12, -7.55E-13, 1.95E-11, 1.2583333333333334E-11, -1.0416666666666621E-11, 
DataValue, -1.96, 5, 1.12E-12, -7.1400000000000009E-13, 1.866666666666667E-11, 1.1900000000000002E-11, 1.0416666666666661E-11, 
DataValue, -1.92, 5, 1.22E-12, -7.2000000000000006E-13, 2.0333333333333334E-11, 1.2000000000000002E-11, -8.3333333333333611E-12, 
DataValue, -1.8800000000000001, 5, 1.08E-12, -6.870000000000001E-13, 1.8000000000000002E-11, 1.1450000000000002E-11, -4.1666666666667007E-12, 
DataValue, -1.84, 5, 1.2E-12, -5.9900000000000007E-13, 2E-11, 9.9833333333333357E-12, -4.1666666666666886E-12, 
DataValue, -1.8, 5, 1.06E-12, -6.2000000000000008E-13, 1.7666666666666667E-11, 1.0333333333333335E-11, -3.9583333333333281E-11, 
DataValue, -1.76, 5, 1.01E-12, -6.32E-13, 1.6833333333333333E-11, 1.0533333333333335E-11, 1.0416666666666661E-11, 
DataValue, -1.72, 5, 1.11E-12, -6.2300000000000007E-13, 1.85E-11, 1.0383333333333336E-11, 4.1666666666666646E-11, 
DataValue, -1.68, 5, 1.21E-12, -5.7300000000000008E-13, 2.0166666666666668E-11, 9.5500000000000019E-12, -6.2499999999999905E-12, 
DataValue, -1.6400000000000001, 5, 1.08E-12, -5.3300000000000005E-13, 1.8000000000000002E-11, 8.8833333333333343E-12, -3.33333333333334E-11, 
DataValue, -1.6, 5, 1.05E-12, -5.4700000000000009E-13, 1.75E-11, 9.1166666666666681E-12, -3.75E-11, 
DataValue, -1.56, 5, 9E-13, -5.21E-13, 1.5E-11, 8.6833333333333344E-12, 0, 
DataValue, -1.52, 5, 1.05E-12, -5.34E-13, 1.75E-11, 8.9000000000000013E-12, 6.2500000000000132E-12, 
DataValue, -1.48, 5, 9.3E-13, -4.0800000000000003E-13, 1.55E-11, 6.8000000000000009E-12, 2.0833333333333241E-12, 
DataValue, -1.44, 5, 1.06E-12, -4.3800000000000005E-13, 1.7666666666666667E-11, 7.3000000000000016E-12, 5.2083333333333412E-11, 
DataValue, -1.4000000000000001, 5, 1.18E-12, -4.68E-13, 1.9666666666666667E-11, 7.8000000000000015E-12, -1.4583333333333351E-11, 
DataValue, -1.36, 5, 9.9E-13, -4.1700000000000004E-13, 1.65E-11, 6.9500000000000009E-12, -3.9583333333333281E-11, 
DataValue, -1.32, 5, 9.9E-13, -4.0500000000000004E-13, 1.65E-11, 6.7500000000000009E-12, 1.875E-11, 
DataValue, -1.28, 5, 1.08E-12, -3.7000000000000004E-13, 1.8000000000000002E-11, 6.1666666666666672E-12, -1.2499999999999986E-11, 
DataValue, -1.24, 5, 9.3E-13, -3.31E-13, 1.55E-11, 5.5166666666666673E-12, -2.9166666666666663E-11, 
DataValue, -1.2, 5, 9.4E-13, -3.06E-13, 1.5666666666666667E-11, 5.1000000000000005E-12, -6.2500000000000132E-12, 
DataValue, -1.16, 5, 9E-13, -3.2200000000000004E-13, 1.5E-11, 5.3666666666666674E-12, 3.1250000000000073E-11, 
DataValue, -1.12, 5, 1.09E-12, -2.9900000000000004E-13, 1.8166666666666669E-11, 4.9833333333333344E-12, 4.3750000000000094E-11, 
DataValue, -1.08, 5, 1.11E-12, -3.2100000000000005E-13, 1.85E-11, 5.3500000000000012E-12, -5.83333333333333E-11, 
DataValue, -1.04, 5, 8.1E-13, -3.2000000000000005E-13, 1.35E-11, 5.3333333333333343E-12, -3.9583333333333326E-11, 
DataValue, -1, 5, 9.2E-13, -2.0200000000000002E-13, 1.5333333333333332E-11, 3.366666666666667E-12, 2.7083333333333317E-11, 
DataValue, -0.96, 5, 9.4E-13, -2.1000000000000001E-13, 1.5666666666666667E-11, 3.5000000000000004E-12, -8.33333333333331E-12, 
DataValue, -0.92, 5, 8.8E-13, -1.76E-13, 1.4666666666666668E-11, 2.9333333333333336E-12, -2.9166666666666682E-11, 
DataValue, -0.88, 5, 8E-13, -1.7400000000000002E-13, 1.3333333333333334E-11, 2.9000000000000006E-12, 6.2499999999999728E-12, 
DataValue, -0.84, 5, 9.1E-13, -1.4900000000000002E-13, 1.5166666666666666E-11, 2.4833333333333337E-12, 6.2500000000000018E-12, 
DataValue, -0.8, 5, 8.3E-13, -1.3E-13, 1.3833333333333334E-11, 2.1666666666666669E-12, 4.1666666666666951E-12, 
DataValue, -0.76, 5, 9.3E-13, -1.76E-13, 1.55E-11, 2.9333333333333336E-12, 2.2916666666666649E-11, 
DataValue, -0.72, 5, 9.4E-13, -1.36E-13, 1.5666666666666667E-11, 2.2666666666666668E-12, -1.8750000000000026E-11, 
DataValue, -0.68, 5, 8.4E-13, -9.1E-14, 1.4E-11, 1.5166666666666668E-12, -2.0833333333333274E-12, 
DataValue, -0.64, 5, 9.3E-13, -2.3000000000000003E-14, 1.55E-11, 3.8333333333333338E-13, 1.2499999999999986E-11, 
DataValue, -0.6, 5, 9E-13, -4.4E-14, 1.5E-11, 7.3333333333333341E-13, 4.1666666666666547E-12, 
DataValue, -0.56, 5, 9.5E-13, -3.5E-14, 1.5833333333333334E-11, 5.8333333333333344E-13, 7.083333333333336E-11, 
DataValue, -0.52, 5, 1.24E-12, -4.5000000000000004E-14, 2.0666666666666666E-11, 7.5000000000000014E-13, 5.3333333333333294E-10, 
DataValue, -0.48, 5, 3.51E-12, 8.0000000000000013E-14, 5.85E-11, 1.3333333333333336E-12, 1.8729166666666665E-09, 
DataValue, -0.44, 5, 1.023E-11, 8.1000000000000008E-14, 1.705E-10, 1.3500000000000001E-12, 7.3104166666666713E-09, 
DataValue, -0.4, 5, 3.86E-11, 1.0700000000000001E-13, 6.4333333333333339E-10, 1.7833333333333337E-12, 2.3620833333333326E-08, 
