
SetupTitle, Transfer
PrimitiveTest, I/V Sweep
TestParameter, Context.MainFrame, B1500A
TestParameter, Channel.UnitType, SMU, SMU, SMU
TestParameter, Channel.Unit, SMU1:HP, SMU3:MP, SMU2:MP
TestParameter, Channel.IName, Id, Ig, Is
TestParameter, Channel.VName, Vd, Vg, Vs
TestParameter, Channel.Mode, V, V, COMMON
TestParameter, Channel.Func, CONST, VAR1, CONST
TestParameter, Channel.Index, 
TestParameter, Channel.Time, 
TestParameter, Measurement.Port.Unit, SMU1:HP, SMU3:MP, SMU2:MP
TestParameter, Measurement.Port.SeriesResistor, NONE, NONE, NONE
TestParameter, Measurement.Port.Filter, ON, ON, ON
TestParameter, Measurement.Port.OutputVoltageComparison, 0, 0, 0
TestParameter, Measurement.Primary.Locus, Single
TestParameter, Measurement.Primary.Scale, LINEAR
TestParameter, Measurement.Primary.Start, -5
TestParameter, Measurement.Primary.Stop, 3
TestParameter, Measurement.Primary.Step, 0.04
TestParameter, Measurement.Primary.Compliance, 0.01
TestParameter, Measurement.Primary.PowerCompliance, 0
TestParameter, Measurement.Aborting.Condition, CONTINUE AT ANY
TestParameter, Measurement.PostOutput.Value, START
TestParameter, Measurement.PostOutput.Retention, OFF
TestParameter, Measurement.Bias.Source, 5, -5, 0
TestParameter, Measurement.Bias.Compliance, 0.1, 0.01, 0.1
TestParameter, Measurement.Monitor.Unit, SMU1:HP, SMU3:MP, SMU2:MP
TestParameter, Measurement.Monitor.Adc, HR ADC, HR ADC, HR ADC
TestParameter, Measurement.Monitor.Measurement, Compliance Side, Compliance Side, Compliance Side
TestParameter, Measurement.Monitor.RangingMode, LIMITED, LIMITED, LIMITED
TestParameter, Measurement.Monitor.RangeBoundary, 10nA, 1nA, 1nA
TestParameter, Measurement.Monitor.RangeRating, BY FULL RANGE, BY FULL RANGE, BY FULL RANGE
TestParameter, Measurement.Monitor.RangeRatingCoeff, 50, 50, 50
TestParameter, Measurement.Timing.Hold, 0
TestParameter, Measurement.Timing.Delay, 0
TestParameter, Measurement.Adc.HighSpeed.Mode, PLC
TestParameter, Measurement.Adc.HighSpeed.Coeff, 3
TestParameter, Measurement.Adc.HighResolution.AutoZero, OFF
TestParameter, Measurement.Adc.HighResolution.Mode, PLC
TestParameter, Measurement.Adc.HighResolution.Coeff, 2
TestParameter, Measurement.WaitTime.Source.Coeff, 1
TestParameter, Measurement.WaitTime.Source.Offset, 0
TestParameter, Measurement.WaitTime.Monitor.Coeff, 1
TestParameter, Measurement.WaitTime.Monitor.Offset, 0
TestParameter, Function.User.Name, Id_density, Ig_density, gm_density
TestParameter, Function.User.Unit, A/mm, A/mm, S/mm
TestParameter, Function.User.Definition, Id/0.06, abs(Ig)/0.06, diff(Id_density,Vg)
TestParameter, Output.Graph.Enabled, true
TestParameter, Output.Graph.XAxis.Data, Vg
TestParameter, Output.Graph.XAxis.Scale, Linear
TestParameter, Output.Graph.XAxis.Left, -6
TestParameter, Output.Graph.XAxis.Right, 6
TestParameter, Output.Graph.YAxis.Data, Id_density, Ig_density, Id_density, gm_density
TestParameter, Output.Graph.YAxis.Scale, Log, Log, Linear, Linear
TestParameter, Output.Graph.YAxis.Bottom, 0, 0, 0, 0
TestParameter, Output.Graph.YAxis.Top, 1, 1, 1, 1
TestParameter, Output.Graph.YAxis.Group, , , , 
TestParameter, Output.List.Data, Vg, Id_density, Ig_density, Id, Vd, gm_density
TestParameter, AutoAnalysis.Interpolation, false
TestParameter, AutoAnalysis.Line1.Enabled, false
TestParameter, AutoAnalysis.Line1.Type, 1
TestParameter, AutoAnalysis.Line1.Fix, True
TestParameter, AutoAnalysis.Line1.YAxis, 0
TestParameter, AutoAnalysis.Line1.Point1.Type, 0
TestParameter, AutoAnalysis.Line1.Point1.XY.X, 
TestParameter, AutoAnalysis.Line1.Point1.XY.Y, 
TestParameter, AutoAnalysis.Line1.Point1.Data.Var, 
TestParameter, AutoAnalysis.Line1.Point1.Data.Condition, 
TestParameter, AutoAnalysis.Line1.Point1.Data.Start, false
TestParameter, AutoAnalysis.Line1.Point1.Data.StartVar, 
TestParameter, AutoAnalysis.Line1.Point1.Data.StartCondition, 
TestParameter, AutoAnalysis.Line1.Point2.Type, 0
TestParameter, AutoAnalysis.Line1.Point2.XY.X, 
TestParameter, AutoAnalysis.Line1.Point2.XY.Y, 
TestParameter, AutoAnalysis.Line1.Point2.Data.Var, 
TestParameter, AutoAnalysis.Line1.Point2.Data.Condition, 
TestParameter, AutoAnalysis.Line1.Point2.Data.Start, false
TestParameter, AutoAnalysis.Line1.Point2.Data.StartVar, 
TestParameter, AutoAnalysis.Line1.Point2.Data.StartCondition, 
TestParameter, AutoAnalysis.Line1.GradientExpr, 0
TestParameter, AutoAnalysis.Line2.Enabled, false
TestParameter, AutoAnalysis.Line2.Type, 1
TestParameter, AutoAnalysis.Line2.Fix, True
TestParameter, AutoAnalysis.Line2.YAxis, 0
TestParameter, AutoAnalysis.Line2.Point1.Type, 0
TestParameter, AutoAnalysis.Line2.Point1.XY.X, 
TestParameter, AutoAnalysis.Line2.Point1.XY.Y, 
TestParameter, AutoAnalysis.Line2.Point1.Data.Var, 
TestParameter, AutoAnalysis.Line2.Point1.Data.Condition, 
TestParameter, AutoAnalysis.Line2.Point1.Data.Start, false
TestParameter, AutoAnalysis.Line2.Point1.Data.StartVar, 
TestParameter, AutoAnalysis.Line2.Point1.Data.StartCondition, 
TestParameter, AutoAnalysis.Line2.Point2.Type, 0
TestParameter, AutoAnalysis.Line2.Point2.XY.X, 
TestParameter, AutoAnalysis.Line2.Point2.XY.Y, 
TestParameter, AutoAnalysis.Line2.Point2.Data.Var, 
TestParameter, AutoAnalysis.Line2.Point2.Data.Condition, 
TestParameter, AutoAnalysis.Line2.Point2.Data.Start, false
TestParameter, AutoAnalysis.Line2.Point2.Data.StartVar, 
TestParameter, AutoAnalysis.Line2.Point2.Data.StartCondition, 
TestParameter, AutoAnalysis.Line2.GradientExpr, 0
TestParameter, AutoAnalysis.Marker.Enabled, false
TestParameter, AutoAnalysis.Marker.Data.Var, 
TestParameter, AutoAnalysis.Marker.Data.Condition, 
TestParameter, AutoAnalysis.Marker.Data.Start, false
TestParameter, AutoAnalysis.Marker.Data.StartVar, 
TestParameter, AutoAnalysis.Marker.Data.StartCondition, 
MetaData, TestRecord.EntryPoint, true
MetaData, TestRecord.RecordTime, 09/14/2018 13:32:01
MetaData, TestRecord.TestTarget, 
MetaData, TestRecord.IterationIndex, 1
MetaData, TestRecord.Preservation, true
MetaData, TestRecord.Flag, #
MetaData, TestRecord.Remarks, #144_Noff_trigate_W30_S50_L700_1qb_6_transfer
MetaData, TestRecord.LinkKey, a7233734-79cc-41ba-b922-95cf34da09b6
Dimension1, 201, 201, 201, 201, 201, 201, 201
Dimension2, 1, 1, 1, 1, 1, 1, 1
DataName, Vg, Vd, Id, Ig, Id_density, Ig_density, gm_density
DataValue, -5, 5, 9.14E-12, -7.7320000000000014E-12, 1.5233333333333335E-10, 1.288666666666667E-10, -1.3249999999999995E-09
DataValue, -4.96, 5, 5.96E-12, -6.368E-12, 9.9333333333333326E-11, 1.0613333333333334E-10, -8.4583333333333274E-10
DataValue, -4.92, 5, 5.08E-12, -5.5700000000000007E-12, 8.4666666666666672E-11, 9.2833333333333349E-11, -2.9583333333333304E-10
DataValue, -4.88, 5, 4.54E-12, -5.0660000000000004E-12, 7.5666666666666664E-11, 8.4433333333333344E-11, -2.2499999999999984E-10
DataValue, -4.84, 5, 4E-12, -4.675E-12, 6.6666666666666669E-11, 7.7916666666666669E-11, -1.562499999999998E-10
DataValue, -4.8, 5, 3.79E-12, -4.407E-12, 6.3166666666666668E-11, 7.345E-11, -1.1458333333333324E-10
DataValue, -4.76, 5, 3.45E-12, -3.992E-12, 5.75E-11, 6.6533333333333334E-11, -1.187499999999999E-10
DataValue, -4.72, 5, 3.22E-12, -3.9060000000000005E-12, 5.3666666666666669E-11, 6.5100000000000013E-11, -6.8749999999999944E-11
DataValue, -4.68, 5, 3.12E-12, -3.6510000000000005E-12, 5.2E-11, 6.0850000000000015E-11, -8.958333333333327E-11
DataValue, -4.64, 5, 2.79E-12, -3.4330000000000004E-12, 4.65E-11, 5.7216666666666678E-11, -7.5000000000000749E-11
DataValue, -4.6000000000000005, 5, 2.76E-12, -3.321E-12, 4.6E-11, 5.535E-11, -4.3750000000000456E-11
DataValue, -4.5600000000000005, 5, 2.58E-12, -3.255E-12, 4.3E-11, 5.4250000000000007E-11, -6.0416666666666561E-11
DataValue, -4.5200000000000005, 5, 2.47E-12, -3.0820000000000004E-12, 4.1166666666666673E-11, 5.1366666666666674E-11, -5.208333333333327E-11
DataValue, -4.48, 5, 2.33E-12, -3.0070000000000004E-12, 3.8833333333333335E-11, 5.0116666666666678E-11, -4.166666666666673E-11
DataValue, -4.44, 5, 2.27E-12, -2.8590000000000002E-12, 3.7833333333333332E-11, 4.7650000000000005E-11, 2.0833333333333241E-12
DataValue, -4.4, 5, 2.34E-12, -2.8380000000000002E-12, 3.9E-11, 4.7300000000000007E-11, 3.1250000000000028E-11
DataValue, -4.36, 5, 2.42E-12, -2.728E-12, 4.0333333333333336E-11, 4.5466666666666667E-11, -2.0833333333333242E-11
DataValue, -4.32, 5, 2.24E-12, -2.606E-12, 3.733333333333334E-11, 4.3433333333333337E-11, -4.9999999999999944E-11
DataValue, -4.28, 5, 2.18E-12, -2.607E-12, 3.6333333333333337E-11, 4.345E-11, -4.166666666666729E-12
DataValue, -4.24, 5, 2.22E-12, -2.4830000000000002E-12, 3.7E-11, 4.1383333333333342E-11, -3.5416666666666674E-11
DataValue, -4.2, 5, 2.01E-12, -2.511E-12, 3.35E-11, 4.185E-11, -2.0833333333333323E-11
DataValue, -4.16, 5, 2.12E-12, -2.3290000000000003E-12, 3.5333333333333334E-11, 3.881666666666667E-11, 1.875E-11
DataValue, -4.12, 5, 2.1E-12, -2.3050000000000004E-12, 3.5E-11, 3.8416666666666676E-11, -8.3333333333332965E-12
DataValue, -4.08, 5, 2.08E-12, -2.303E-12, 3.466666666666667E-11, 3.8383333333333339E-11, -1.875E-11
DataValue, -4.04, 5, 2.01E-12, -2.2880000000000003E-12, 3.35E-11, 3.813333333333334E-11, -2.0833333333333323E-11
DataValue, -4, 5, 1.98E-12, -2.1700000000000002E-12, 3.3E-11, 3.6166666666666671E-11, -2.9166666666666618E-11
DataValue, -3.96, 5, 1.87E-12, -2.227E-12, 3.1166666666666669E-11, 3.7116666666666672E-11, -3.5416666666666674E-11
DataValue, -3.92, 5, 1.81E-12, -2.1320000000000002E-12, 3.0166666666666666E-11, 3.5533333333333337E-11, -8.3333333333332965E-12
DataValue, -3.88, 5, 1.83E-12, -2.073E-12, 3.0500000000000005E-11, 3.4550000000000006E-11, 2.7083333333333298E-11
DataValue, -3.84, 5, 1.94E-12, -2.086E-12, 3.2333333333333332E-11, 3.4766666666666668E-11, -8.3333333333334241E-12
DataValue, -3.8000000000000003, 5, 1.79E-12, -1.9830000000000003E-12, 2.9833333333333334E-11, 3.3050000000000005E-11, -3.3333333333333457E-11
DataValue, -3.7600000000000002, 5, 1.78E-12, -2.0870000000000003E-12, 2.9666666666666668E-11, 3.478333333333334E-11, -1.2499999999999986E-11
DataValue, -3.72, 5, 1.7299999999999999E-12, -1.9240000000000003E-12, 2.8833333333333334E-11, 3.2066666666666674E-11, -2.0833333333333241E-12
DataValue, -3.68, 5, 1.77E-12, -1.888E-12, 2.95E-11, 3.146666666666667E-11, -1.0416666666666661E-11
DataValue, -3.64, 5, 1.68E-12, -1.8200000000000003E-12, 2.8E-11, 3.0333333333333338E-11, -3.7499999999999961E-11
DataValue, -3.6, 5, 1.59E-12, -1.822E-12, 2.6500000000000002E-11, 3.0366666666666669E-11, 2.2916666666666649E-11
DataValue, -3.56, 5, 1.79E-12, -1.7760000000000001E-12, 2.9833333333333334E-11, 2.96E-11, 3.3333333333333309E-11
DataValue, -3.52, 5, 1.75E-12, -1.7580000000000002E-12, 2.9166666666666669E-11, 2.9300000000000005E-11, -1.6666666666666635E-11
DataValue, -3.48, 5, 1.71E-12, -1.7020000000000002E-12, 2.8500000000000002E-11, 2.8366666666666673E-11, -2.9166666666666663E-11
DataValue, -3.44, 5, 1.61E-12, -1.6720000000000002E-12, 2.6833333333333334E-11, 2.7866666666666671E-11, -4.1666666666666482E-12
DataValue, -3.4, 5, 1.69E-12, -1.6090000000000001E-12, 2.816666666666667E-11, 2.6816666666666669E-11, -6.2500000000000132E-12
DataValue, -3.36, 5, 1.58E-12, -1.7100000000000002E-12, 2.6333333333333333E-11, 2.8500000000000005E-11, -3.12500000000002E-11
DataValue, -3.3200000000000003, 5, 1.54E-12, -1.5870000000000002E-12, 2.5666666666666665E-11, 2.6450000000000003E-11, -1.4583333333333393E-11
DataValue, -3.2800000000000002, 5, 1.51E-12, -1.6180000000000002E-12, 2.5166666666666667E-11, 2.696666666666667E-11, 4.1666666666666886E-12
DataValue, -3.24, 5, 1.56E-12, -1.5390000000000002E-12, 2.6E-11, 2.5650000000000003E-11, 2.0833333333333323E-11
DataValue, -3.2, 5, 1.61E-12, -1.519E-12, 2.6833333333333334E-11, 2.5316666666666668E-11, -3.1249999999999944E-11
DataValue, -3.16, 5, 1.41E-12, -1.5070000000000001E-12, 2.3500000000000003E-11, 2.5116666666666671E-11, -2.2916666666666649E-11
DataValue, -3.12, 5, 1.5E-12, -1.4680000000000002E-12, 2.5E-11, 2.4466666666666672E-11, 1.2499999999999946E-11
DataValue, -3.08, 5, 1.47E-12, -1.4110000000000002E-12, 2.45E-11, 2.3516666666666671E-11, 0
DataValue, -3.04, 5, 1.5E-12, -1.3570000000000002E-12, 2.5E-11, 2.261666666666667E-11, 6.2500000000000132E-12
DataValue, -3, 5, 1.5E-12, -1.452E-12, 2.5E-11, 2.42E-11, -1.2499999999999986E-11
DataValue, -2.96, 5, 1.44E-12, -1.366E-12, 2.4E-11, 2.2766666666666668E-11, -1.6666666666666635E-11
DataValue, -2.92, 5, 1.42E-12, -1.3230000000000001E-12, 2.3666666666666669E-11, 2.2050000000000004E-11, -1.875E-11
DataValue, -2.88, 5, 1.35E-12, -1.326E-12, 2.25E-11, 2.21E-11, 2.0833333333333241E-12
DataValue, -2.84, 5, 1.43E-12, -1.264E-12, 2.3833333333333335E-11, 2.106666666666667E-11, 1.2500000000000096E-11
DataValue, -2.8000000000000003, 5, 1.41E-12, -1.314E-12, 2.3500000000000003E-11, 2.1900000000000003E-11, 6.2500000000000075E-12
DataValue, -2.7600000000000002, 5, 1.46E-12, -1.27E-12, 2.4333333333333333E-11, 2.1166666666666668E-11, -4.1666666666666886E-12
DataValue, -2.72, 5, 1.39E-12, -1.253E-12, 2.3166666666666667E-11, 2.0883333333333335E-11, -2.2916666666666649E-11
DataValue, -2.68, 5, 1.35E-12, -1.243E-12, 2.25E-11, 2.0716666666666669E-11, 1.0416666666666661E-11
DataValue, -2.64, 5, 1.44E-12, -1.1440000000000002E-12, 2.4E-11, 1.906666666666667E-11, 1.0416666666666702E-11
DataValue, -2.6, 5, 1.4E-12, -1.1460000000000002E-12, 2.3333333333333337E-11, 1.9100000000000004E-11, -2.4999999999999972E-11
DataValue, -2.56, 5, 1.32E-12, -1.0790000000000002E-12, 2.2E-11, 1.7983333333333337E-11, -2.9166666666666663E-11
DataValue, -2.52, 5, 1.26E-12, -1.036E-12, 2.1000000000000002E-11, 1.7266666666666667E-11, 2.2916666666666649E-11
DataValue, -2.48, 5, 1.43E-12, -1.105E-12, 2.3833333333333335E-11, 1.8416666666666668E-11, -4.1666666666666886E-12
DataValue, -2.44, 5, 1.24E-12, -1.122E-12, 2.0666666666666666E-11, 1.87E-11, -1.875E-11
DataValue, -2.4, 5, 1.34E-12, -9.42E-13, 2.2333333333333334E-11, 1.57E-11, -1.0416666666666661E-11
DataValue, -2.36, 5, 1.19E-12, -9.74E-13, 1.9833333333333333E-11, 1.6233333333333337E-11, -2.2916666666666649E-11
DataValue, -2.32, 5, 1.23E-12, -1.0270000000000002E-12, 2.05E-11, 1.711666666666667E-11, 8.3333333333333837E-12
DataValue, -2.2800000000000002, 5, 1.23E-12, -9.240000000000001E-13, 2.05E-11, 1.5400000000000003E-11, -2.7083333333333447E-11
DataValue, -2.24, 5, 1.1E-12, -9.98E-13, 1.8333333333333335E-11, 1.6633333333333333E-11, 1.0416666666666661E-11
DataValue, -2.2, 5, 1.28E-12, -9.73E-13, 2.1333333333333334E-11, 1.6216666666666668E-11, 3.5416666666666635E-11
DataValue, -2.16, 5, 1.27E-12, -8.89E-13, 2.1166666666666668E-11, 1.4816666666666668E-11, -2.2916666666666649E-11
DataValue, -2.12, 5, 1.17E-12, -9.010000000000001E-13, 1.95E-11, 1.5016666666666668E-11, -1.6666666666666674E-11
DataValue, -2.08, 5, 1.19E-12, -9.010000000000001E-13, 1.9833333333333333E-11, 1.5016666666666668E-11, -2.0833333333333645E-12
DataValue, -2.04, 5, 1.16E-12, -8.5500000000000009E-13, 1.9333333333333331E-11, 1.4250000000000003E-11, -3.7499999999999961E-11
DataValue, -2, 5, 1.01E-12, -8.1600000000000006E-13, 1.6833333333333333E-11, 1.3600000000000002E-11, -2.0833333333333241E-12
DataValue, -1.96, 5, 1.15E-12, -7.4400000000000006E-13, 1.9166666666666665E-11, 1.2400000000000002E-11, 3.5416666666666635E-11
DataValue, -1.92, 5, 1.18E-12, -8.3700000000000007E-13, 1.9666666666666667E-11, 1.3950000000000001E-11, 0
DataValue, -1.8800000000000001, 5, 1.15E-12, -7.97E-13, 1.9166666666666665E-11, 1.3283333333333335E-11, -6.2500000000000309E-12
DataValue, -1.84, 5, 1.15E-12, -7.25E-13, 1.9166666666666665E-11, 1.2083333333333335E-11, 2.0833333333333241E-12
DataValue, -1.8, 5, 1.16E-12, -7.56E-13, 1.9333333333333331E-11, 1.26E-11, -1.0416666666666621E-11
DataValue, -1.76, 5, 1.1E-12, -6.86E-13, 1.8333333333333335E-11, 1.1433333333333335E-11, -1.8749999999999919E-11
DataValue, -1.72, 5, 1.07E-12, -6.880000000000001E-13, 1.7833333333333336E-11, 1.1466666666666668E-11, 4.1666666666666886E-12
DataValue, -1.68, 5, 1.12E-12, -6.8900000000000009E-13, 1.866666666666667E-11, 1.1483333333333335E-11, -8.3333333333333611E-12
DataValue, -1.6400000000000001, 5, 1.03E-12, -6.6800000000000008E-13, 1.7166666666666669E-11, 1.1133333333333335E-11, -1.0416666666666691E-11
DataValue, -1.6, 5, 1.07E-12, -6.5100000000000005E-13, 1.7833333333333336E-11, 1.0850000000000002E-11, 2.2916666666666607E-11
DataValue, -1.56, 5, 1.14E-12, -6.12E-13, 1.9E-11, 1.0200000000000001E-11, -2.0833333333333645E-12
DataValue, -1.52, 5, 1.06E-12, -6.1900000000000009E-13, 1.7666666666666667E-11, 1.0316666666666668E-11, -1.8749999999999958E-11
DataValue, -1.48, 5, 1.05E-12, -6.0400000000000005E-13, 1.75E-11, 1.0066666666666667E-11, -1.6666666666666635E-11
DataValue, -1.44, 5, 9.8E-13, -5.63E-13, 1.6333333333333335E-11, 9.3833333333333342E-12, -1.0416666666666691E-11
DataValue, -1.4000000000000001, 5, 1E-12, -5.2400000000000009E-13, 1.6666666666666667E-11, 8.7333333333333352E-12, 1.2500000000000022E-11
DataValue, -1.36, 5, 1.04E-12, -5.5200000000000007E-13, 1.7333333333333335E-11, 9.2000000000000012E-12, 8.958333333333327E-11
DataValue, -1.32, 5, 1.43E-12, -5.45E-13, 2.3833333333333335E-11, 9.0833333333333343E-12, 3.4374999999999967E-10
DataValue, -1.28, 5, 2.69E-12, -5.0500000000000007E-13, 4.4833333333333334E-11, 8.4166666666666683E-12, 1.4020833333333325E-09
DataValue, -1.24, 5, 8.16E-12, -4.97E-13, 1.3600000000000002E-10, 8.2833333333333345E-12, 5.3708333333333285E-09
DataValue, -1.2, 5, 2.847E-11, -4.21E-13, 4.745E-10, 7.016666666666667E-12, 1.6935416666666654E-08
DataValue, -1.16, 5, 8.945E-11, -4.94E-13, 1.4908333333333334E-09, 8.2333333333333337E-12, 4.1295833333333416E-08
DataValue, -1.12, 5, 2.2669E-10, -4.5900000000000006E-13, 3.7781666666666671E-09, 7.65E-12, 1.1737500000000022E-07
DataValue, -1.08, 5, 6.5285E-10, -3.8500000000000003E-13, 1.0880833333333334E-08, 6.4166666666666671E-12, 2.6738958333333312E-07
DataValue, -1.04, 5, 1.51016E-09, -4.0200000000000005E-13, 2.5169333333333335E-08, 6.7000000000000009E-12, 5.3799999999999955E-07
DataValue, -1, 5, 3.23525E-09, -3.6700000000000005E-13, 5.3920833333333332E-08, 6.116666666666668E-12, 9.7308958333333251E-07
DataValue, -0.96, 5, 6.18099E-09, -4.1600000000000004E-13, 1.030165E-07, 6.9333333333333339E-12, 1.684364583333334E-06
DataValue, -0.92, 5, 1.1320199999999999E-08, -3.62E-13, 1.8866999999999998E-07, 6.0333333333333341E-12, 2.7229187500000011E-06
DataValue, -0.88, 5, 1.9250999999999998E-08, -2.84E-13, 3.2084999999999996E-07, 4.7333333333333336E-12, 3.9961666666666632E-06
DataValue, -0.84, 5, 3.05018E-08, -2.44E-13, 5.0836333333333335E-07, 4.0666666666666668E-12, 5.9032291666666689E-06
DataValue, -0.8, 5, 4.7586499999999994E-08, -2.6600000000000003E-13, 7.9310833333333322E-07, 4.4333333333333337E-12, 8.86929166666667E-06
DataValue, -0.76, 5, 7.3074399999999992E-08, -2.1500000000000002E-13, 1.2179066666666667E-06, 3.5833333333333339E-12, 1.1894270833333323E-05
DataValue, -0.72, 5, 1.04679E-07, -2.17E-13, 1.7446499999999999E-06, 3.6166666666666669E-12, 1.6011583333333344E-05
DataValue, -0.68, 5, 1.4993E-07, -2.59E-13, 2.4988333333333335E-06, 4.3166666666666668E-12, 2.2241041666666678E-05
DataValue, -0.64, 5, 2.11436E-07, -1.7800000000000002E-13, 3.5239333333333332E-06, 2.9666666666666671E-12, 3.0101249999999975E-05
DataValue, -0.6, 5, 2.94416E-07, -1.48E-13, 4.9069333333333338E-06, 2.4666666666666668E-12, 4.14510416666667E-05
DataValue, -0.56, 5, 4.10401E-07, -1.6200000000000002E-13, 6.8400166666666673E-06, 2.7000000000000002E-12, 5.6913750000000034E-05
DataValue, -0.52, 5, 5.67602E-07, -1.59E-13, 9.4600333333333343E-06, 2.6500000000000002E-12, 8.6728958333333249E-05
DataValue, -0.48, 5, 8.267E-07, -2.2600000000000002E-13, 1.3778333333333333E-05, 3.7666666666666669E-12, 0.00014745375000000004
DataValue, -0.44, 5, 1.2753800000000002E-06, -9.1E-14, 2.1256333333333339E-05, 1.5166666666666668E-12, 0.00026766458333333349
DataValue, -0.4, 5, 2.11149E-06, -1.9100000000000002E-13, 3.5191500000000003E-05, 3.183333333333334E-12, 0.00048899791666666653
