
SetupTitle, Transfer
PrimitiveTest, I/V Sweep
TestParameter, Context.MainFrame, B1500A
TestParameter, Channel.UnitType, SMU, SMU, SMU
TestParameter, Channel.Unit, SMU1:HP, SMU3:MP, SMU2:MP
TestParameter, Channel.IName, Id, Ig, Is
TestParameter, Channel.VName, Vd, Vg, Vs
TestParameter, Channel.Mode, V, V, COMMON
TestParameter, Channel.Func, CONST, VAR1, CONST
TestParameter, Channel.Index, 
TestParameter, Channel.Time, 
TestParameter, Measurement.Port.Unit, SMU1:HP, SMU3:MP, SMU2:MP
TestParameter, Measurement.Port.SeriesResistor, NONE, NONE, NONE
TestParameter, Measurement.Port.Filter, ON, ON, ON
TestParameter, Measurement.Port.OutputVoltageComparison, 0, 0, 0
TestParameter, Measurement.Primary.Locus, Single
TestParameter, Measurement.Primary.Scale, LINEAR
TestParameter, Measurement.Primary.Start, -5
TestParameter, Measurement.Primary.Stop, 3
TestParameter, Measurement.Primary.Step, 0.04
TestParameter, Measurement.Primary.Compliance, 0.01
TestParameter, Measurement.Primary.PowerCompliance, 0
TestParameter, Measurement.Aborting.Condition, CONTINUE AT ANY
TestParameter, Measurement.PostOutput.Value, START
TestParameter, Measurement.PostOutput.Retention, OFF
TestParameter, Measurement.Bias.Source, 5, -5, 0
TestParameter, Measurement.Bias.Compliance, 0.1, 0.01, 0.1
TestParameter, Measurement.Monitor.Unit, SMU1:HP, SMU3:MP, SMU2:MP
TestParameter, Measurement.Monitor.Adc, HR ADC, HR ADC, HR ADC
TestParameter, Measurement.Monitor.Measurement, Compliance Side, Compliance Side, Compliance Side
TestParameter, Measurement.Monitor.RangingMode, LIMITED, LIMITED, LIMITED
TestParameter, Measurement.Monitor.RangeBoundary, 10nA, 1nA, 1nA
TestParameter, Measurement.Monitor.RangeRating, BY FULL RANGE, BY FULL RANGE, BY FULL RANGE
TestParameter, Measurement.Monitor.RangeRatingCoeff, 50, 50, 50
TestParameter, Measurement.Timing.Hold, 0
TestParameter, Measurement.Timing.Delay, 0
TestParameter, Measurement.Adc.HighSpeed.Mode, PLC
TestParameter, Measurement.Adc.HighSpeed.Coeff, 3
TestParameter, Measurement.Adc.HighResolution.AutoZero, OFF
TestParameter, Measurement.Adc.HighResolution.Mode, PLC
TestParameter, Measurement.Adc.HighResolution.Coeff, 2
TestParameter, Measurement.WaitTime.Source.Coeff, 1
TestParameter, Measurement.WaitTime.Source.Offset, 0
TestParameter, Measurement.WaitTime.Monitor.Coeff, 1
TestParameter, Measurement.WaitTime.Monitor.Offset, 0
TestParameter, Function.User.Name, Id_density, Ig_density, gm_density
TestParameter, Function.User.Unit, A/mm, A/mm, S/mm
TestParameter, Function.User.Definition, Id/0.06, abs(Ig)/0.06, diff(Id_density,Vg)
TestParameter, Output.Graph.Enabled, true
TestParameter, Output.Graph.XAxis.Data, Vg
TestParameter, Output.Graph.XAxis.Scale, Linear
TestParameter, Output.Graph.XAxis.Left, -6
TestParameter, Output.Graph.XAxis.Right, 6
TestParameter, Output.Graph.YAxis.Data, Id_density, Ig_density, Id_density, gm_density
TestParameter, Output.Graph.YAxis.Scale, Log, Log, Linear, Linear
TestParameter, Output.Graph.YAxis.Bottom, 0, 0, 0, 0
TestParameter, Output.Graph.YAxis.Top, 1, 1, 1, 1
TestParameter, Output.Graph.YAxis.Group, , , , 
TestParameter, Output.List.Data, Vg, Id_density, Ig_density, Id, Vd, gm_density
TestParameter, AutoAnalysis.Interpolation, false
TestParameter, AutoAnalysis.Line1.Enabled, false
TestParameter, AutoAnalysis.Line1.Type, 1
TestParameter, AutoAnalysis.Line1.Fix, True
TestParameter, AutoAnalysis.Line1.YAxis, 0
TestParameter, AutoAnalysis.Line1.Point1.Type, 0
TestParameter, AutoAnalysis.Line1.Point1.XY.X, 
TestParameter, AutoAnalysis.Line1.Point1.XY.Y, 
TestParameter, AutoAnalysis.Line1.Point1.Data.Var, 
TestParameter, AutoAnalysis.Line1.Point1.Data.Condition, 
TestParameter, AutoAnalysis.Line1.Point1.Data.Start, false
TestParameter, AutoAnalysis.Line1.Point1.Data.StartVar, 
TestParameter, AutoAnalysis.Line1.Point1.Data.StartCondition, 
TestParameter, AutoAnalysis.Line1.Point2.Type, 0
TestParameter, AutoAnalysis.Line1.Point2.XY.X, 
TestParameter, AutoAnalysis.Line1.Point2.XY.Y, 
TestParameter, AutoAnalysis.Line1.Point2.Data.Var, 
TestParameter, AutoAnalysis.Line1.Point2.Data.Condition, 
TestParameter, AutoAnalysis.Line1.Point2.Data.Start, false
TestParameter, AutoAnalysis.Line1.Point2.Data.StartVar, 
TestParameter, AutoAnalysis.Line1.Point2.Data.StartCondition, 
TestParameter, AutoAnalysis.Line1.GradientExpr, 0
TestParameter, AutoAnalysis.Line2.Enabled, false
TestParameter, AutoAnalysis.Line2.Type, 1
TestParameter, AutoAnalysis.Line2.Fix, True
TestParameter, AutoAnalysis.Line2.YAxis, 0
TestParameter, AutoAnalysis.Line2.Point1.Type, 0
TestParameter, AutoAnalysis.Line2.Point1.XY.X, 
TestParameter, AutoAnalysis.Line2.Point1.XY.Y, 
TestParameter, AutoAnalysis.Line2.Point1.Data.Var, 
TestParameter, AutoAnalysis.Line2.Point1.Data.Condition, 
TestParameter, AutoAnalysis.Line2.Point1.Data.Start, false
TestParameter, AutoAnalysis.Line2.Point1.Data.StartVar, 
TestParameter, AutoAnalysis.Line2.Point1.Data.StartCondition, 
TestParameter, AutoAnalysis.Line2.Point2.Type, 0
TestParameter, AutoAnalysis.Line2.Point2.XY.X, 
TestParameter, AutoAnalysis.Line2.Point2.XY.Y, 
TestParameter, AutoAnalysis.Line2.Point2.Data.Var, 
TestParameter, AutoAnalysis.Line2.Point2.Data.Condition, 
TestParameter, AutoAnalysis.Line2.Point2.Data.Start, false
TestParameter, AutoAnalysis.Line2.Point2.Data.StartVar, 
TestParameter, AutoAnalysis.Line2.Point2.Data.StartCondition, 
TestParameter, AutoAnalysis.Line2.GradientExpr, 0
TestParameter, AutoAnalysis.Marker.Enabled, false
TestParameter, AutoAnalysis.Marker.Data.Var, 
TestParameter, AutoAnalysis.Marker.Data.Condition, 
TestParameter, AutoAnalysis.Marker.Data.Start, false
TestParameter, AutoAnalysis.Marker.Data.StartVar, 
TestParameter, AutoAnalysis.Marker.Data.StartCondition, 
MetaData, TestRecord.EntryPoint, true
MetaData, TestRecord.RecordTime, 09/14/2018 13:33:18
MetaData, TestRecord.TestTarget, 
MetaData, TestRecord.IterationIndex, 2
MetaData, TestRecord.Preservation, true
MetaData, TestRecord.Flag, #
MetaData, TestRecord.Remarks, #144_Noff_trigate_W40_S50_L700_1qb_6_transfer
MetaData, TestRecord.LinkKey, 4f62e7bc-cec2-40d3-809e-14c8eabc2ea0
Dimension1, 201, 201, 201, 201, 201, 201, 201
Dimension2, 1, 1, 1, 1, 1, 1, 1
DataName, Vg, Vd, Id, Ig, Id_density, Ig_density, gm_density
DataValue, -5, 5, 9.99E-12, -8.3000000000000014E-12, 1.665E-10, 1.3833333333333337E-10, -1.420833333333332E-09
DataValue, -4.96, 5, 6.58E-12, -6.9740000000000008E-12, 1.0966666666666666E-10, 1.1623333333333335E-10, -9.1874999999999913E-10
DataValue, -4.92, 5, 5.58E-12, -6.2230000000000004E-12, 9.3E-11, 1.0371666666666667E-10, -2.8958333333333288E-10
DataValue, -4.88, 5, 5.19E-12, -5.714E-12, 8.6500000000000011E-11, 9.5233333333333335E-11, -2.020833333333331E-10
DataValue, -4.84, 5, 4.61E-12, -5.143E-12, 7.6833333333333339E-11, 8.5716666666666671E-11, -2.2708333333333333E-10
DataValue, -4.8, 5, 4.1E-12, -4.877E-12, 6.833333333333333E-11, 8.1283333333333347E-11, -1.3958333333333337E-10
DataValue, -4.76, 5, 3.94E-12, -4.536E-12, 6.566666666666666E-11, 7.56E-11, -8.124999999999981E-11
DataValue, -4.72, 5, 3.71E-12, -4.272E-12, 6.183333333333334E-11, 7.120000000000001E-11, -7.9166666666666484E-11
DataValue, -4.68, 5, 3.56E-12, -4.113E-12, 5.9333333333333335E-11, 6.855E-11, -5.0000000000000028E-11
DataValue, -4.64, 5, 3.47E-12, -3.858E-12, 5.7833333333333334E-11, 6.43E-11, -7.5000000000000749E-11
DataValue, -4.6000000000000005, 5, 3.2E-12, -3.707E-12, 5.3333333333333337E-11, 6.1783333333333337E-11, -7.29166666666674E-11
DataValue, -4.5600000000000005, 5, 3.12E-12, -3.713E-12, 5.2E-11, 6.1883333333333342E-11, -2.2916666666666649E-11
DataValue, -4.5200000000000005, 5, 3.09E-12, -3.3480000000000003E-12, 5.15E-11, 5.5800000000000004E-11, -7.7083333333333235E-11
DataValue, -4.48, 5, 2.75E-12, -3.3730000000000003E-12, 4.5833333333333337E-11, 5.6216666666666675E-11, -7.5E-11
DataValue, -4.44, 5, 2.73E-12, -3.184E-12, 4.55E-11, 5.3066666666666672E-11, -4.166666666666729E-12
DataValue, -4.4, 5, 2.73E-12, -3.016E-12, 4.55E-11, 5.0266666666666673E-11, -8.3333333333332965E-12
DataValue, -4.36, 5, 2.69E-12, -3.0980000000000003E-12, 4.4833333333333334E-11, 5.1633333333333339E-11, -5.4166666666666512E-11
DataValue, -4.32, 5, 2.47E-12, -2.8670000000000002E-12, 4.1166666666666673E-11, 4.778333333333334E-11, -3.7499999999999916E-11
DataValue, -4.28, 5, 2.51E-12, -2.9220000000000003E-12, 4.1833333333333338E-11, 4.8700000000000004E-11, -4.166666666666729E-12
DataValue, -4.24, 5, 2.45E-12, -2.77E-12, 4.0833333333333334E-11, 4.6166666666666669E-11, -2.91666666666667E-11
DataValue, -4.2, 5, 2.3699999999999998E-12, -2.6140000000000004E-12, 3.95E-11, 4.3566666666666673E-11, -4.3749999999999888E-11
DataValue, -4.16, 5, 2.24E-12, -2.662E-12, 3.733333333333334E-11, 4.4366666666666672E-11, -2.9166666666666618E-11
DataValue, -4.12, 5, 2.23E-12, -2.633E-12, 3.7166666666666668E-11, 4.3883333333333339E-11, 4.1666666666666482E-12
DataValue, -4.08, 5, 2.26E-12, -2.481E-12, 3.7666666666666672E-11, 4.1350000000000005E-11, 0
DataValue, -4.04, 5, 2.23E-12, -2.515E-12, 3.7166666666666668E-11, 4.1916666666666671E-11, -4.1666666666666482E-12
DataValue, -4, 5, 2.24E-12, -2.4210000000000003E-12, 3.733333333333334E-11, 4.0350000000000008E-11, -2.2916666666666649E-11
DataValue, -3.96, 5, 2.12E-12, -2.398E-12, 3.5333333333333334E-11, 3.9966666666666667E-11, -2.5000000000000053E-11
DataValue, -3.92, 5, 2.12E-12, -2.327E-12, 3.5333333333333334E-11, 3.8783333333333339E-11, -6.2499999999999728E-12
DataValue, -3.88, 5, 2.09E-12, -2.232E-12, 3.4833333333333336E-11, 3.7200000000000005E-11, -4.1666666666666482E-12
DataValue, -3.84, 5, 2.1E-12, -2.2370000000000003E-12, 3.5E-11, 3.7283333333333338E-11, 8.3333333333333433E-12
DataValue, -3.8000000000000003, 5, 2.13E-12, -2.2210000000000003E-12, 3.55E-11, 3.7016666666666673E-11, -1.2500000000000015E-11
DataValue, -3.7600000000000002, 5, 2.04E-12, -2.051E-12, 3.4000000000000005E-11, 3.4183333333333337E-11, -1.6666666666666674E-11
DataValue, -3.72, 5, 2.05E-12, -2.1320000000000002E-12, 3.4166666666666665E-11, 3.5533333333333337E-11, -2.0833333333334049E-12
DataValue, -3.68, 5, 2.03E-12, -2.0830000000000003E-12, 3.3833333333333333E-11, 3.4716666666666672E-11, -2.916666666666654E-11
DataValue, -3.64, 5, 1.91E-12, -1.9160000000000003E-12, 3.183333333333334E-11, 3.1933333333333338E-11, -2.9166666666666618E-11
DataValue, -3.6, 5, 1.89E-12, -2.039E-12, 3.15E-11, 3.3983333333333334E-11, 1.0416666666666621E-11
DataValue, -3.56, 5, 1.96E-12, -1.9580000000000003E-12, 3.266666666666667E-11, 3.263333333333334E-11, 2.0833333333333241E-12
DataValue, -3.52, 5, 1.9E-12, -1.8320000000000003E-12, 3.1666666666666667E-11, 3.0533333333333342E-11, -4.7916666666666663E-11
DataValue, -3.48, 5, 1.7299999999999999E-12, -1.91E-12, 2.8833333333333334E-11, 3.183333333333334E-11, 6.2500000000000535E-12
DataValue, -3.44, 5, 1.93E-12, -1.7980000000000002E-12, 3.2166666666666672E-11, 2.9966666666666669E-11, 3.9583333333333281E-11
DataValue, -3.4, 5, 1.92E-12, -1.843E-12, 3.2E-11, 3.0716666666666673E-11, -4.1666666666666691E-11
DataValue, -3.36, 5, 1.7299999999999999E-12, -1.694E-12, 2.8833333333333334E-11, 2.8233333333333334E-11, -3.7500000000000129E-11
DataValue, -3.3200000000000003, 5, 1.74E-12, -1.6950000000000002E-12, 2.9000000000000003E-11, 2.8250000000000003E-11, 1.2500000000000055E-11
DataValue, -3.2800000000000002, 5, 1.79E-12, -1.8170000000000002E-12, 2.9833333333333334E-11, 3.0283333333333336E-11, -2.0833333333333645E-12
DataValue, -3.24, 5, 1.7299999999999999E-12, -1.7040000000000002E-12, 2.8833333333333334E-11, 2.8400000000000003E-11, -2.2916666666666649E-11
DataValue, -3.2, 5, 1.68E-12, -1.636E-12, 2.8E-11, 2.7266666666666668E-11, 8.3333333333333369E-12
DataValue, -3.16, 5, 1.77E-12, -1.675E-12, 2.95E-11, 2.7916666666666667E-11, 2.0833333333333323E-11
DataValue, -3.12, 5, 1.78E-12, -1.6200000000000002E-12, 2.9666666666666668E-11, 2.7000000000000004E-11, -2.4999999999999972E-11
DataValue, -3.08, 5, 1.65E-12, -1.5950000000000002E-12, 2.7500000000000002E-11, 2.6583333333333338E-11, -4.9999999999999982E-11
DataValue, -3.04, 5, 1.54E-12, -1.5340000000000001E-12, 2.5666666666666665E-11, 2.556666666666667E-11, -6.2500000000000132E-12
DataValue, -3, 5, 1.62E-12, -1.5150000000000001E-12, 2.7E-11, 2.5250000000000003E-11, 1.6666666666666674E-11
DataValue, -2.96, 5, 1.62E-12, -1.5110000000000001E-12, 2.7E-11, 2.5183333333333336E-11, 1.4583333333333351E-11
DataValue, -2.92, 5, 1.69E-12, -1.4430000000000002E-12, 2.816666666666667E-11, 2.4050000000000004E-11, -2.2916666666666649E-11
DataValue, -2.88, 5, 1.51E-12, -1.4440000000000001E-12, 2.5166666666666667E-11, 2.4066666666666669E-11, -4.375000000000001E-11
DataValue, -2.84, 5, 1.48E-12, -1.489E-12, 2.4666666666666665E-11, 2.4816666666666666E-11, -2.0833333333333358E-12
DataValue, -2.8000000000000003, 5, 1.5E-12, -1.3300000000000002E-12, 2.5E-11, 2.2166666666666671E-11, 6.2500000000000479E-12
DataValue, -2.7600000000000002, 5, 1.51E-12, -1.466E-12, 2.5166666666666667E-11, 2.4433333333333335E-11, 2.0833333333333241E-12
DataValue, -2.72, 5, 1.51E-12, -1.358E-12, 2.5166666666666667E-11, 2.2633333333333335E-11, 1.875E-11
DataValue, -2.68, 5, 1.6E-12, -1.218E-12, 2.6666666666666668E-11, 2.03E-11, -8.3333333333333369E-12
DataValue, -2.64, 5, 1.47E-12, -1.2900000000000002E-12, 2.45E-11, 2.1500000000000003E-11, -3.9583333333333281E-11
DataValue, -2.6, 5, 1.41E-12, -1.2650000000000002E-12, 2.3500000000000003E-11, 2.1083333333333338E-11, -2.9166666666666618E-11
DataValue, -2.56, 5, 1.33E-12, -1.2080000000000001E-12, 2.2166666666666668E-11, 2.0133333333333334E-11, 1.458333333333327E-11
DataValue, -2.52, 5, 1.48E-12, -1.232E-12, 2.4666666666666665E-11, 2.0533333333333334E-11, 1.6666666666666674E-11
DataValue, -2.48, 5, 1.41E-12, -1.195E-12, 2.3500000000000003E-11, 1.9916666666666669E-11, -6.2499999999999324E-12
DataValue, -2.44, 5, 1.45E-12, -1.18E-12, 2.416666666666667E-11, 1.9666666666666667E-11, 1.2499999999999946E-11
DataValue, -2.4, 5, 1.47E-12, -1.1560000000000001E-12, 2.45E-11, 1.926666666666667E-11, -1.6666666666666674E-11
DataValue, -2.36, 5, 1.37E-12, -1.051E-12, 2.2833333333333335E-11, 1.751666666666667E-11, -1.0416666666666621E-11
DataValue, -2.32, 5, 1.42E-12, -1.126E-12, 2.3666666666666669E-11, 1.8766666666666668E-11, -8.3333333333333837E-12
DataValue, -2.2800000000000002, 5, 1.33E-12, -1.08E-12, 2.2166666666666668E-11, 1.8000000000000002E-11, -2.9166666666666824E-11
DataValue, -2.24, 5, 1.28E-12, -1.0140000000000001E-12, 2.1333333333333334E-11, 1.69E-11, -1.4583333333333309E-11
DataValue, -2.2, 5, 1.26E-12, -1.055E-12, 2.1000000000000002E-11, 1.7583333333333334E-11, 2.5000000000000014E-11
DataValue, -2.16, 5, 1.4E-12, -1.019E-12, 2.3333333333333337E-11, 1.6983333333333334E-11, 1.2499999999999986E-11
DataValue, -2.12, 5, 1.32E-12, -9.53E-13, 2.2E-11, 1.5883333333333336E-11, -3.3333333333333347E-11
DataValue, -2.08, 5, 1.24E-12, -1.003E-12, 2.0666666666666666E-11, 1.671666666666667E-11, -2.0833333333333323E-11
DataValue, -2.04, 5, 1.22E-12, -1.028E-12, 2.0333333333333334E-11, 1.7133333333333335E-11, -1.6666666666666674E-11
DataValue, -2, 5, 1.16E-12, -8.9800000000000011E-13, 1.9333333333333331E-11, 1.4966666666666669E-11, 0
DataValue, -1.96, 5, 1.22E-12, -9.96E-13, 2.0333333333333334E-11, 1.66E-11, 2.2916666666666688E-11
DataValue, -1.92, 5, 1.27E-12, -8.1700000000000005E-13, 2.1166666666666668E-11, 1.3616666666666669E-11, 2.291666666666671E-11
DataValue, -1.8800000000000001, 5, 1.33E-12, -8.8600000000000006E-13, 2.2166666666666668E-11, 1.4766666666666669E-11, 0
DataValue, -1.84, 5, 1.27E-12, -9.0200000000000009E-13, 2.1166666666666668E-11, 1.5033333333333337E-11, -2.0833333333333241E-12
DataValue, -1.8, 5, 1.32E-12, -6.9300000000000008E-13, 2.2E-11, 1.1550000000000002E-11, -1.2499999999999986E-11
DataValue, -1.76, 5, 1.21E-12, -8.070000000000001E-13, 2.0166666666666668E-11, 1.3450000000000003E-11, -2.0833333333333323E-11
DataValue, -1.72, 5, 1.22E-12, -8.3800000000000006E-13, 2.0333333333333334E-11, 1.3966666666666668E-11, 6.2499999999999728E-12
DataValue, -1.68, 5, 1.24E-12, -7.09E-13, 2.0666666666666666E-11, 1.1816666666666668E-11, 1.0416666666666691E-11
DataValue, -1.6400000000000001, 5, 1.27E-12, -7.360000000000001E-13, 2.1166666666666668E-11, 1.2266666666666668E-11, 1.4166666666666693E-10
DataValue, -1.6, 5, 1.92E-12, -7.4500000000000006E-13, 3.2E-11, 1.2416666666666667E-11, 5.3958333333333289E-10
DataValue, -1.56, 5, 3.86E-12, -5.92E-13, 6.4333333333333344E-11, 9.8666666666666672E-12, 1.4208333333333324E-09
DataValue, -1.52, 5, 8.74E-12, -7.2100000000000006E-13, 1.4566666666666668E-10, 1.2016666666666668E-11, 4.1541666666666625E-09
DataValue, -1.48, 5, 2.38E-11, -5.86E-13, 3.9666666666666669E-10, 9.7666666666666672E-12, 1.446874999999999E-08
DataValue, -1.44, 5, 7.819E-11, -6.12E-13, 1.3031666666666669E-09, 1.0200000000000001E-11, 3.9745833333333412E-08
DataValue, -1.4000000000000001, 5, 2.1458E-10, -5.39E-13, 3.5763333333333335E-09, 8.9833333333333343E-12, 9.3400000000000188E-08
DataValue, -1.36, 5, 5.2651E-10, -5.5400000000000006E-13, 8.7751666666666671E-09, 9.2333333333333351E-12, 2.1126041666666647E-07
DataValue, -1.32, 5, 1.22863E-09, -5.9800000000000008E-13, 2.0477166666666667E-08, 9.9666666666666688E-12, 4.9258749999999961E-07
DataValue, -1.28, 5, 2.89093E-09, -4.5300000000000004E-13, 4.8182166666666672E-08, 7.55E-12, 1.0247062499999991E-06
DataValue, -1.24, 5, 6.14722E-09, -4.5200000000000004E-13, 1.0245366666666667E-07, 7.5333333333333338E-12, 1.9189312499999983E-06
DataValue, -1.2, 5, 1.2101799999999999E-08, -4.45E-13, 2.0169666666666667E-07, 7.4166666666666669E-12, 3.6232874999999963E-06
DataValue, -1.16, 5, 2.3538999999999997E-08, -3.51E-13, 3.9231666666666664E-07, 5.85E-12, 5.95675000000001E-06
DataValue, -1.12, 5, 4.06942E-08, -4.63E-13, 6.7823666666666664E-07, 7.7166666666666685E-12, 9.7572916666666825E-06
DataValue, -1.08, 5, 7.0373999999999992E-08, -2.69E-13, 1.1728999999999998E-06, 4.4833333333333337E-12, 1.5009958333333318E-05
DataValue, -1.04, 5, 1.1274199999999999E-07, -3.8100000000000004E-13, 1.8790333333333333E-06, 6.350000000000001E-12, 2.2639166666666651E-05
DataValue, -1, 5, 1.79042E-07, -3.38E-13, 2.9840333333333336E-06, 5.6333333333333342E-12, 3.4264166666666636E-05
DataValue, -0.96, 5, 2.7721E-07, -3.3400000000000004E-13, 4.6201666666666668E-06, 5.5666666666666673E-12, 4.7771250000000018E-05
DataValue, -0.92, 5, 4.0834399999999997E-07, -3.7000000000000004E-13, 6.8057333333333333E-06, 6.1666666666666672E-12, 7.0173750000000046E-05
DataValue, -0.88, 5, 6.14044E-07, -2.83E-13, 1.0234066666666667E-05, 4.7166666666666667E-12, 0.00010747937499999992
DataValue, -0.84, 5, 9.24245E-07, -2.58E-13, 1.5404083333333334E-05, 4.3000000000000007E-12, 0.00016198041666666676
DataValue, -0.8, 5, 1.39155E-06, -2.67E-13, 2.3192500000000002E-05, 4.4500000000000006E-12, 0.00026953020833333352
DataValue, -0.76, 5, 2.2179900000000003E-06, -2.35E-13, 3.6966500000000006E-05, 3.9166666666666669E-12, 0.00046602916666666627
DataValue, -0.72, 5, 3.6284900000000002E-06, -1.76E-13, 6.0474833333333339E-05, 2.9333333333333336E-12, 0.00074431458333333383
DataValue, -0.68, 5, 5.7907E-06, -2.4100000000000003E-13, 9.651166666666668E-05, 4.0166666666666677E-12, 0.0011855770833333345
DataValue, -0.64, 5, 9.3192600000000013E-06, -1.6700000000000002E-13, 0.00015532100000000004, 2.7833333333333337E-12, 0.0019744791666666652
DataValue, -0.6, 5, 1.52682E-05, -2.8E-13, 0.00025447, 4.6666666666666675E-12, 0.0032305916666666677
DataValue, -0.56, 5, 2.48261E-05, -4.5000000000000004E-14, 0.00041376833333333333, 7.5000000000000014E-13, 0.0054423750000000028
DataValue, -0.52, 5, 4.13916E-05, -1.1100000000000001E-13, 0.00068986, 1.85E-12, 0.0091016874999999952
DataValue, -0.48, 5, 6.85142E-05, -5E-14, 0.0011419033333333335, 8.3333333333333338E-13, 0.014823416666666667
DataValue, -0.44, 5, 0.00011254400000000001, -1.19E-13, 0.0018757333333333337, 1.9833333333333334E-12, 0.021868291666666678
DataValue, -0.4, 5, 0.000173482, 1.1E-14, 0.002891366666666667, 1.8333333333333335E-13, 0.030440416666666654
