
SetupTitle, Breakdown
PrimitiveTest, I/V Sweep
TestParameter, Context.MainFrame, B1500A
TestParameter, Channel.UnitType, SMU, SMU, SMU
TestParameter, Channel.Unit, SMU7:HV, SMU1:MP, GNDU:GND
TestParameter, Channel.IName, Id, Ig, Is
TestParameter, Channel.VName, Vd, Vg, Vs
TestParameter, Channel.Mode, V, V, COMMON
TestParameter, Channel.Func, VAR1, CONST, CONST
TestParameter, Channel.Index, 
TestParameter, Channel.Time, 
TestParameter, Measurement.Port.Unit, SMU7:HV, SMU1:MP, GNDU:GND
TestParameter, Measurement.Port.SeriesResistor, NONE, NONE, NONE
TestParameter, Measurement.Port.Filter, ON, ON, ON
TestParameter, Measurement.Port.OutputVoltageComparison, 0, 0, 0
TestParameter, Measurement.Primary.Locus, Single
TestParameter, Measurement.Primary.Scale, LINEAR
TestParameter, Measurement.Primary.Start, 0
TestParameter, Measurement.Primary.Stop, 1500
TestParameter, Measurement.Primary.Step, 4.9995
TestParameter, Measurement.Primary.Compliance, 9.9999999999999991E-06
TestParameter, Measurement.Primary.PowerCompliance, 0
TestParameter, Measurement.Aborting.Condition, CONTINUE AT ANY
TestParameter, Measurement.PostOutput.Value, START
TestParameter, Measurement.PostOutput.Retention, OFF
TestParameter, Measurement.Bias.Source, 0, -6, 0
TestParameter, Measurement.Bias.Compliance, 9.9999999999999991E-06, 1E-05, 2
TestParameter, Measurement.Monitor.Unit, SMU7:HV, SMU1:MP, GNDU:GND
TestParameter, Measurement.Monitor.Adc, HS ADC, HS ADC, HR ADC
TestParameter, Measurement.Monitor.Measurement, Compliance Side, Compliance Side, Compliance Side
TestParameter, Measurement.Monitor.RangingMode, AUTO, AUTO, LIMITED
TestParameter, Measurement.Monitor.RangeBoundary, , , 1nA
TestParameter, Measurement.Monitor.RangeRating, BY FULL RANGE, BY FULL RANGE, BY FULL RANGE
TestParameter, Measurement.Monitor.RangeRatingCoeff, 50, 50, 50
TestParameter, Measurement.Timing.Hold, 0
TestParameter, Measurement.Timing.Delay, 0
TestParameter, Measurement.Adc.HighSpeed.Mode, PLC
TestParameter, Measurement.Adc.HighSpeed.Coeff, 6
TestParameter, Measurement.Adc.HighResolution.AutoZero, OFF
TestParameter, Measurement.Adc.HighResolution.Mode, PLC
TestParameter, Measurement.Adc.HighResolution.Coeff, 1
TestParameter, Measurement.WaitTime.Source.Coeff, 0
TestParameter, Measurement.WaitTime.Source.Offset, 0
TestParameter, Measurement.WaitTime.Monitor.Coeff, 0
TestParameter, Measurement.WaitTime.Monitor.Offset, 0
TestParameter, Function.User.Name, Id_dens, Ig_dens
TestParameter, Function.User.Unit, A/mm, A/mm
TestParameter, Function.User.Definition, Id/0.06, abs(Ig)/0.06
TestParameter, Output.Graph.Enabled, true
TestParameter, Output.Graph.AutoScaling, false
TestParameter, Output.Graph.XAxis.Data, Vd
TestParameter, Output.Graph.XAxis.Scale, Linear
TestParameter, Output.Graph.XAxis.Left, 0
TestParameter, Output.Graph.XAxis.Right, 6
TestParameter, Output.Graph.XAxis.RunTimeAutoScale, false
TestParameter, Output.Graph.YAxis.Data, Id_dens, Ig_dens, Id_dens
TestParameter, Output.Graph.YAxis.Scale, Linear, Linear, Log
TestParameter, Output.Graph.YAxis.Bottom, 0, 0, 0
TestParameter, Output.Graph.YAxis.Top, 0.30000000000000004, 1, 1
TestParameter, Output.Graph.YAxis.Group, , , 
TestParameter, Output.Graph.YAxis.RunTimeAutoScale, false, false, false
TestParameter, Output.List.Data, Vd, Id_dens, Ig_dens, Vg
TestParameter, AutoAnalysis.Interpolation, false
TestParameter, AutoAnalysis.Line1.Enabled, false
TestParameter, AutoAnalysis.Line1.Type, 1
TestParameter, AutoAnalysis.Line1.Fix, True
TestParameter, AutoAnalysis.Line1.YAxis, 0
TestParameter, AutoAnalysis.Line1.Point1.Type, 0
TestParameter, AutoAnalysis.Line1.Point1.XY.X, 
TestParameter, AutoAnalysis.Line1.Point1.XY.Y, 
TestParameter, AutoAnalysis.Line1.Point1.Data.Var, 
TestParameter, AutoAnalysis.Line1.Point1.Data.Condition, 
TestParameter, AutoAnalysis.Line1.Point1.Data.Start, false
TestParameter, AutoAnalysis.Line1.Point1.Data.StartVar, 
TestParameter, AutoAnalysis.Line1.Point1.Data.StartCondition, 
TestParameter, AutoAnalysis.Line1.Point2.Type, 0
TestParameter, AutoAnalysis.Line1.Point2.XY.X, 
TestParameter, AutoAnalysis.Line1.Point2.XY.Y, 
TestParameter, AutoAnalysis.Line1.Point2.Data.Var, 
TestParameter, AutoAnalysis.Line1.Point2.Data.Condition, 
TestParameter, AutoAnalysis.Line1.Point2.Data.Start, false
TestParameter, AutoAnalysis.Line1.Point2.Data.StartVar, 
TestParameter, AutoAnalysis.Line1.Point2.Data.StartCondition, 
TestParameter, AutoAnalysis.Line1.GradientExpr, 0
TestParameter, AutoAnalysis.Line2.Enabled, false
TestParameter, AutoAnalysis.Line2.Type, 1
TestParameter, AutoAnalysis.Line2.Fix, True
TestParameter, AutoAnalysis.Line2.YAxis, 0
TestParameter, AutoAnalysis.Line2.Point1.Type, 0
TestParameter, AutoAnalysis.Line2.Point1.XY.X, 
TestParameter, AutoAnalysis.Line2.Point1.XY.Y, 
TestParameter, AutoAnalysis.Line2.Point1.Data.Var, 
TestParameter, AutoAnalysis.Line2.Point1.Data.Condition, 
TestParameter, AutoAnalysis.Line2.Point1.Data.Start, false
TestParameter, AutoAnalysis.Line2.Point1.Data.StartVar, 
TestParameter, AutoAnalysis.Line2.Point1.Data.StartCondition, 
TestParameter, AutoAnalysis.Line2.Point2.Type, 0
TestParameter, AutoAnalysis.Line2.Point2.XY.X, 
TestParameter, AutoAnalysis.Line2.Point2.XY.Y, 
TestParameter, AutoAnalysis.Line2.Point2.Data.Var, 
TestParameter, AutoAnalysis.Line2.Point2.Data.Condition, 
TestParameter, AutoAnalysis.Line2.Point2.Data.Start, false
TestParameter, AutoAnalysis.Line2.Point2.Data.StartVar, 
TestParameter, AutoAnalysis.Line2.Point2.Data.StartCondition, 
TestParameter, AutoAnalysis.Line2.GradientExpr, 0
TestParameter, AutoAnalysis.Marker.Enabled, false
TestParameter, AutoAnalysis.Marker.Data.Var, 
TestParameter, AutoAnalysis.Marker.Data.Condition, 
TestParameter, AutoAnalysis.Marker.Data.Start, false
TestParameter, AutoAnalysis.Marker.Data.StartVar, 
TestParameter, AutoAnalysis.Marker.Data.StartCondition, 
MetaData, TestRecord.EntryPoint, true
MetaData, TestRecord.RecordTime, 08/16/2019 17:06:45
MetaData, TestRecord.TestTarget, 
MetaData, TestRecord.IterationIndex, 27
MetaData, TestRecord.Preservation, true
MetaData, TestRecord.Flag, #
MetaData, TestRecord.Remarks, #172_LPCVD_trigate_W200_no_pass
MetaData, TestRecord.LinkKey, 78677f99-8706-4397-add4-aeb59ced6238
Dimension1, 301, 301, 301, 301, 301, 301
Dimension2, 1, 1, 1, 1, 1, 1
DataName, Vd, Vg, Id, Ig, Id_dens, Ig_dens
DataValue, 0, -6, -3.5799999999999995E-11, -1.13E-11, -5.9666666666666657E-10, 1.8833333333333336E-10
DataValue, 4.9995, -6, 1.7449000000000003E-11, -2.25E-12, 2.9081666666666674E-10, 3.75E-11
DataValue, 10.0005, -6, 1.4971E-11, -6.2E-12, 2.4951666666666669E-10, 1.0333333333333334E-10
DataValue, 15, -6, 2.978E-12, 1.75E-12, 4.9633333333333333E-11, 2.9166666666666669E-11
DataValue, 19.9995, -6, 2.0757E-11, -4.25E-12, 3.4595000000000003E-10, 7.0833333333333334E-11
DataValue, 25.0005, -6, -2.2699999999999997E-11, -4.9000000000000005E-12, -3.7833333333333327E-10, 8.1666666666666682E-11
DataValue, 30, -6, 2.9859000000000005E-11, -6.65E-12, 4.9765000000000014E-10, 1.1083333333333334E-10
DataValue, 34.9995, -6, 3.3948000000000005E-11, -9E-12, 5.6580000000000016E-10, 1.5E-10
DataValue, 40.0005, -6, 1.9524000000000003E-11, 1.05E-12, 3.2540000000000003E-10, 1.75E-11
DataValue, 45, -6, -6.9999999999999993E-12, 1E-13, -1.1666666666666665E-10, 1.6666666666666668E-12
DataValue, 49.9995, -6, 4.5E-12, -1.005E-11, 7.5E-11, 1.6750000000000002E-10
DataValue, 55.0005, -6, 4.5181E-11, -1.1E-11, 7.5301666666666676E-10, 1.8333333333333335E-10
DataValue, 60, -6, 4.6686000000000007E-11, -1.3550000000000001E-11, 7.7810000000000014E-10, 2.2583333333333336E-10
DataValue, 64.9995, -6, 2.7799999999999997E-11, -1.7250000000000002E-11, 4.6333333333333328E-10, 2.8750000000000004E-10
DataValue, 70.0005, -6, 4.0772E-11, -8.05E-12, 6.7953333333333343E-10, 1.3416666666666669E-10
DataValue, 75, -6, 4.1907E-11, -4.9000000000000005E-12, 6.9845E-10, 8.1666666666666682E-11
DataValue, 79.9995, -6, 4.9204000000000004E-11, -8.1E-12, 8.2006666666666675E-10, 1.35E-10
DataValue, 85.0005, -6, 6.6202E-11, -1.78E-11, 1.1033666666666668E-09, 2.9666666666666668E-10
DataValue, 90, -6, 6.2016E-11, -8.55E-12, 1.0336E-09, 1.4250000000000003E-10
DataValue, 94.9995, -6, 5.2467E-11, -1.14E-11, 8.7445E-10, 1.9000000000000002E-10
DataValue, 100.0005, -6, 7.1596000000000008E-11, -2.1000000000000002E-11, 1.1932666666666669E-09, 3.5000000000000003E-10
DataValue, 105, -6, 6.264E-11, -1.2950000000000001E-11, 1.0440000000000001E-09, 2.1583333333333336E-10
DataValue, 109.9995, -6, 6.3872E-11, -1.51E-11, 1.0645333333333333E-09, 2.5166666666666668E-10
DataValue, 115.0005, -6, 8.0817000000000012E-11, -1.49E-11, 1.3469500000000002E-09, 2.4833333333333335E-10
DataValue, 120, -6, 7.3332000000000011E-11, -1.085E-11, 1.2222000000000002E-09, 1.8083333333333333E-10
DataValue, 124.9995, -6, 9.188600000000001E-11, -2.39E-11, 1.5314333333333335E-09, 3.9833333333333335E-10
DataValue, 130.00050000000002, -6, 8.4055E-11, -1.93E-11, 1.4009166666666667E-09, 3.2166666666666669E-10
DataValue, 135, -6, 8.8854E-11, -3E-11, 1.4809000000000001E-09, 5E-10
DataValue, 139.9995, -6, 8.9692000000000007E-11, -3.65E-11, 1.4948666666666667E-09, 6.083333333333334E-10
DataValue, 145.00050000000002, -6, 9.7246E-11, -3.22E-11, 1.6207666666666669E-09, 5.3666666666666678E-10
DataValue, 150, -6, 1.1514500000000001E-10, -3.275E-11, 1.9190833333333337E-09, 5.4583333333333336E-10
DataValue, 154.9995, -6, 1.17606E-10, -3.575E-11, 1.9601000000000003E-09, 5.958333333333334E-10
DataValue, 160.00050000000002, -6, 1.0799999999999999E-10, -3.735E-11, 1.7999999999999998E-09, 6.225E-10
DataValue, 165, -6, 1.0963600000000001E-10, -4.13E-11, 1.827266666666667E-09, 6.8833333333333344E-10
DataValue, 169.9995, -6, 1.16993E-10, -3.32E-11, 1.9498833333333336E-09, 5.5333333333333339E-10
DataValue, 175.00050000000002, -6, 1.3563500000000002E-10, -4.485E-11, 2.2605833333333338E-09, 7.4750000000000006E-10
DataValue, 180, -6, 1.36754E-10, -3.615E-11, 2.2792333333333335E-09, 6.025E-10
DataValue, 184.9995, -6, 1.0819999999999999E-10, -4.625E-11, 1.8033333333333331E-09, 7.7083333333333341E-10
DataValue, 190.00050000000002, -6, 1.3202800000000002E-10, -3.815E-11, 2.2004666666666671E-09, 6.3583333333333336E-10
DataValue, 195, -6, 1.108E-10, -3.955E-11, 1.8466666666666667E-09, 6.5916666666666672E-10
DataValue, 199.9995, -6, 1.1409999999999999E-10, -4.69E-11, 1.9016666666666664E-09, 7.8166666666666676E-10
DataValue, 205.00050000000002, -6, 1.2879999999999998E-10, -4.8E-11, 2.1466666666666663E-09, 8E-10
DataValue, 210, -6, 1.61777E-10, -5.1E-11, 2.6962833333333334E-09, 8.5E-10
DataValue, 214.9995, -6, 1.5073800000000002E-10, -4.625E-11, 2.5123000000000005E-09, 7.7083333333333341E-10
DataValue, 220.00050000000002, -6, 1.57592E-10, -5.425E-11, 2.6265333333333337E-09, 9.041666666666667E-10
DataValue, 225, -6, 1.7188100000000001E-10, -5.15E-11, 2.8646833333333338E-09, 8.5833333333333337E-10
DataValue, 229.9995, -6, 1.6024700000000002E-10, -6.33E-11, 2.6707833333333339E-09, 1.0550000000000002E-09
DataValue, 235.00050000000002, -6, 1.8079500000000002E-10, -5.585E-11, 3.0132500000000005E-09, 9.3083333333333338E-10
DataValue, 240, -6, 1.9020800000000002E-10, -6.79E-11, 3.1701333333333338E-09, 1.1316666666666668E-09
DataValue, 244.9995, -6, 1.86926E-10, -7.71E-11, 3.1154333333333336E-09, 1.285E-09
DataValue, 250.00050000000002, -6, 1.418E-10, -7.875E-11, 2.3633333333333332E-09, 1.3125E-09
DataValue, 255, -6, 1.86519E-10, -6.545E-11, 3.1086500000000004E-09, 1.0908333333333333E-09
DataValue, 259.9995, -6, 2.03637E-10, -7.86E-11, 3.3939500000000003E-09, 1.3100000000000002E-09
DataValue, 265.0005, -6, 1.841E-10, -7.74E-11, 3.0683333333333332E-09, 1.29E-09
DataValue, 270, -6, 2.1283500000000002E-10, -7.9200000000000008E-11, 3.5472500000000005E-09, 1.3200000000000002E-09
DataValue, 274.9995, -6, 2.13268E-10, -8.14E-11, 3.5544666666666672E-09, 1.3566666666666667E-09
DataValue, 280.0005, -6, 2.20822E-10, -9.345E-11, 3.6803666666666669E-09, 1.5575E-09
DataValue, 285, -6, 2.1412200000000002E-10, -8.47E-11, 3.5687000000000007E-09, 1.4116666666666669E-09
DataValue, 289.9995, -6, 2.2004500000000001E-10, -9.5550000000000009E-11, 3.6674166666666668E-09, 1.5925000000000002E-09
DataValue, 295.0005, -6, 2.2203E-10, -8.925E-11, 3.7005E-09, 1.4875E-09
DataValue, 300, -6, 1.9759999999999997E-10, -8.21E-11, 3.2933333333333331E-09, 1.3683333333333335E-09
DataValue, 304.9995, -6, 2.38357E-10, -7.07E-11, 3.9726166666666674E-09, 1.1783333333333333E-09
DataValue, 310.0005, -6, 2.4279E-10, -7.5450000000000008E-11, 4.0465E-09, 1.2575000000000003E-09
DataValue, 315, -6, 2.35615E-10, -7.35E-11, 3.926916666666667E-09, 1.2250000000000002E-09
DataValue, 319.9995, -6, 2.44576E-10, -6.935E-11, 4.0762666666666671E-09, 1.1558333333333334E-09
DataValue, 325.0005, -6, 2.51983E-10, -6.855E-11, 4.1997166666666672E-09, 1.1425E-09
DataValue, 330, -6, 2.1909999999999997E-10, -6.585E-11, 3.6516666666666664E-09, 1.0975E-09
DataValue, 334.9995, -6, 2.43913E-10, -6.855E-11, 4.0652166666666669E-09, 1.1425E-09
DataValue, 340.0005, -6, 2.51953E-10, -6.75E-11, 4.1992166666666674E-09, 1.125E-09
DataValue, 345, -6, 2.7348900000000005E-10, -6.71E-11, 4.5581500000000008E-09, 1.1183333333333335E-09
DataValue, 349.9995, -6, 2.393E-10, -6.785E-11, 3.9883333333333333E-09, 1.1308333333333334E-09
DataValue, 355.0005, -6, 2.5489999999999997E-10, -7.345E-11, 4.2483333333333328E-09, 1.2241666666666668E-09
DataValue, 360, -6, 2.523E-10, -6.95E-11, 4.205E-09, 1.1583333333333334E-09
DataValue, 364.9995, -6, 2.551E-10, -6.975E-11, 4.2516666666666664E-09, 1.1625E-09
DataValue, 370.0005, -6, 2.86166E-10, -7.0900000000000008E-11, 4.7694333333333343E-09, 1.1816666666666668E-09
DataValue, 375, -6, 3.1546200000000003E-10, -8.0250000000000007E-11, 5.257700000000001E-09, 1.3375000000000002E-09
DataValue, 379.9995, -6, 3.1757700000000003E-10, -8.1850000000000007E-11, 5.2929500000000004E-09, 1.3641666666666668E-09
DataValue, 385.0005, -6, 3.3532600000000004E-10, -1.0665E-10, 5.5887666666666675E-09, 1.7775000000000001E-09
DataValue, 390, -6, 3.58532E-10, -1.395E-10, 5.9755333333333341E-09, 2.325E-09
DataValue, 394.9995, -6, 3.83559E-10, -1.3215E-10, 6.3926500000000007E-09, 2.2025E-09
DataValue, 400.0005, -6, 3.66379E-10, -1.0810000000000001E-10, 6.1063166666666672E-09, 1.8016666666666668E-09
DataValue, 405, -6, 3.8558100000000004E-10, -1.1205E-10, 6.4263500000000007E-09, 1.8675E-09
DataValue, 409.9995, -6, 3.603E-10, -1.048E-10, 6.005E-09, 1.7466666666666668E-09
DataValue, 415.0005, -6, 4.4036E-10, -1.4515E-10, 7.3393333333333338E-09, 2.4191666666666667E-09
DataValue, 420, -6, 4.3463E-10, -1.4340000000000002E-10, 7.2438333333333331E-09, 2.3900000000000002E-09
DataValue, 424.9995, -6, 4.4833E-10, -1.5635E-10, 7.472166666666667E-09, 2.6058333333333336E-09
DataValue, 430.0005, -6, 4.4908E-10, -1.633E-10, 7.4846666666666679E-09, 2.7216666666666665E-09
DataValue, 435, -6, 4.5905E-10, -1.5735E-10, 7.6508333333333338E-09, 2.6225E-09
DataValue, 439.9995, -6, 4.3229999999999994E-10, -1.5195E-10, 7.204999999999999E-09, 2.5325E-09
DataValue, 445.0005, -6, 4.6999E-10, -1.5365E-10, 7.8331666666666677E-09, 2.5608333333333334E-09
DataValue, 450, -6, 4.8284300000000009E-10, -1.442E-10, 8.0473833333333345E-09, 2.4033333333333335E-09
DataValue, 454.9995, -6, 4.9106E-10, -1.5965E-10, 8.1843333333333333E-09, 2.6608333333333335E-09
DataValue, 460.0005, -6, 4.9682E-10, -1.502E-10, 8.2803333333333346E-09, 2.5033333333333336E-09
DataValue, 465, -6, 4.8129700000000006E-10, -1.4535E-10, 8.0216166666666686E-09, 2.4225E-09
DataValue, 469.9995, -6, 5.142E-10, -1.7235E-10, 8.5700000000000016E-09, 2.8725E-09
DataValue, 475.0005, -6, 5.029E-10, -1.7645E-10, 8.3816666666666676E-09, 2.9408333333333334E-09
DataValue, 480, -6, 5.4278E-10, -1.7265E-10, 9.046333333333333E-09, 2.8775E-09
DataValue, 484.9995, -6, 5.4369E-10, -1.7615E-10, 9.0615E-09, 2.9358333333333335E-09
DataValue, 490.0005, -6, 5.574E-10, -2.2960000000000001E-10, 9.2899999999999991E-09, 3.8266666666666667E-09
DataValue, 495, -6, 6.0476E-10, -2.1460000000000001E-10, 1.0079333333333333E-08, 3.5766666666666669E-09
DataValue, 499.9995, -6, 5.976E-10, -2.2185000000000002E-10, 9.96E-09, 3.6975000000000005E-09
DataValue, 505.0005, -6, 6.023999999999999E-10, -2.3705E-10, 1.004E-08, 3.9508333333333338E-09
DataValue, 510, -6, 6.5365E-10, -2.6625E-10, 1.0894166666666668E-08, 4.4375E-09
DataValue, 514.9995, -6, 6.8423E-10, -2.727E-10, 1.1403833333333334E-08, 4.545E-09
DataValue, 520.0005, -6, 6.633999999999999E-10, -2.897E-10, 1.1056666666666665E-08, 4.8283333333333337E-09
DataValue, 525, -6, 6.774E-10, -2.9175E-10, 1.129E-08, 4.8625000000000005E-09
DataValue, 529.9995, -6, 7.2457E-10, -3.0785000000000003E-10, 1.2076166666666668E-08, 5.1308333333333343E-09
DataValue, 535.0005, -6, 7.5068E-10, -3.2655E-10, 1.2511333333333335E-08, 5.4425000000000006E-09
DataValue, 540, -6, 7.6768E-10, -3.317E-10, 1.2794666666666667E-08, 5.5283333333333334E-09
DataValue, 544.9995, -6, 7.5489999999999995E-10, -3.622E-10, 1.2581666666666666E-08, 6.0366666666666671E-09
DataValue, 550.0005, -6, 8.1157E-10, -3.7595000000000003E-10, 1.3526166666666668E-08, 6.2658333333333342E-09
DataValue, 555, -6, 8.2954E-10, -3.872E-10, 1.3825666666666667E-08, 6.4533333333333342E-09
DataValue, 559.9995, -6, 8.1589999999999994E-10, -3.9115E-10, 1.3598333333333333E-08, 6.5191666666666666E-09
DataValue, 565.0005, -6, 8.7021E-10, -4.1675000000000003E-10, 1.4503500000000002E-08, 6.9458333333333343E-09
DataValue, 570, -6, 8.7953E-10, -4.2060000000000003E-10, 1.4658833333333333E-08, 7.01E-09
DataValue, 574.9995, -6, 9.0029E-10, -4.2975E-10, 1.5004833333333333E-08, 7.1625000000000004E-09
DataValue, 580.0005, -6, 9.127E-10, -4.9595E-10, 1.5211666666666668E-08, 8.2658333333333347E-09
DataValue, 585, -6, 9.9265E-10, -5.2405000000000007E-10, 1.6544166666666667E-08, 8.7341666666666686E-09
DataValue, 589.9995, -6, 1.02972E-09, -5.4395E-10, 1.7162000000000002E-08, 9.0658333333333336E-09
DataValue, 595.0005, -6, 1.0105E-09, -5.7635E-10, 1.6841666666666667E-08, 9.6058333333333338E-09
DataValue, 600, -6, 1.09796E-09, -6.038E-10, 1.8299333333333333E-08, 1.0063333333333335E-08
DataValue, 604.9995, -6, 1.0760999999999998E-09, -6.035E-10, 1.7934999999999998E-08, 1.0058333333333334E-08
DataValue, 610.0005, -6, 1.1269E-09, -6.335E-10, 1.8781666666666666E-08, 1.0558333333333334E-08
DataValue, 615, -6, 1.1259999999999998E-09, -6.405E-10, 1.8766666666666666E-08, 1.0675000000000001E-08
DataValue, 619.9995, -6, 2.08835E-09, -1.7705E-09, 3.4805833333333336E-08, 2.9508333333333335E-08
DataValue, 625.0005, -6, 2.81933E-09, -2.416E-09, 4.6988833333333333E-08, 4.026666666666667E-08
DataValue, 630, -6, 1.64886E-09, -1.2405E-09, 2.7481000000000003E-08, 2.0675E-08
DataValue, 634.9995, -6, 1.42406E-09, -1.0735E-09, 2.3734333333333332E-08, 1.789166666666667E-08
DataValue, 640.0005, -6, 1.3238E-09, -1.0065E-09, 2.2063333333333333E-08, 1.6775E-08
DataValue, 645, -6, 1.32409E-09, -9.885E-10, 2.2068166666666667E-08, 1.6475E-08
DataValue, 649.9995, -6, 1.35334E-09, -1.0065E-09, 2.2555666666666668E-08, 1.6775E-08
DataValue, 655.0005, -6, 1.3902999999999998E-09, -1.0705E-09, 2.3171666666666665E-08, 1.7841666666666666E-08
DataValue, 660, -6, 1.45111E-09, -1.1025E-09, 2.4185166666666666E-08, 1.8375E-08
DataValue, 664.9995, -6, 1.61508E-09, -1.248E-09, 2.6918E-08, 2.08E-08
DataValue, 670.0005, -6, 1.55777E-09, -1.209E-09, 2.5962833333333334E-08, 2.0150000000000002E-08
DataValue, 675, -6, 1.59743E-09, -1.2505E-09, 2.6623833333333333E-08, 2.0841666666666666E-08
DataValue, 679.9995, -6, 1.58485E-09, -1.2645E-09, 2.6414166666666665E-08, 2.1075E-08
DataValue, 685.0005, -6, 1.59014E-09, -1.252E-09, 2.6502333333333334E-08, 2.0866666666666668E-08
DataValue, 690, -6, 1.61846E-09, -1.3125E-09, 2.6974333333333333E-08, 2.1875E-08
DataValue, 694.9995, -6, 1.73897E-09, -1.4135E-09, 2.8982833333333334E-08, 2.3558333333333334E-08
DataValue, 700.0005, -6, 1.84554E-09, -1.506E-09, 3.0759000000000004E-08, 2.51E-08
DataValue, 705, -6, 1.95641E-09, -1.6519999999999999E-09, 3.2606833333333331E-08, 2.7533333333333332E-08
