
SetupTitle, HEMT Breakdown
PrimitiveTest, I/V Sweep
TestParameter, Context.MainFrame, B1500A
TestParameter, Channel.UnitType, SMU, SMU, SMU
TestParameter, Channel.Unit, SMU6:HV, SMU1:HP, GNDU:GND
TestParameter, Channel.IName, Id, Ig, Is
TestParameter, Channel.VName, Vd, Vg, Vs
TestParameter, Channel.Mode, V, V, COMMON
TestParameter, Channel.Func, VAR1, CONST, CONST
TestParameter, Channel.Index, 
TestParameter, Channel.Time, 
TestParameter, Measurement.Port.Unit, SMU6:HV, SMU1:HP, GNDU:GND
TestParameter, Measurement.Port.SeriesResistor, NONE, NONE, NONE
TestParameter, Measurement.Port.Filter, ON, ON, ON
TestParameter, Measurement.Port.OutputVoltageComparison, 0, 0, 0
TestParameter, Measurement.Primary.Locus, Single
TestParameter, Measurement.Primary.Scale, LINEAR
TestParameter, Measurement.Primary.Start, 0
TestParameter, Measurement.Primary.Stop, 1000.0005
TestParameter, Measurement.Primary.Step, 1.9995
TestParameter, Measurement.Primary.Compliance, 9.9999999999999991E-06
TestParameter, Measurement.Primary.PowerCompliance, 0
TestParameter, Measurement.Aborting.Condition, CONTINUE AT ANY
TestParameter, Measurement.PostOutput.Value, START
TestParameter, Measurement.PostOutput.Retention, OFF
TestParameter, Measurement.Bias.Source, 0, -10, 0
TestParameter, Measurement.Bias.Compliance, 9.9999999999999991E-06, 1E-05, 2
TestParameter, Measurement.Monitor.Unit, SMU6:HV, SMU1:HP, GNDU:GND
TestParameter, Measurement.Monitor.Adc, HS ADC, HR ADC, HR ADC
TestParameter, Measurement.Monitor.Measurement, Force and Compliance Sides, Compliance Side, Compliance Side
TestParameter, Measurement.Monitor.RangingMode, LIMITED, LIMITED, LIMITED
TestParameter, Measurement.Monitor.RangeBoundary, 10nA, 1nA, 1nA
TestParameter, Measurement.Monitor.RangeRating, BY FULL RANGE, BY FULL RANGE, BY FULL RANGE
TestParameter, Measurement.Monitor.RangeRatingCoeff, 50, 50, 50
TestParameter, Measurement.Timing.Hold, 0
TestParameter, Measurement.Timing.Delay, 0
TestParameter, Measurement.Adc.HighSpeed.Mode, PLC
TestParameter, Measurement.Adc.HighSpeed.Coeff, 2
TestParameter, Measurement.Adc.HighResolution.AutoZero, OFF
TestParameter, Measurement.Adc.HighResolution.Mode, PLC
TestParameter, Measurement.Adc.HighResolution.Coeff, 2
TestParameter, Measurement.WaitTime.Source.Coeff, 1
TestParameter, Measurement.WaitTime.Source.Offset, 0
TestParameter, Measurement.WaitTime.Monitor.Coeff, 1
TestParameter, Measurement.WaitTime.Monitor.Offset, 0
TestParameter, Function.User.Name, Id_density, Ig_density
TestParameter, Function.User.Unit, A/mm, A/mm
TestParameter, Function.User.Definition, Id/0.1, abs(Ig)/0.1
TestParameter, Output.Graph.Enabled, true
TestParameter, Output.Graph.XAxis.Data, Vd
TestParameter, Output.Graph.XAxis.Scale, Linear
TestParameter, Output.Graph.XAxis.Left, 0
TestParameter, Output.Graph.XAxis.Right, 200
TestParameter, Output.Graph.YAxis.Data, Id_density, Id_density, Ig_density
TestParameter, Output.Graph.YAxis.Scale, Log, Linear, Log
TestParameter, Output.Graph.YAxis.Bottom, 0, 0, 0
TestParameter, Output.Graph.YAxis.Top, 1, 1, 1
TestParameter, Output.Graph.YAxis.Group, , , 
TestParameter, Output.List.Data, Vd, Id_density, Ig_density, Id, Ig, Vg
TestParameter, AutoAnalysis.Interpolation, false
TestParameter, AutoAnalysis.Line1.Enabled, false
TestParameter, AutoAnalysis.Line1.Type, 1
TestParameter, AutoAnalysis.Line1.Fix, True
TestParameter, AutoAnalysis.Line1.YAxis, 0
TestParameter, AutoAnalysis.Line1.Point1.Type, 0
TestParameter, AutoAnalysis.Line1.Point1.XY.X, 
TestParameter, AutoAnalysis.Line1.Point1.XY.Y, 
TestParameter, AutoAnalysis.Line1.Point1.Data.Var, 
TestParameter, AutoAnalysis.Line1.Point1.Data.Condition, 
TestParameter, AutoAnalysis.Line1.Point1.Data.Start, false
TestParameter, AutoAnalysis.Line1.Point1.Data.StartVar, 
TestParameter, AutoAnalysis.Line1.Point1.Data.StartCondition, 
TestParameter, AutoAnalysis.Line1.Point2.Type, 0
TestParameter, AutoAnalysis.Line1.Point2.XY.X, 
TestParameter, AutoAnalysis.Line1.Point2.XY.Y, 
TestParameter, AutoAnalysis.Line1.Point2.Data.Var, 
TestParameter, AutoAnalysis.Line1.Point2.Data.Condition, 
TestParameter, AutoAnalysis.Line1.Point2.Data.Start, false
TestParameter, AutoAnalysis.Line1.Point2.Data.StartVar, 
TestParameter, AutoAnalysis.Line1.Point2.Data.StartCondition, 
TestParameter, AutoAnalysis.Line1.GradientExpr, 0
TestParameter, AutoAnalysis.Line2.Enabled, false
TestParameter, AutoAnalysis.Line2.Type, 1
TestParameter, AutoAnalysis.Line2.Fix, True
TestParameter, AutoAnalysis.Line2.YAxis, 0
TestParameter, AutoAnalysis.Line2.Point1.Type, 0
TestParameter, AutoAnalysis.Line2.Point1.XY.X, 
TestParameter, AutoAnalysis.Line2.Point1.XY.Y, 
TestParameter, AutoAnalysis.Line2.Point1.Data.Var, 
TestParameter, AutoAnalysis.Line2.Point1.Data.Condition, 
TestParameter, AutoAnalysis.Line2.Point1.Data.Start, false
TestParameter, AutoAnalysis.Line2.Point1.Data.StartVar, 
TestParameter, AutoAnalysis.Line2.Point1.Data.StartCondition, 
TestParameter, AutoAnalysis.Line2.Point2.Type, 0
TestParameter, AutoAnalysis.Line2.Point2.XY.X, 
TestParameter, AutoAnalysis.Line2.Point2.XY.Y, 
TestParameter, AutoAnalysis.Line2.Point2.Data.Var, 
TestParameter, AutoAnalysis.Line2.Point2.Data.Condition, 
TestParameter, AutoAnalysis.Line2.Point2.Data.Start, false
TestParameter, AutoAnalysis.Line2.Point2.Data.StartVar, 
TestParameter, AutoAnalysis.Line2.Point2.Data.StartCondition, 
TestParameter, AutoAnalysis.Line2.GradientExpr, 0
TestParameter, AutoAnalysis.Marker.Enabled, false
TestParameter, AutoAnalysis.Marker.Data.Var, 
TestParameter, AutoAnalysis.Marker.Data.Condition, 
TestParameter, AutoAnalysis.Marker.Data.Start, false
TestParameter, AutoAnalysis.Marker.Data.StartVar, 
TestParameter, AutoAnalysis.Marker.Data.StartCondition, 
MetaData, TestRecord.EntryPoint, true
MetaData, TestRecord.RecordTime, 10/26/2018 14:56:34
MetaData, TestRecord.TestTarget, 
MetaData, TestRecord.IterationIndex, 5
MetaData, TestRecord.Preservation, true
MetaData, TestRecord.Flag, #
MetaData, TestRecord.Remarks, Breakdown_Lgd15_dummy
MetaData, TestRecord.LinkKey, 4c213177-26c3-4a51-b9ed-abec8b725721
Dimension1, 501, 501, 501, 501, 501, 501
Dimension2, 1, 1, 1, 1, 1, 1
DataName, Vg, Id, Vd, Ig, Id_density, Ig_density
DataValue, -10, -1.1799999999999999E-11, 0, -1.1404000000000001E-11, -1.1799999999999998E-10, 1.1404E-10
DataValue, -10, 2.329E-11, 1.9995, -1.5835000000000003E-11, 2.329E-10, 1.5835000000000003E-10
DataValue, -10, 5.057E-11, 4.0005, -1.1493E-11, 5.0569999999999992E-10, 1.1493E-10
DataValue, -10, 1.7249999999999997E-10, 6, -1.3233E-11, 1.7249999999999997E-09, 1.3233E-10
DataValue, -10, 1.5454E-10, 7.9995, -1.0646000000000001E-11, 1.5453999999999999E-09, 1.0646000000000001E-10
DataValue, -10, 1.687E-10, 10.0005, -1.3773000000000001E-11, 1.6869999999999999E-09, 1.3773E-10
DataValue, -10, 3.5139999999999994E-10, 12, -1.2927000000000001E-11, 3.5139999999999992E-09, 1.2927E-10
DataValue, -10, 2.6869999999999996E-10, 13.999500000000001, -1.3794E-11, 2.6869999999999995E-09, 1.3794E-10
DataValue, -10, 4.3599999999999994E-10, 16.0005, -1.4094E-11, 4.359999999999999E-09, 1.4094E-10
DataValue, -10, 5.1964E-10, 18, -1.2797E-11, 5.1963999999999991E-09, 1.2797E-10
DataValue, -10, 6.6819999999999993E-10, 19.9995, -1.6018000000000002E-11, 6.6819999999999991E-09, 1.6018E-10
DataValue, -10, 5.645E-10, 22.0005, -1.4727E-11, 5.6449999999999994E-09, 1.4727E-10
DataValue, -10, 7.213E-10, 24, -1.739E-11, 7.213E-09, 1.739E-10
DataValue, -10, 8.4885E-10, 25.9995, -1.7164E-11, 8.4885E-09, 1.7164E-10
DataValue, -10, 9.4686E-10, 28.0005, -2.1789E-11, 9.4685999999999985E-09, 2.1789E-10
DataValue, -10, 1.0085E-09, 30, -1.8449000000000003E-11, 1.0084999999999999E-08, 1.8449000000000003E-10
DataValue, -10, 9.9329999999999987E-10, 31.9995, -2.1405000000000003E-11, 9.9329999999999987E-09, 2.1405000000000003E-10
DataValue, -10, 1.13561E-09, 34.0005, -2.1646000000000002E-11, 1.13561E-08, 2.1646000000000002E-10
DataValue, -10, 1.156E-09, 36, -2.4663000000000002E-11, 1.1559999999999999E-08, 2.4663E-10
DataValue, -10, 1.3147999999999998E-09, 37.9995, -2.7104E-11, 1.3147999999999998E-08, 2.7104E-10
DataValue, -10, 1.39829E-09, 40.0005, -2.5E-11, 1.3982899999999998E-08, 2.5E-10
DataValue, -10, 1.3738999999999998E-09, 42, -2.7534000000000003E-11, 1.3738999999999997E-08, 2.7534E-10
DataValue, -10, 1.4669999999999998E-09, 43.9995, -3.0315E-11, 1.4669999999999997E-08, 3.0315E-10
DataValue, -10, 1.5685E-09, 46.0005, -3.495E-11, 1.5684999999999998E-08, 3.495E-10
DataValue, -10, 1.65218E-09, 48, -3.3413000000000004E-11, 1.65218E-08, 3.3413E-10
DataValue, -10, 1.7142999999999998E-09, 49.9995, -3.6430000000000004E-11, 1.7142999999999997E-08, 3.643E-10
DataValue, -10, 1.7964999999999997E-09, 52.0005, -3.8366000000000004E-11, 1.7964999999999996E-08, 3.8366E-10
DataValue, -10, 1.8422999999999997E-09, 54, -3.9641E-11, 1.8422999999999996E-08, 3.9641E-10
DataValue, -10, 2.10417E-09, 55.999500000000005, -4.6951000000000005E-11, 2.10417E-08, 4.6951000000000007E-10
DataValue, -10, 2.0820999999999997E-09, 58.0005, -5.0670000000000004E-11, 2.0820999999999995E-08, 5.067E-10
DataValue, -10, 2.1158999999999997E-09, 60, -5.5556000000000004E-11, 2.1158999999999994E-08, 5.5556E-10
DataValue, -10, 2.2167999999999996E-09, 61.999500000000005, -6.7089E-11, 2.2167999999999994E-08, 6.7088999999999994E-10
DataValue, -10, 2.3871999999999998E-09, 64.0005, -7.428E-11, 2.3871999999999997E-08, 7.428E-10
DataValue, -10, 2.4316999999999998E-09, 66, -7.5412E-11, 2.4316999999999995E-08, 7.5412E-10
DataValue, -10, 2.62294E-09, 67.9995, -7.426300000000001E-11, 2.6229399999999998E-08, 7.4263E-10
DataValue, -10, 2.77421E-09, 70.0005, -8.7665E-11, 2.77421E-08, 8.7665E-10
DataValue, -10, 2.7786E-09, 72, -8.9624E-11, 2.7785999999999998E-08, 8.9624E-10
DataValue, -10, 2.8223999999999997E-09, 73.9995, -8.7551E-11, 2.8223999999999995E-08, 8.7551E-10
DataValue, -10, 2.8107E-09, 76.0005, -9.0927E-11, 2.8106999999999998E-08, 9.0927E-10
DataValue, -10, 2.9732999999999996E-09, 78, -9.9652E-11, 2.9732999999999996E-08, 9.9652E-10
DataValue, -10, 2.9408999999999996E-09, 79.9995, -1.0376600000000001E-10, 2.9408999999999996E-08, 1.0376600000000001E-09
DataValue, -10, 3.0755999999999996E-09, 82.0005, -1.01273E-10, 3.0755999999999994E-08, 1.0127299999999999E-09
DataValue, -10, 3.1296999999999996E-09, 84, -1.0188000000000001E-10, 3.1296999999999992E-08, 1.0188E-09
DataValue, -10, 3.3479999999999996E-09, 85.9995, -1.14253E-10, 3.3479999999999993E-08, 1.14253E-09
DataValue, -10, 3.3659999999999998E-09, 88.0005, -1.2568800000000002E-10, 3.366E-08, 1.2568800000000001E-09
DataValue, -10, 3.4237999999999997E-09, 90, -1.18659E-10, 3.4237999999999992E-08, 1.18659E-09
DataValue, -10, 3.5186E-09, 91.9995, -1.20549E-10, 3.5185999999999995E-08, 1.20549E-09
DataValue, -10, 3.5511E-09, 94.0005, -1.1795900000000002E-10, 3.5511E-08, 1.17959E-09
DataValue, -10, 3.6840999999999997E-09, 96, -1.1242300000000001E-10, 3.6840999999999992E-08, 1.12423E-09
DataValue, -10, 3.7681999999999995E-09, 97.9995, -1.0771000000000001E-10, 3.7681999999999993E-08, 1.0771E-09
DataValue, -10, 3.8725999999999992E-09, 100.0005, -1.2974100000000002E-10, 3.8725999999999992E-08, 1.2974100000000002E-09
DataValue, -10, 4.0224999999999993E-09, 102, -9.5115000000000012E-11, 4.0224999999999991E-08, 9.5115E-10
DataValue, -10, 4.0913999999999993E-09, 103.9995, -1.0142300000000001E-10, 4.0913999999999992E-08, 1.0142300000000001E-09
DataValue, -10, 4.1509E-09, 106.0005, -1.05249E-10, 4.1509E-08, 1.05249E-09
DataValue, -10, 4.2136999999999992E-09, 108, -9.9427000000000012E-11, 4.2136999999999989E-08, 9.9427000000000012E-10
DataValue, -10, 4.3025E-09, 109.9995, -1.1392400000000001E-10, 4.3024999999999996E-08, 1.13924E-09
DataValue, -10, 4.3946999999999993E-09, 112.0005, -1.21965E-10, 4.394699999999999E-08, 1.21965E-09
DataValue, -10, 4.4643E-09, 114, -1.17717E-10, 4.4643E-08, 1.17717E-09
DataValue, -10, 4.5968E-09, 115.9995, -1.0880300000000001E-10, 4.5967999999999992E-08, 1.08803E-09
DataValue, -10, 4.6944E-09, 118.0005, -8.0706E-11, 4.6943999999999993E-08, 8.0706E-10
DataValue, -10, 4.7774999999999993E-09, 120, -8.8174000000000013E-11, 4.7774999999999989E-08, 8.817400000000001E-10
DataValue, -10, 4.8143999999999994E-09, 121.9995, -9.325400000000001E-11, 4.8143999999999991E-08, 9.3254E-10
DataValue, -10, 5.0200999999999992E-09, 124.0005, -9.5416000000000009E-11, 5.0200999999999987E-08, 9.5416E-10
DataValue, -10, 5.1394999999999995E-09, 126, -9.7019000000000009E-11, 5.1394999999999991E-08, 9.7019E-10
DataValue, -10, 5.1068E-09, 127.9995, -9.9186000000000013E-11, 5.1068E-08, 9.9186000000000013E-10
DataValue, -10, 5.2032999999999992E-09, 130.00050000000002, -1.00125E-10, 5.2032999999999987E-08, 1.00125E-09
DataValue, -10, 5.2824999999999995E-09, 132, -9.6883E-11, 5.2824999999999992E-08, 9.6883E-10
DataValue, -10, 5.3956999999999995E-09, 133.9995, -9.4182000000000009E-11, 5.3956999999999991E-08, 9.4182E-10
DataValue, -10, 5.562E-09, 136.00050000000002, -9.9992000000000013E-11, 5.5619999999999991E-08, 9.9992E-10
DataValue, -10, 5.5661E-09, 138, -1.03783E-10, 5.5660999999999991E-08, 1.03783E-09
DataValue, -10, 5.7255999999999993E-09, 139.9995, -9.5672000000000008E-11, 5.7255999999999993E-08, 9.5672E-10
DataValue, -10, 5.7802999999999992E-09, 142.00050000000002, -9.5781000000000013E-11, 5.7802999999999992E-08, 9.5781E-10
DataValue, -10, 5.878E-09, 144, -1.01823E-10, 5.8779999999999994E-08, 1.01823E-09
DataValue, -10, 5.9692E-09, 145.9995, -1.0984700000000001E-10, 5.969199999999999E-08, 1.09847E-09
DataValue, -10, 6.0193E-09, 148.00050000000002, -1.1871500000000001E-10, 6.0192999999999988E-08, 1.18715E-09
DataValue, -10, 6.2098999999999994E-09, 150, -1.11184E-10, 6.2098999999999992E-08, 1.11184E-09
DataValue, -10, 6.2768E-09, 151.9995, -1.1086800000000001E-10, 6.2768E-08, 1.10868E-09
DataValue, -10, 6.2442999999999992E-09, 154.00050000000002, -1.17557E-10, 6.2442999999999985E-08, 1.17557E-09
DataValue, -10, 6.3792E-09, 156, -1.1383200000000001E-10, 6.3791999999999993E-08, 1.13832E-09
DataValue, -10, 6.470099999999999E-09, 157.9995, -1.2687E-10, 6.4700999999999992E-08, 1.2687E-09
DataValue, -10, 6.6131999999999995E-09, 160.00050000000002, -1.1916E-10, 6.6131999999999986E-08, 1.1916E-09
DataValue, -10, 6.7004999999999994E-09, 162, -1.17846E-10, 6.7004999999999984E-08, 1.1784599999999999E-09
DataValue, -10, 6.7267999999999996E-09, 163.9995, -1.14711E-10, 6.7267999999999991E-08, 1.14711E-09
DataValue, -10, 6.8871999999999991E-09, 166.00050000000002, -1.2792E-10, 6.8871999999999983E-08, 1.2792E-09
DataValue, -10, 6.937999999999999E-09, 168, -1.1234000000000001E-10, 6.937999999999999E-08, 1.1234E-09
DataValue, -10, 7.0823999999999994E-09, 169.9995, -1.21206E-10, 7.0823999999999986E-08, 1.21206E-09
DataValue, -10, 7.0601E-09, 172.00050000000002, -1.45631E-10, 7.0601E-08, 1.45631E-09
DataValue, -10, 7.3167999999999994E-09, 174, -1.55355E-10, 7.3167999999999984E-08, 1.5535499999999999E-09
DataValue, -10, 7.3837E-09, 175.9995, -1.5694200000000002E-10, 7.3836999999999988E-08, 1.5694200000000002E-09
DataValue, -10, 7.4774E-09, 178.00050000000002, -1.60373E-10, 7.4773999999999992E-08, 1.60373E-09
DataValue, -10, 7.5195E-09, 180, -1.57601E-10, 7.5194999999999993E-08, 1.57601E-09
DataValue, -10, 7.6934E-09, 181.9995, -1.49947E-10, 7.6933999999999993E-08, 1.49947E-09
DataValue, -10, 7.8371999999999985E-09, 184.00050000000002, -1.3539100000000002E-10, 7.8371999999999982E-08, 1.3539100000000001E-09
DataValue, -10, 7.8137E-09, 186, -1.3397500000000002E-10, 7.8137E-08, 1.33975E-09
DataValue, -10, 7.9631999999999991E-09, 187.9995, -1.47219E-10, 7.9631999999999981E-08, 1.4721899999999999E-09
DataValue, -10, 8.0207999999999986E-09, 190.00050000000002, -1.4682000000000002E-10, 8.0207999999999986E-08, 1.4682000000000002E-09
DataValue, -10, 8.1499E-09, 192, -1.54666E-10, 8.1499E-08, 1.5466600000000001E-09
DataValue, -10, 8.3234E-09, 193.9995, -1.59936E-10, 8.3233999999999989E-08, 1.59936E-09
DataValue, -10, 8.4694E-09, 196.00050000000002, -1.8000900000000002E-10, 8.4693999999999991E-08, 1.8000900000000001E-09
DataValue, -10, 8.5198999999999991E-09, 198, -1.46665E-10, 8.5198999999999981E-08, 1.4666499999999999E-09
DataValue, -10, 8.6705E-09, 199.9995, -1.5763200000000002E-10, 8.6705E-08, 1.5763200000000002E-09
DataValue, -10, 8.742E-09, 202.00050000000002, -1.70376E-10, 8.742E-08, 1.70376E-09
DataValue, -10, 8.8898E-09, 204, -1.8945800000000002E-10, 8.8897999999999993E-08, 1.89458E-09
DataValue, -10, 9.0023E-09, 205.9995, -1.9241400000000002E-10, 9.0023E-08, 1.92414E-09
DataValue, -10, 9.2108999999999985E-09, 208.00050000000002, -1.9776200000000002E-10, 9.2108999999999981E-08, 1.97762E-09
DataValue, -10, 9.1870999999999986E-09, 210, -1.8277200000000002E-10, 9.1870999999999976E-08, 1.8277200000000002E-09
DataValue, -10, 9.3907999999999986E-09, 211.9995, -1.8977200000000003E-10, 9.3907999999999983E-08, 1.89772E-09
DataValue, -10, 9.6026E-09, 214.00050000000002, -1.79696E-10, 9.6025999999999989E-08, 1.79696E-09
DataValue, -10, 9.707399999999999E-09, 216, -1.98506E-10, 9.7073999999999986E-08, 1.98506E-09
DataValue, -10, 9.7787E-09, 217.9995, -2.0460500000000001E-10, 9.7786999999999988E-08, 2.04605E-09
DataValue, -10, 9.9828999999999987E-09, 220.00050000000002, -1.9324800000000001E-10, 9.9828999999999987E-08, 1.93248E-09
DataValue, -10, 1.01652E-08, 222, -2.0091700000000002E-10, 1.0165199999999999E-07, 2.00917E-09
DataValue, -10, 1.02057E-08, 223.9995, -2.18345E-10, 1.0205699999999999E-07, 2.18345E-09
DataValue, -10, 1.04773E-08, 226.00050000000002, -2.17296E-10, 1.04773E-07, 2.17296E-09
DataValue, -10, 1.05744E-08, 228, -2.3877500000000004E-10, 1.0574399999999998E-07, 2.38775E-09
DataValue, -10, 1.06794E-08, 229.9995, -2.1828700000000003E-10, 1.0679399999999998E-07, 2.1828700000000003E-09
DataValue, -10, 1.0914499999999998E-08, 232.00050000000002, -2.3507500000000004E-10, 1.0914499999999998E-07, 2.3507500000000004E-09
DataValue, -10, 1.11769E-08, 234, -2.38911E-10, 1.1176899999999999E-07, 2.38911E-09
DataValue, -10, 1.1229699999999999E-08, 235.9995, -2.4433200000000004E-10, 1.1229699999999999E-07, 2.44332E-09
DataValue, -10, 1.14853E-08, 238.00050000000002, -2.3176E-10, 1.1485299999999999E-07, 2.3176E-09
DataValue, -10, 1.1695799999999998E-08, 240, -2.1434400000000002E-10, 1.1695799999999998E-07, 2.14344E-09
DataValue, -10, 1.1807899999999999E-08, 241.9995, -2.1206400000000002E-10, 1.1807899999999998E-07, 2.1206400000000002E-09
DataValue, -10, 1.1917899999999999E-08, 244.00050000000002, -2.1737300000000002E-10, 1.1917899999999999E-07, 2.17373E-09
DataValue, -10, 1.2197399999999998E-08, 246, -2.3789500000000004E-10, 1.2197399999999998E-07, 2.3789500000000004E-09
DataValue, -10, 1.2405599999999999E-08, 247.9995, -2.37297E-10, 1.2405599999999998E-07, 2.37297E-09
DataValue, -10, 1.2620399999999998E-08, 250.00050000000002, -2.03067E-10, 1.2620399999999998E-07, 2.03067E-09
DataValue, -10, 1.2879499999999998E-08, 252, -2.2767900000000003E-10, 1.2879499999999998E-07, 2.27679E-09
DataValue, -10, 1.3099999999999998E-08, 253.9995, -2.38356E-10, 1.3099999999999997E-07, 2.38356E-09
DataValue, -10, 1.3331799999999999E-08, 256.0005, -2.52011E-10, 1.3331799999999998E-07, 2.52011E-09
DataValue, -10, 1.36309E-08, 258, -3.06005E-10, 1.3630899999999998E-07, 3.06005E-09
DataValue, -10, 1.3872499999999999E-08, 259.9995, -2.9446100000000004E-10, 1.38725E-07, 2.9446100000000002E-09
DataValue, -10, 1.40919E-08, 262.0005, -2.73474E-10, 1.40919E-07, 2.73474E-09
DataValue, -10, 1.4261099999999998E-08, 264, -2.8117800000000004E-10, 1.4261099999999998E-07, 2.8117800000000004E-09
DataValue, -10, 1.4613099999999999E-08, 265.9995, -2.6691900000000004E-10, 1.4613099999999997E-07, 2.6691900000000004E-09
DataValue, -10, 1.4849199999999999E-08, 268.0005, -2.6570800000000004E-10, 1.4849199999999998E-07, 2.65708E-09
DataValue, -10, 1.51206E-08, 270, -2.5574600000000004E-10, 1.5120599999999998E-07, 2.5574600000000004E-09
DataValue, -10, 1.535E-08, 271.9995, -2.2487400000000003E-10, 1.5349999999999997E-07, 2.2487400000000002E-09
