
SetupTitle, HEMT Breakdown
PrimitiveTest, I/V Sweep
TestParameter, Context.MainFrame, B1500A
TestParameter, Channel.UnitType, SMU, SMU, SMU
TestParameter, Channel.Unit, SMU6:HV, SMU1:HP, GNDU:GND
TestParameter, Channel.IName, Id, Ig, Is
TestParameter, Channel.VName, Vd, Vg, Vs
TestParameter, Channel.Mode, V, V, COMMON
TestParameter, Channel.Func, VAR1, CONST, CONST
TestParameter, Channel.Index, 
TestParameter, Channel.Time, 
TestParameter, Measurement.Port.Unit, SMU6:HV, SMU1:HP, GNDU:GND
TestParameter, Measurement.Port.SeriesResistor, NONE, NONE, NONE
TestParameter, Measurement.Port.Filter, ON, ON, ON
TestParameter, Measurement.Port.OutputVoltageComparison, 0, 0, 0
TestParameter, Measurement.Primary.Locus, Single
TestParameter, Measurement.Primary.Scale, LINEAR
TestParameter, Measurement.Primary.Start, 0
TestParameter, Measurement.Primary.Stop, 1500
TestParameter, Measurement.Primary.Step, 1.9995
TestParameter, Measurement.Primary.Compliance, 9.9999999999999991E-06
TestParameter, Measurement.Primary.PowerCompliance, 0
TestParameter, Measurement.Aborting.Condition, CONTINUE AT ANY
TestParameter, Measurement.PostOutput.Value, START
TestParameter, Measurement.PostOutput.Retention, OFF
TestParameter, Measurement.Bias.Source, 0, -5, 0
TestParameter, Measurement.Bias.Compliance, 9.9999999999999991E-06, 1E-05, 2
TestParameter, Measurement.Monitor.Unit, SMU6:HV, SMU1:HP, GNDU:GND
TestParameter, Measurement.Monitor.Adc, HS ADC, HR ADC, HR ADC
TestParameter, Measurement.Monitor.Measurement, Force and Compliance Sides, Compliance Side, Compliance Side
TestParameter, Measurement.Monitor.RangingMode, LIMITED, LIMITED, LIMITED
TestParameter, Measurement.Monitor.RangeBoundary, 10nA, 1nA, 1nA
TestParameter, Measurement.Monitor.RangeRating, BY FULL RANGE, BY FULL RANGE, BY FULL RANGE
TestParameter, Measurement.Monitor.RangeRatingCoeff, 50, 50, 50
TestParameter, Measurement.Timing.Hold, 0
TestParameter, Measurement.Timing.Delay, 0
TestParameter, Measurement.Adc.HighSpeed.Mode, PLC
TestParameter, Measurement.Adc.HighSpeed.Coeff, 1
TestParameter, Measurement.Adc.HighResolution.AutoZero, OFF
TestParameter, Measurement.Adc.HighResolution.Mode, PLC
TestParameter, Measurement.Adc.HighResolution.Coeff, 1
TestParameter, Measurement.WaitTime.Source.Coeff, 1
TestParameter, Measurement.WaitTime.Source.Offset, 0
TestParameter, Measurement.WaitTime.Monitor.Coeff, 1
TestParameter, Measurement.WaitTime.Monitor.Offset, 0
TestParameter, Function.User.Name, Id_density, Ig_density
TestParameter, Function.User.Unit, A/mm, A/mm
TestParameter, Function.User.Definition, Id/0.06, abs(Ig)/0.06
TestParameter, Output.Graph.Enabled, true
TestParameter, Output.Graph.XAxis.Data, Vd
TestParameter, Output.Graph.XAxis.Scale, Linear
TestParameter, Output.Graph.XAxis.Left, 0
TestParameter, Output.Graph.XAxis.Right, 200
TestParameter, Output.Graph.YAxis.Data, Id_density, Id_density, Ig_density
TestParameter, Output.Graph.YAxis.Scale, Log, Linear, Log
TestParameter, Output.Graph.YAxis.Bottom, 0, 0, 0
TestParameter, Output.Graph.YAxis.Top, 1, 1, 1
TestParameter, Output.Graph.YAxis.Group, , , 
TestParameter, Output.List.Data, Vd, Id_density, Ig_density, Id, Ig, Vg
TestParameter, AutoAnalysis.Interpolation, false
TestParameter, AutoAnalysis.Line1.Enabled, false
TestParameter, AutoAnalysis.Line1.Type, 1
TestParameter, AutoAnalysis.Line1.Fix, True
TestParameter, AutoAnalysis.Line1.YAxis, 0
TestParameter, AutoAnalysis.Line1.Point1.Type, 0
TestParameter, AutoAnalysis.Line1.Point1.XY.X, 
TestParameter, AutoAnalysis.Line1.Point1.XY.Y, 
TestParameter, AutoAnalysis.Line1.Point1.Data.Var, 
TestParameter, AutoAnalysis.Line1.Point1.Data.Condition, 
TestParameter, AutoAnalysis.Line1.Point1.Data.Start, false
TestParameter, AutoAnalysis.Line1.Point1.Data.StartVar, 
TestParameter, AutoAnalysis.Line1.Point1.Data.StartCondition, 
TestParameter, AutoAnalysis.Line1.Point2.Type, 0
TestParameter, AutoAnalysis.Line1.Point2.XY.X, 
TestParameter, AutoAnalysis.Line1.Point2.XY.Y, 
TestParameter, AutoAnalysis.Line1.Point2.Data.Var, 
TestParameter, AutoAnalysis.Line1.Point2.Data.Condition, 
TestParameter, AutoAnalysis.Line1.Point2.Data.Start, false
TestParameter, AutoAnalysis.Line1.Point2.Data.StartVar, 
TestParameter, AutoAnalysis.Line1.Point2.Data.StartCondition, 
TestParameter, AutoAnalysis.Line1.GradientExpr, 0
TestParameter, AutoAnalysis.Line2.Enabled, false
TestParameter, AutoAnalysis.Line2.Type, 1
TestParameter, AutoAnalysis.Line2.Fix, True
TestParameter, AutoAnalysis.Line2.YAxis, 0
TestParameter, AutoAnalysis.Line2.Point1.Type, 0
TestParameter, AutoAnalysis.Line2.Point1.XY.X, 
TestParameter, AutoAnalysis.Line2.Point1.XY.Y, 
TestParameter, AutoAnalysis.Line2.Point1.Data.Var, 
TestParameter, AutoAnalysis.Line2.Point1.Data.Condition, 
TestParameter, AutoAnalysis.Line2.Point1.Data.Start, false
TestParameter, AutoAnalysis.Line2.Point1.Data.StartVar, 
TestParameter, AutoAnalysis.Line2.Point1.Data.StartCondition, 
TestParameter, AutoAnalysis.Line2.Point2.Type, 0
TestParameter, AutoAnalysis.Line2.Point2.XY.X, 
TestParameter, AutoAnalysis.Line2.Point2.XY.Y, 
TestParameter, AutoAnalysis.Line2.Point2.Data.Var, 
TestParameter, AutoAnalysis.Line2.Point2.Data.Condition, 
TestParameter, AutoAnalysis.Line2.Point2.Data.Start, false
TestParameter, AutoAnalysis.Line2.Point2.Data.StartVar, 
TestParameter, AutoAnalysis.Line2.Point2.Data.StartCondition, 
TestParameter, AutoAnalysis.Line2.GradientExpr, 0
TestParameter, AutoAnalysis.Marker.Enabled, false
TestParameter, AutoAnalysis.Marker.Data.Var, 
TestParameter, AutoAnalysis.Marker.Data.Condition, 
TestParameter, AutoAnalysis.Marker.Data.Start, false
TestParameter, AutoAnalysis.Marker.Data.StartVar, 
TestParameter, AutoAnalysis.Marker.Data.StartCondition, 
MetaData, TestRecord.EntryPoint, true
MetaData, TestRecord.RecordTime, 09/26/2018 14:51:49
MetaData, TestRecord.TestTarget, 
MetaData, TestRecord.IterationIndex, 3
MetaData, TestRecord.Preservation, true
MetaData, TestRecord.Flag, #
MetaData, TestRecord.Remarks, #144_Noff_trigate_W20_S70_L700_q1b_6_breakdown
MetaData, TestRecord.LinkKey, c4b68660-8eb4-44c6-8684-77337bef1e81
Dimension1, 751, 751, 751, 751, 751, 751
Dimension2, 1, 1, 1, 1, 1, 1
DataName, Vg, Id, Vd, Ig, Id_density, Ig_density
DataValue, -5, -6.729999999999999E-11, 0, -1.8530000000000003E-12, -1.1216666666666666E-09, 3.0883333333333339E-11
DataValue, -5, -1.137E-11, 1.9995, -2.582E-12, -1.8950000000000002E-10, 4.3033333333333337E-11
DataValue, -5, 3.96E-11, 4.0005, -3.58E-12, 6.6E-10, 5.9666666666666667E-11
DataValue, -5, -6.3599999999999992E-11, 6, -2.7930000000000003E-12, -1.0599999999999999E-09, 4.655000000000001E-11
DataValue, -5, 1.269E-11, 7.9995, -3.6080000000000004E-12, 2.1150000000000002E-10, 6.0133333333333348E-11
DataValue, -5, 6.2699999999999988E-11, 10.0005, -2.97E-12, 1.0449999999999998E-09, 4.9500000000000004E-11
DataValue, -5, -2.0299999999999997E-11, 12, -3.213E-12, -3.383333333333333E-10, 5.3550000000000005E-11
DataValue, -5, -7.1599999999999991E-11, 13.999500000000001, -3.3200000000000004E-12, -1.1933333333333331E-09, 5.5333333333333343E-11
DataValue, -5, -3.47E-11, 16.0005, -3.7140000000000005E-12, -5.783333333333334E-10, 6.1900000000000014E-11
DataValue, -5, -3.8099999999999996E-11, 18, -3.2410000000000004E-12, -6.35E-10, 5.4016666666666673E-11
DataValue, -5, -2.351E-11, 19.9995, -2.8090000000000002E-12, -3.9183333333333338E-10, 4.6816666666666674E-11
DataValue, -5, -2.745E-11, 22.0005, -2.8840000000000002E-12, -4.575E-10, 4.806666666666667E-11
DataValue, -5, 6.9999999999999995E-13, 24, -3.844E-12, 1.1666666666666667E-11, 6.4066666666666673E-11
DataValue, -5, -5.3599999999999995E-11, 25.9995, -2.553E-12, -8.9333333333333325E-10, 4.2550000000000004E-11
DataValue, -5, 1.4399999999999998E-11, 28.0005, -4.249E-12, 2.4E-10, 7.0816666666666675E-11
DataValue, -5, 7.1899999999999992E-11, 30, -2.578E-12, 1.1983333333333332E-09, 4.296666666666667E-11
DataValue, -5, -2.842E-11, 31.9995, -3.6340000000000005E-12, -4.7366666666666669E-10, 6.0566666666666672E-11
DataValue, -5, -1.4499999999999998E-11, 34.0005, -4.144E-12, -2.4166666666666666E-10, 6.9066666666666669E-11
DataValue, -5, 1.2999999999999999E-11, 36, -3.729E-12, 2.1666666666666664E-10, 6.215E-11
DataValue, -5, -1.05E-11, 37.9995, -3.837E-12, -1.75E-10, 6.395E-11
DataValue, -5, -2.6799999999999997E-11, 40.0005, -4.225E-12, -4.4666666666666662E-10, 7.0416666666666669E-11
DataValue, -5, 1.6899999999999998E-11, 42, -4.012E-12, 2.8166666666666662E-10, 6.6866666666666679E-11
DataValue, -5, 2.218E-11, 43.9995, -3.712E-12, 3.6966666666666668E-10, 6.186666666666667E-11
DataValue, -5, 2.35E-12, 46.0005, -3.1180000000000002E-12, 3.9166666666666667E-11, 5.1966666666666671E-11
DataValue, -5, 6.2999999999999994E-12, 48, -4.4690000000000004E-12, 1.05E-10, 7.4483333333333342E-11
DataValue, -5, 5.97E-12, 49.9995, -3.817E-12, 9.95E-11, 6.3616666666666677E-11
DataValue, -5, -1.463E-11, 52.0005, -3.762E-12, -2.4383333333333332E-10, 6.2700000000000014E-11
DataValue, -5, 1.3E-12, 54, -4.485E-12, 2.1666666666666666E-11, 7.4750000000000013E-11
DataValue, -5, -9.31E-11, 55.999500000000005, -4.0140000000000005E-12, -1.5516666666666666E-09, 6.6900000000000009E-11
DataValue, -5, 3.025E-11, 58.0005, -4.246E-12, 5.0416666666666663E-10, 7.0766666666666673E-11
DataValue, -5, 2.036E-11, 60, -4.238E-12, 3.3933333333333335E-10, 7.0633333333333338E-11
DataValue, -5, -2.87E-11, 61.999500000000005, -4.438E-12, -4.7833333333333334E-10, 7.3966666666666672E-11
DataValue, -5, 3.66E-12, 64.0005, -5.1780000000000008E-12, 6.1000000000000009E-11, 8.6300000000000015E-11
DataValue, -5, -5.1E-12, 66, -4.801E-12, -8.5E-11, 8.001666666666668E-11
DataValue, -5, 3.099E-11, 67.9995, -5.246E-12, 5.165E-10, 8.7433333333333334E-11
DataValue, -5, -9.1E-12, 70.0005, -5.0390000000000006E-12, -1.5166666666666666E-10, 8.3983333333333348E-11
DataValue, -5, -2.148E-11, 72, -4.252E-12, -3.58E-10, 7.0866666666666665E-11
DataValue, -5, -5.8099999999999992E-11, 73.9995, -5.001E-12, -9.6833333333333319E-10, 8.335E-11
DataValue, -5, 5.14E-12, 76.0005, -4.7080000000000005E-12, 8.5666666666666681E-11, 7.8466666666666683E-11
DataValue, -5, 8.56E-12, 78, -4.8210000000000006E-12, 1.4266666666666669E-10, 8.0350000000000012E-11
DataValue, -5, -3.08E-11, 79.9995, -5.02E-12, -5.1333333333333332E-10, 8.3666666666666675E-11
DataValue, -5, 2.5399999999999998E-11, 82.0005, -5.24E-12, 4.2333333333333332E-10, 8.7333333333333342E-11
DataValue, -5, 1.6999999999999998E-12, 84, -5.295E-12, 2.8333333333333332E-11, 8.825E-11
DataValue, -5, -4.6E-12, 85.9995, -5.7730000000000005E-12, -7.666666666666666E-11, 9.6216666666666673E-11
DataValue, -5, -8.91E-11, 88.0005, -5.461E-12, -1.485E-09, 9.1016666666666681E-11
DataValue, -5, 2.058E-11, 90, -5.1890000000000006E-12, 3.4300000000000006E-10, 8.6483333333333353E-11
DataValue, -5, 3.637E-11, 91.9995, -5.14E-12, 6.0616666666666669E-10, 8.5666666666666681E-11
DataValue, -5, 2.201E-11, 94.0005, -5.275E-12, 3.6683333333333336E-10, 8.7916666666666673E-11
DataValue, -5, -2.23E-11, 96, -5.5670000000000008E-12, -3.7166666666666668E-10, 9.2783333333333346E-11
DataValue, -5, 6.3599999999999992E-11, 97.9995, -5.6590000000000008E-12, 1.0599999999999999E-09, 9.4316666666666685E-11
DataValue, -5, 9.8E-12, 100.0005, -5.58E-12, 1.6333333333333334E-10, 9.3E-11
DataValue, -5, 6.3499999999999988E-11, 102, -6.1560000000000008E-12, 1.0583333333333331E-09, 1.0260000000000001E-10
DataValue, -5, 6.71E-12, 103.9995, -5.926E-12, 1.1183333333333335E-10, 9.876666666666668E-11
DataValue, -5, 5E-13, 106.0005, -5.8470000000000004E-12, 8.3333333333333336E-12, 9.745000000000001E-11
DataValue, -5, 3.562E-11, 108, -6.276E-12, 5.9366666666666668E-10, 1.046E-10
DataValue, -5, 4.8E-12, 109.9995, -5.953E-12, 8E-11, 9.9216666666666676E-11
DataValue, -5, -2.28E-11, 112.0005, -5.792E-12, -3.8000000000000003E-10, 9.6533333333333346E-11
DataValue, -5, -3.6499999999999997E-11, 114, -5.6490000000000007E-12, -6.083333333333333E-10, 9.4150000000000019E-11
DataValue, -5, 1.5899999999999998E-11, 115.9995, -5.8730000000000005E-12, 2.6499999999999996E-10, 9.7883333333333347E-11
DataValue, -5, 3.899E-11, 118.0005, -6.8500000000000009E-12, 6.4983333333333331E-10, 1.1416666666666669E-10
DataValue, -5, -4.098E-11, 120, -6.161E-12, -6.83E-10, 1.0268333333333333E-10
DataValue, -5, -3.61E-11, 121.9995, -5.821E-12, -6.0166666666666666E-10, 9.7016666666666673E-11
DataValue, -5, 3.416E-11, 124.0005, -6.0440000000000005E-12, 5.6933333333333333E-10, 1.0073333333333334E-10
DataValue, -5, -2.3999999999999998E-11, 126, -6.547E-12, -3.9999999999999996E-10, 1.0911666666666668E-10
DataValue, -5, 1.777E-11, 127.9995, -6.2330000000000006E-12, 2.9616666666666668E-10, 1.0388333333333335E-10
DataValue, -5, -1.3E-12, 130.00050000000002, -6.5250000000000006E-12, -2.1666666666666666E-11, 1.0875000000000001E-10
DataValue, -5, -5.313E-11, 132, -6.1650000000000005E-12, -8.855000000000001E-10, 1.0275000000000001E-10
DataValue, -5, -2.7999999999999997E-11, 133.9995, -6.5140000000000007E-12, -4.6666666666666661E-10, 1.0856666666666669E-10
DataValue, -5, 6.3E-12, 136.00050000000002, -6.644E-12, 1.0500000000000001E-10, 1.1073333333333335E-10
DataValue, -5, -1.059E-11, 138, -5.6600000000000005E-12, -1.765E-10, 9.4333333333333344E-11
DataValue, -5, -2.322E-11, 139.9995, -4.806E-12, -3.87E-10, 8.0100000000000013E-11
DataValue, -5, 1.09E-11, 142.00050000000002, -5.5170000000000008E-12, 1.8166666666666666E-10, 9.1950000000000016E-11
DataValue, -5, -4.428E-11, 144, -6.721E-12, -7.38E-10, 1.1201666666666667E-10
DataValue, -5, 1.517E-11, 145.9995, -7.21E-12, 2.5283333333333334E-10, 1.2016666666666667E-10
DataValue, -5, 5.326E-11, 148.00050000000002, -7.1540000000000004E-12, 8.876666666666667E-10, 1.1923333333333336E-10
DataValue, -5, 8.18E-12, 150, -6.8210000000000009E-12, 1.3633333333333333E-10, 1.1368333333333335E-10
DataValue, -5, 1.4E-11, 151.9995, -6.6660000000000009E-12, 2.3333333333333335E-10, 1.1110000000000002E-10
DataValue, -5, 1.379E-11, 154.00050000000002, -6.5110000000000008E-12, 2.2983333333333334E-10, 1.0851666666666669E-10
DataValue, -5, 3.05E-12, 156, -6.986E-12, 5.0833333333333339E-11, 1.1643333333333335E-10
DataValue, -5, 6.992E-11, 157.9995, -6.9560000000000007E-12, 1.1653333333333335E-09, 1.1593333333333335E-10
DataValue, -5, 5.519E-11, 160.00050000000002, -7.0040000000000004E-12, 9.1983333333333331E-10, 1.1673333333333334E-10
DataValue, -5, 2.32E-11, 162, -6.8270000000000007E-12, 3.8666666666666673E-10, 1.1378333333333335E-10
DataValue, -5, 5.514E-11, 163.9995, -7.254E-12, 9.19E-10, 1.2090000000000002E-10
DataValue, -5, 4.02E-12, 166.00050000000002, -6.965E-12, 6.7E-11, 1.1608333333333335E-10
DataValue, -5, 3.018E-11, 168, -7.049E-12, 5.03E-10, 1.1748333333333334E-10
DataValue, -5, -1.933E-11, 169.9995, -7.12E-12, -3.2216666666666669E-10, 1.1866666666666667E-10
DataValue, -5, -1.1909999999999998E-10, 172.00050000000002, -7.356E-12, -1.9849999999999997E-09, 1.2260000000000002E-10
DataValue, -5, 6.983E-11, 174, -7.3830000000000012E-12, 1.1638333333333334E-09, 1.2305000000000003E-10
DataValue, -5, 3.2E-11, 175.9995, -7.608E-12, 5.3333333333333335E-10, 1.2680000000000002E-10
DataValue, -5, 2.276E-11, 178.00050000000002, -7.64E-12, 3.7933333333333337E-10, 1.2733333333333336E-10
DataValue, -5, -1.8299999999999998E-11, 180, -7.2800000000000013E-12, -3.05E-10, 1.2133333333333335E-10
DataValue, -5, -1.053E-11, 181.9995, -7.885E-12, -1.7550000000000001E-10, 1.3141666666666668E-10
DataValue, -5, -9.45E-11, 184.00050000000002, -7.613E-12, -1.575E-09, 1.2688333333333335E-10
DataValue, -5, -5.633E-11, 186, -7.5510000000000012E-12, -9.3883333333333345E-10, 1.2585000000000004E-10
DataValue, -5, -5.99E-11, 187.9995, -8.076E-12, -9.983333333333333E-10, 1.346E-10
DataValue, -5, 2.231E-11, 190.00050000000002, -8.8870000000000012E-12, 3.7183333333333334E-10, 1.4811666666666668E-10
DataValue, -5, -4E-12, 192, -8.0310000000000008E-12, -6.6666666666666669E-11, 1.3385E-10
DataValue, -5, -5.67E-11, 193.9995, -7.8190000000000013E-12, -9.4500000000000015E-10, 1.303166666666667E-10
DataValue, -5, 4.38E-11, 196.00050000000002, -8.3350000000000011E-12, 7.3000000000000006E-10, 1.3891666666666668E-10
DataValue, -5, 1.835E-11, 198, -8.082E-12, 3.0583333333333336E-10, 1.347E-10
DataValue, -5, 5.6779999999999997E-11, 199.9995, -7.7310000000000009E-12, 9.4633333333333327E-10, 1.2885000000000003E-10
DataValue, -5, 4.689E-11, 202.00050000000002, -7.7540000000000011E-12, 7.815E-10, 1.2923333333333335E-10
DataValue, -5, 7.453E-11, 204, -7.911E-12, 1.2421666666666668E-09, 1.3185000000000002E-10
DataValue, -5, 6.526E-11, 205.9995, -8.4450000000000013E-12, 1.0876666666666667E-09, 1.4075000000000003E-10
DataValue, -5, 9.27E-12, 208.00050000000002, -7.811E-12, 1.545E-10, 1.3018333333333335E-10
DataValue, -5, -2.12E-11, 210, -8.517E-12, -3.533333333333333E-10, 1.4195E-10
DataValue, -5, 2.18E-11, 211.9995, -8.565E-12, 3.6333333333333332E-10, 1.4275E-10
DataValue, -5, -1.329E-11, 214.00050000000002, -8.3640000000000011E-12, -2.215E-10, 1.3940000000000003E-10
DataValue, -5, -3.88E-12, 216, -8.549E-12, -6.4666666666666663E-11, 1.4248333333333333E-10
DataValue, -5, 7.034E-11, 217.9995, -8.094E-12, 1.1723333333333333E-09, 1.349E-10
DataValue, -5, -1.9499999999999997E-11, 220.00050000000002, -8.5990000000000008E-12, -3.2499999999999996E-10, 1.4331666666666668E-10
DataValue, -5, 4.3699999999999995E-11, 222, -8.715E-12, 7.283333333333333E-10, 1.4525000000000002E-10
DataValue, -5, -3.266E-11, 223.9995, -7.991E-12, -5.4433333333333331E-10, 1.3318333333333334E-10
DataValue, -5, -1.312E-10, 226.00050000000002, -8.623E-12, -2.1866666666666666E-09, 1.4371666666666668E-10
DataValue, -5, 8.625E-11, 228, -8.633E-12, 1.4375E-09, 1.4388333333333334E-10
DataValue, -5, -5.14E-11, 229.9995, -8.481E-12, -8.5666666666666671E-10, 1.4135E-10
DataValue, -5, 1.0229999999999999E-10, 232.00050000000002, -8.7420000000000013E-12, 1.7049999999999998E-09, 1.4570000000000002E-10
DataValue, -5, -7.6399999999999989E-11, 234, -9.23E-12, -1.2733333333333333E-09, 1.5383333333333335E-10
DataValue, -5, 2.989E-11, 235.9995, -9.228E-12, 4.9816666666666665E-10, 1.5380000000000003E-10
DataValue, -5, -8.4999999999999991E-11, 238.00050000000002, -8.9740000000000011E-12, -1.4166666666666665E-09, 1.4956666666666669E-10
DataValue, -5, -5.55E-12, 240, -8.715E-12, -9.25E-11, 1.4525000000000002E-10
DataValue, -5, -2.6399999999999997E-11, 241.9995, -9.4940000000000013E-12, -4.4E-10, 1.5823333333333335E-10
DataValue, -5, 2.1E-13, 244.00050000000002, -9.638E-12, 3.5E-12, 1.6063333333333336E-10
DataValue, -5, 2.77E-11, 246, -9.7000000000000011E-12, 4.6166666666666668E-10, 1.616666666666667E-10
DataValue, -5, 3.8999999999999995E-11, 247.9995, -9.7550000000000011E-12, 6.4999999999999993E-10, 1.6258333333333337E-10
DataValue, -5, 5.592E-11, 250.00050000000002, -9.8720000000000016E-12, 9.32E-10, 1.6453333333333337E-10
DataValue, -5, -3.37E-11, 252, -9.4490000000000014E-12, -5.6166666666666669E-10, 1.5748333333333335E-10
DataValue, -5, -1.2179999999999998E-10, 253.9995, -9.8970000000000011E-12, -2.03E-09, 1.6495000000000004E-10
DataValue, -5, 1.0007E-10, 256.0005, -9.444E-12, 1.6678333333333333E-09, 1.5740000000000002E-10
DataValue, -5, 7.65E-11, 258, -9.5970000000000012E-12, 1.275E-09, 1.5995000000000003E-10
DataValue, -5, 4.5699999999999995E-11, 259.9995, -1.0109E-11, 7.6166666666666662E-10, 1.6848333333333334E-10
DataValue, -5, 7.269E-11, 262.0005, -9.983E-12, 1.2115E-09, 1.6638333333333334E-10
DataValue, -5, -2.23E-11, 264, -1.0307000000000001E-11, -3.7166666666666668E-10, 1.7178333333333337E-10
DataValue, -5, -6.2799999999999993E-11, 265.9995, -1.0161000000000001E-11, -1.0466666666666666E-09, 1.6935000000000002E-10
DataValue, -5, 1.038E-10, 268.0005, -1.0263E-11, 1.7300000000000002E-09, 1.7105000000000002E-10
DataValue, -5, -1.746E-11, 270, -1.0159000000000001E-11, -2.9100000000000003E-10, 1.693166666666667E-10
DataValue, -5, -3.71E-12, 271.9995, -9.9330000000000014E-12, -6.183333333333334E-11, 1.6555000000000004E-10
DataValue, -5, 7.2E-11, 274.0005, -1.0218E-11, 1.2E-09, 1.7030000000000002E-10
